!    Infineon Technologies AG
!    BGB707L7ESD RU919007 w#7 Sample Build #08493 Teil Nr. 3
!    Vce = 3.5V, Ic = 6.0mA
!    DATUM: 30.06.2009 10:57:03
# GHz   S   MA   R  50
!f                S11                 S21                 S12                 S22
!GHz            Mag  Ang            Mag  Ang            Mag  Ang            Mag  Ang
 0.050000  0.929345    -2.112 16.040262   178.202  0.001301    72.512  0.995923    -1.281
 0.060000  0.932233    -2.871 16.327091   177.859  0.001749    84.210  0.996264    -1.621
 0.070000  0.929401    -3.212 16.128920   177.508  0.002041    85.732  0.996575    -1.971
 0.080000  0.926009    -3.737 16.050236   176.958  0.002480    85.084  0.996258    -2.313
 0.090000  0.930098    -4.253 16.177380   177.260  0.002767    85.575  0.996219    -2.607
 0.100000  0.927863    -4.848 16.094595   176.319  0.003017    83.801  0.995683    -2.937
 0.110000  0.932142    -5.363 16.150101   176.266  0.003484    84.771  0.995542    -3.244
 0.120000  0.926853    -5.628 16.131155   175.887  0.003844    83.860  0.996302    -3.640
 0.130000  0.928122    -6.077 16.184538   175.552  0.004031    85.144  0.995465    -3.927
 0.140000  0.928909    -6.588 16.115917   175.047  0.004341    84.666  0.994707    -4.180
 0.150000  0.930831    -7.016 16.113956   174.830  0.004737    83.953  0.994336    -4.506
 0.200000  0.927749    -9.479 16.155998   173.232  0.006245    82.053  0.993221    -6.045
 0.250000  0.925720   -11.852 16.047657   171.182  0.007785    82.373  0.988379    -7.626
 0.300000  0.923508   -14.075 16.079214   169.608  0.009364    81.040  0.988802    -9.028
 0.350000  0.918811   -16.491 16.042801   167.685  0.010889    79.714  0.984918   -10.550
 0.400000  0.917539   -18.686 15.981024   165.960  0.012394    78.337  0.981168   -12.016
 0.450000  0.913085   -21.110 16.000015   163.935  0.013848    77.040  0.977915   -13.527
 0.500000  0.910005   -23.406 15.926099   162.262  0.015376    75.474  0.972914   -15.018
 0.600000  0.899181   -28.040 15.778856   158.380  0.018212    72.842  0.962975   -17.962
 0.700000  0.889494   -32.594 15.640330   154.763  0.021002    70.085  0.951000   -20.838
 0.800000  0.875415   -36.986 15.386933   151.349  0.023605    67.598  0.937764   -23.630
 0.900000  0.860870   -41.422 15.144869   147.765  0.026090    64.956  0.922862   -26.405
 1.000000  0.847000   -45.717 14.891163   144.393  0.028416    62.491  0.907085   -29.061
 1.100000  0.830305   -50.071 14.635998   140.948  0.030597    59.984  0.890334   -31.675
 1.200000  0.813932   -54.177 14.312305   137.613  0.032594    57.716  0.873258   -34.158
 1.300000  0.796575   -58.323 14.030663   134.524  0.034450    55.449  0.855865   -36.654
 1.400000  0.780470   -62.218 13.691894   131.439  0.036092    53.326  0.838243   -38.988
 1.500000  0.762081   -66.011 13.355494   128.340  0.037660    51.268  0.819869   -41.198
 1.600000  0.744741   -69.886 13.023842   125.385  0.039020    49.366  0.802545   -43.395
 1.700000  0.729490   -73.509 12.696414   122.675  0.040269    47.568  0.785676   -45.471
 1.800000  0.714314   -77.074 12.380814   120.019  0.041436    45.899  0.768856   -47.449
 1.900000  0.698288   -80.474 12.042680   117.309  0.042429    44.275  0.752441   -49.331
 2.000000  0.683325   -83.946 11.722472   114.831  0.043313    42.722  0.737074   -51.251
 2.200000  0.656638   -90.441 11.133327   110.121  0.044803    40.089  0.707819   -54.780
 2.400000  0.633802   -96.535 10.533026   105.657  0.045959    37.668  0.681705   -58.059
 2.600000  0.614159  -102.244 10.002961   101.587  0.046860    35.754  0.657928   -61.199
 2.800000  0.595344  -107.991  9.535483    97.569  0.047514    33.976  0.637265   -64.166
 3.000000  0.579795  -113.025  9.067720    93.863  0.048054    32.533  0.617797   -67.001
 3.500000  0.547841  -125.075  8.080746    85.102  0.048734    29.871  0.578228   -73.633
 4.000000  0.524098  -135.610  7.266637    77.192  0.048883    28.442  0.546088   -79.752
 4.500000  0.508734  -145.081  6.587190    69.819  0.048984    28.127  0.521442   -86.156
 5.000000  0.502515  -154.189  6.034094    62.720  0.049111    28.576  0.502620   -93.079
 5.500000  0.500364  -162.325  5.555774    55.881  0.049455    29.781  0.489239  -100.121
 6.000000  0.502781  -169.784  5.144952    49.147  0.050306    31.594  0.481253  -107.492
 6.500000  0.507756  -177.166  4.778759    42.185  0.051765    33.400  0.478752  -115.325
 7.000000  0.511820   175.127  4.417989    35.240  0.053689    35.124  0.476918  -123.468
 7.500000  0.518284   167.315  4.073042    28.761  0.056175    36.927  0.476244  -131.442
 8.000000  0.534251   160.004  3.777401    22.648  0.059574    38.278  0.483026  -139.554
 8.500000  0.560419   152.917  3.515609    16.312  0.063193    38.451  0.497119  -147.953
 9.000000  0.588904   146.634  3.244064     9.940  0.066422    38.579  0.513887  -156.393
 9.500000  0.614280   141.261  2.989167     4.163  0.070029    38.863  0.533495  -163.893
10.000000  0.639340   136.617  2.763983    -1.581  0.074518    38.626  0.561364  -170.646
!
!  f       Fmin   Gammaopt  rn/50
! GHz       dB    MAG  ANG    -
 0.100      0.45  0.46    2   0.18
 0.450      0.53  0.46    4   0.18
 0.900      0.61  0.47   12   0.18
 1.800      0.63  0.40   33   0.17
 5.000      0.92  0.31   70   0.16
10.000      1.53  0.40 -131   0.13
!
! (c) 2009  Infineon Technologies AG, Munich

