!    Infineon Technologies AG
!    BGB707L7ESD RU919007 w#7 Sample Build #08493 Teil Nr. 3
!    Vce = 3.0V, Ic = 6.0mA
!    DATUM: 30.06.2009 10:18:11
# GHz   S   MA   R  50
!f                S11                 S21                 S12                 S22
!GHz            Mag  Ang            Mag  Ang            Mag  Ang            Mag  Ang
 0.050000  0.927871    -2.140 16.098820   178.268  0.001343   106.274  0.997277    -1.283
 0.060000  0.932516    -2.608 16.377310   177.921  0.001877    88.520  0.997925    -1.678
 0.070000  0.930878    -3.248 16.186249   177.560  0.002266    86.480  0.998101    -2.018
 0.080000  0.929675    -3.542 16.098906   176.997  0.002413    89.411  0.998136    -2.393
 0.090000  0.930771    -4.512 16.234789   177.273  0.002970    87.188  0.997722    -2.659
 0.100000  0.929141    -4.748 16.155964   176.342  0.003264    88.365  0.997456    -2.973
 0.110000  0.933892    -5.336 16.211748   176.277  0.003539    86.940  0.996881    -3.308
 0.120000  0.931159    -5.518 16.184549   175.917  0.003760    84.687  0.997743    -3.688
 0.130000  0.928946    -6.178 16.243793   175.528  0.004158    84.217  0.996921    -3.913
 0.140000  0.928714    -6.626 16.174799   175.054  0.004563    85.540  0.996581    -4.253
 0.150000  0.929366    -7.015 16.175295   174.833  0.004733    85.958  0.995951    -4.568
 0.200000  0.929510    -9.513 16.208414   173.205  0.006351    84.099  0.994496    -6.116
 0.250000  0.927138   -11.838 16.111376   171.138  0.007834    82.625  0.990816    -7.688
 0.300000  0.925144   -14.102 16.135628   169.555  0.009489    81.256  0.990681    -9.210
 0.350000  0.921766   -16.529 16.105196   167.598  0.010998    79.895  0.986784   -10.710
 0.400000  0.918771   -18.750 16.024786   165.875  0.012566    78.704  0.982736   -12.187
 0.450000  0.913757   -21.231 16.048990   163.836  0.014075    77.274  0.979607   -13.761
 0.500000  0.910978   -23.519 15.976027   162.150  0.015561    75.917  0.974281   -15.225
 0.600000  0.900583   -28.202 15.829228   158.260  0.018524    73.144  0.963905   -18.205
 0.700000  0.889638   -32.736 15.679564   154.626  0.021301    70.202  0.952033   -21.135
 0.800000  0.876101   -37.163 15.431351   151.190  0.023971    67.693  0.938325   -23.949
 0.900000  0.861414   -41.597 15.181499   147.593  0.026450    65.034  0.923312   -26.746
 1.000000  0.847034   -45.907 14.925799   144.226  0.028837    62.593  0.907132   -29.420
 1.100000  0.830321   -50.286 14.666490   140.763  0.031021    60.024  0.890104   -32.096
 1.200000  0.813357   -54.406 14.338698   137.412  0.033045    57.695  0.872988   -34.608
 1.300000  0.796027   -58.547 14.050346   134.340  0.034891    55.458  0.855411   -37.113
 1.400000  0.780056   -62.430 13.719689   131.230  0.036619    53.334  0.837599   -39.486
 1.500000  0.761440   -66.312 13.380315   128.088  0.038182    51.179  0.818871   -41.752
 1.600000  0.743356   -70.161 13.034559   125.150  0.039542    49.245  0.801564   -43.948
 1.700000  0.728272   -73.784 12.709979   122.439  0.040804    47.456  0.784160   -46.047
 1.800000  0.713237   -77.335 12.391256   119.776  0.041911    45.796  0.767091   -48.058
 1.900000  0.697329   -80.752 12.049046   117.060  0.042942    44.215  0.750570   -49.960
 2.000000  0.682167   -84.163 11.721812   114.569  0.043835    42.587  0.735065   -51.905
 2.200000  0.656687   -90.733 11.131004   109.885  0.045331    39.872  0.705732   -55.470
 2.400000  0.632960   -96.767 10.528148   105.386  0.046499    37.525  0.679359   -58.788
 2.600000  0.613698  -102.509  9.992920   101.370  0.047414    35.580  0.655128   -61.913
 2.800000  0.594768  -108.245  9.528136    97.292  0.048093    33.833  0.634368   -64.915
 3.000000  0.579135  -113.278  9.056181    93.599  0.048642    32.364  0.614904   -67.833
 3.500000  0.546946  -125.352  8.067005    84.818  0.049355    29.622  0.575296   -74.550
 4.000000  0.523170  -135.905  7.250446    76.914  0.049494    28.177  0.542722   -80.708
 4.500000  0.508741  -145.486  6.570572    69.528  0.049593    27.778  0.518041   -87.194
 5.000000  0.501068  -154.451  6.018110    62.414  0.049709    28.206  0.499050   -94.176
 5.500000  0.500336  -162.623  5.536524    55.603  0.050069    29.320  0.485737  -101.272
 6.000000  0.502906  -170.117  5.128216    48.840  0.050912    31.036  0.478016  -108.692
 6.500000  0.507071  -177.475  4.760854    41.869  0.052322    32.747  0.475708  -116.568
 7.000000  0.511027   174.807  4.398636    34.923  0.054192    34.420  0.474086  -124.743
 7.500000  0.517726   166.990  4.054154    28.431  0.056603    36.169  0.473763  -132.701
 8.000000  0.534032   159.733  3.758346    22.339  0.059896    37.471  0.481216  -140.804
 8.500000  0.559696   152.664  3.498095    16.014  0.063487    37.689  0.495617  -149.188
 9.000000  0.588062   146.302  3.223531     9.661  0.066617    37.820  0.512695  -157.553
 9.500000  0.613288   140.957  2.970734     3.903  0.070175    38.140  0.532796  -165.008
10.000000  0.638920   136.288  2.745267    -1.828  0.074625    37.922  0.560999  -171.705
!
!  f       Fmin   Gammaopt  rn/50
! GHz       dB    MAG  ANG    -
 0.100      0.45  0.46    2   0.18
 0.450      0.53  0.46    4   0.18
 0.900      0.61  0.47   12   0.18
 1.800      0.63  0.40   33   0.17
 5.000      0.92  0.31   70   0.16
10.000      1.53  0.40 -131   0.13
!
! (c) 2009  Infineon Technologies AG, Munich

