!    Infineon Technologies AG
!    BGB707L7ESD 
!    Vce = 1.8V, Ic = 15.0mA
!    DATUM: 30.06.2009 10:15:52
# GHz   S   MA   R  50
!f                S11                 S21                 S12                 S22
!GHz            Mag  Ang            Mag  Ang            Mag  Ang            Mag  Ang
 0.050000  0.841749    -3.430 29.684731   177.683  0.001649    98.763  0.993106    -1.740
 0.060000  0.842400    -5.037 30.238543   177.068  0.002110    88.962  0.994240    -2.298
 0.070000  0.838632    -5.182 29.902983   176.578  0.002169    86.440  0.994285    -2.813
 0.080000  0.840271    -6.039 29.783979   175.829  0.002624    88.123  0.994925    -3.358
 0.090000  0.843158    -7.101 30.055956   175.854  0.002825    87.033  0.994885    -3.828
 0.100000  0.839418    -7.920 29.881954   174.737  0.003206    85.910  0.993275    -4.216
 0.110000  0.842656    -8.604 30.003958   174.419  0.003520    84.370  0.993224    -4.777
 0.120000  0.838815    -9.233 29.959877   173.880  0.003923    86.145  0.993732    -5.328
 0.130000  0.839865   -10.063 30.063068   173.318  0.004313    85.494  0.992543    -5.789
 0.140000  0.839666   -10.777 29.926245   172.606  0.004602    84.850  0.991437    -6.215
 0.150000  0.837676   -11.607 29.917118   172.186  0.004805    83.980  0.990634    -6.700
 0.200000  0.835241   -15.469 29.902084   169.558  0.006538    81.566  0.986481    -9.007
 0.250000  0.829005   -19.148 29.597784   166.571  0.008078    80.350  0.978630   -11.293
 0.300000  0.825804   -23.054 29.491133   164.049  0.009529    77.910  0.972959   -13.499
 0.350000  0.816205   -26.790 29.243982   161.240  0.010983    75.764  0.963236   -15.686
 0.400000  0.810976   -30.271 28.910547   158.644  0.012464    73.977  0.953128   -17.807
 0.450000  0.800368   -34.150 28.703218   155.797  0.013864    72.315  0.942757   -19.936
 0.500000  0.792847   -37.737 28.323828   153.313  0.015184    70.480  0.930005   -21.975
 0.600000  0.771916   -44.735 27.509510   148.052  0.017747    66.893  0.903939   -25.932
 0.700000  0.750723   -51.577 26.691721   143.169  0.020038    63.634  0.875498   -29.651
 0.800000  0.727227   -57.930 25.672876   138.702  0.022050    60.791  0.845606   -33.047
 0.900000  0.703208   -64.105 24.674450   134.312  0.023839    57.947  0.814760   -36.248
 1.000000  0.681801   -70.004 23.709246   130.267  0.025429    55.515  0.784645   -39.195
 1.100000  0.657961   -75.812 22.752956   126.298  0.026828    53.239  0.754502   -41.932
 1.200000  0.636319   -81.136 21.751913   122.632  0.028074    51.224  0.726701   -44.489
 1.300000  0.616136   -86.336 20.864023   119.313  0.029130    49.550  0.699350   -46.779
 1.400000  0.598069   -91.065 19.967388   116.131  0.030064    48.019  0.674402   -48.979
 1.500000  0.579550   -95.713 19.108299   112.996  0.030910    46.681  0.649768   -50.928
 1.600000  0.562131  -100.199 18.268854   110.150  0.031662    45.528  0.628298   -52.810
 1.700000  0.548864  -104.262 17.521929   107.563  0.032290    44.425  0.607562   -54.550
 1.800000  0.536705  -108.315 16.831936   105.057  0.032918    43.605  0.588734   -56.123
 1.900000  0.523952  -112.139 16.150259   102.542  0.033476    42.954  0.571243   -57.651
 2.000000  0.513914  -115.829 15.501904   100.285  0.033983    42.283  0.555530   -59.192
 2.200000  0.496878  -122.673 14.381978    96.139  0.034919    41.450  0.527462   -61.935
 2.400000  0.483028  -128.766 13.346036    92.222  0.035729    40.823  0.504642   -64.486
 2.600000  0.473662  -134.251 12.461652    88.715  0.036557    40.582  0.484866   -66.975
 2.800000  0.464870  -139.617 11.701286    85.228  0.037354    40.446  0.469226   -69.387
 3.000000  0.457925  -144.131 10.985043    82.146  0.038118    40.517  0.454934   -71.752
 3.500000  0.447440  -154.555  9.542325    74.708  0.040161    41.183  0.428762   -77.472
 4.000000  0.441929  -163.449  8.434100    67.985  0.042521    42.196  0.408734   -82.964
 4.500000  0.442498  -170.950  7.554314    61.659  0.045190    43.314  0.394420   -89.196
 5.000000  0.449027  -177.933  6.852014    55.485  0.048245    44.227  0.384383   -96.278
 5.500000  0.457266   175.364  6.263354    49.466  0.051640    44.818  0.378934  -103.620
 6.000000  0.467457   168.905  5.766877    43.436  0.055337    45.157  0.378548  -111.435
 6.500000  0.479033   162.441  5.326129    37.168  0.059259    44.925  0.382648  -119.834
 7.000000  0.489584   155.843  4.903914    30.955  0.063185    44.359  0.387072  -128.503
 7.500000  0.502163   149.330  4.516060    25.137  0.067149    43.728  0.392608  -136.853
 8.000000  0.522040   143.494  4.187687    19.591  0.071399    42.712  0.405598  -145.258
 8.500000  0.551283   137.929  3.894471    13.743  0.075331    40.997  0.425364  -153.899
 9.000000  0.580196   132.918  3.593852     7.912  0.078478    39.567  0.446752  -162.344
 9.500000  0.604459   128.745  3.318524     2.657  0.081870    38.461  0.471207  -169.599
10.000000  0.628196   125.221  3.076173    -2.639  0.085884    37.113  0.502933  -176.030
!
!                    Infineon Technologies AG
