!    Infineon Technologies AG
!    BGB707L7ESD RU919007 w#7 Sample Build #08493 Teil Nr. 3
!    Vce = 4.0V, Ic = 3.0mA
!    DATUM: 30.06.2009 10:58:05
# GHz   S   MA   R  50
!f                S11                 S21                 S12                 S22
!GHz            Mag  Ang            Mag  Ang            Mag  Ang            Mag  Ang
 0.050000  0.964579    -1.789  9.168209   178.651  0.001514    81.212  0.996590    -1.003
 0.060000  0.968776    -2.147  9.336751   178.420  0.001842    81.547  0.996753    -1.299
 0.070000  0.964058    -2.380  9.223238   178.126  0.002379    81.981  0.997186    -1.572
 0.080000  0.965863    -2.657  9.176264   177.662  0.002544    82.405  0.996961    -1.881
 0.090000  0.969627    -3.202  9.249569   178.031  0.002815    82.544  0.996973    -2.112
 0.100000  0.964338    -3.580  9.199014   177.165  0.003061    81.666  0.996403    -2.329
 0.110000  0.966403    -3.986  9.237856   177.135  0.003368    80.608  0.996306    -2.570
 0.120000  0.964336    -4.238  9.216405   176.879  0.003829    83.038  0.996933    -2.896
 0.130000  0.965856    -4.491  9.253826   176.591  0.004101    81.972  0.996336    -3.135
 0.140000  0.965394    -4.729  9.211872   176.178  0.004362    83.794  0.995944    -3.335
 0.150000  0.965058    -5.220  9.214091   176.030  0.004792    83.147  0.995511    -3.576
 0.200000  0.966461    -7.010  9.236562   174.852  0.006287    82.628  0.994919    -4.781
 0.250000  0.964454    -8.750  9.183265   173.181  0.007910    81.922  0.991342    -6.058
 0.300000  0.963268   -10.520  9.211349   172.028  0.009475    81.609  0.993610    -7.201
 0.350000  0.960312   -12.212  9.208591   170.538  0.010981    80.580  0.990967    -8.375
 0.400000  0.960129   -13.918  9.182776   169.201  0.012609    79.607  0.989236    -9.581
 0.450000  0.958389   -15.789  9.215590   167.572  0.014173    78.685  0.987791   -10.759
 0.500000  0.956805   -17.533  9.196148   166.308  0.015692    77.549  0.985462   -11.949
 0.600000  0.951136   -20.941  9.165442   163.186  0.018743    75.505  0.980764   -14.335
 0.700000  0.946140   -24.469  9.150064   160.320  0.021784    73.218  0.974889   -16.721
 0.800000  0.939075   -27.837  9.074365   157.573  0.024635    71.128  0.968509   -19.046
 0.900000  0.930226   -31.267  9.009899   154.610  0.027451    68.700  0.960860   -21.458
 1.000000  0.922576   -34.687  8.948098   151.825  0.030204    66.527  0.952507   -23.717
 1.100000  0.912182   -38.155  8.884529   148.901  0.032828    64.295  0.943313   -26.010
 1.200000  0.902306   -41.445  8.783650   146.026  0.035348    62.147  0.933923   -28.244
 1.300000  0.892477   -44.827  8.697891   143.358  0.037739    59.941  0.924028   -30.545
 1.400000  0.880966   -48.029  8.584231   140.588  0.039970    57.858  0.913351   -32.720
 1.500000  0.868644   -51.246  8.468250   137.749  0.042081    55.707  0.901287   -34.821
 1.600000  0.856976   -54.528  8.352192   135.031  0.044054    53.683  0.890812   -36.984
 1.700000  0.844852   -57.654  8.229415   132.502  0.045948    51.678  0.879519   -39.056
 1.800000  0.833792   -60.793  8.106013   129.966  0.047676    49.836  0.867719   -41.061
 1.900000  0.820557   -63.724  7.968075   127.333  0.049216    47.933  0.855862   -43.006
 2.000000  0.809602   -66.751  7.835771   124.923  0.050718    46.118  0.844749   -45.002
 2.200000  0.787085   -72.703  7.581980   120.270  0.053303    42.648  0.822333   -48.777
 2.400000  0.766144   -78.294  7.296197   115.677  0.055379    39.455  0.800703   -52.334
 2.600000  0.747353   -83.722  7.036481   111.450  0.057108    36.533  0.780352   -55.810
 2.800000  0.728709   -89.189  6.810280   107.237  0.058465    33.772  0.761978   -59.182
 3.000000  0.711680   -94.187  6.559661   103.251  0.059442    31.299  0.743661   -62.412
 3.500000  0.673333  -106.276  6.012836    93.674  0.060790    25.717  0.703383   -69.987
 4.000000  0.640886  -117.231  5.524868    84.873  0.060577    21.264  0.667674   -76.987
 4.500000  0.617622  -127.435  5.085574    76.571  0.059417    18.001  0.638568   -84.104
 5.000000  0.600249  -137.181  4.718233    68.579  0.057515    15.807  0.614779   -91.501
 5.500000  0.589939  -146.361  4.382871    60.916  0.055061    14.815  0.596050   -98.906
 6.000000  0.584536  -154.799  4.089789    53.354  0.052606    15.342  0.583108  -106.483
 6.500000  0.581666  -163.155  3.817922    45.644  0.050568    17.011  0.575674  -114.395
 7.000000  0.578817  -171.257  3.541296    37.894  0.049036    19.903  0.569283  -122.540
 7.500000  0.578380  -178.911  3.264817    30.634  0.048522    24.173  0.563708  -130.508
 8.000000  0.589038   172.931  3.022198    23.965  0.049774    28.697  0.565928  -138.553
 8.500000  0.609998   164.643  2.808959    17.086  0.052328    31.952  0.575637  -146.823
 9.000000  0.634365   157.241  2.584312    10.115  0.055087    34.701  0.588696  -155.188
 9.500000  0.657399   150.814  2.369134     3.936  0.058776    37.286  0.604390  -162.780
10.000000  0.682031   145.131  2.177186    -2.186  0.063837    38.788  0.628580  -169.629
!
!  f       Fmin   Gammaopt  rn/50 
! GHz       dB    MAG  ANG    -
 0.100      0.40  0.63    2   0.21
 0.450      0.47  0.63    4   0.21
 0.900      0.57  0.65   13   0.20
 1.800      0.64  0.51   35   0.20
 5.000      1.07  0.41   77   0.19
10.000      1.82  0.45 -140   0.13
!
! (c) 2009  Infineon Technologies AG, Munich
