!    Infineon Technologies AG
!    BGB707L7ESD 
!    Vce = 4.0V, Ic = 4.2mA
!    DATUM: 30.06.2009 10:58:12
# GHz   S   MA   R  50
!f                S11                 S21                 S12                 S22
!GHz            Mag  Ang            Mag  Ang            Mag  Ang            Mag  Ang
 0.050000  0.953143    -1.632 12.116386   178.418  0.001722    72.668  0.995525    -1.105
 0.060000  0.953387    -2.773 12.339451   178.131  0.001878    72.892  0.995696    -1.444
 0.070000  0.954879    -2.709 12.184285   177.839  0.002170    78.400  0.995861    -1.739
 0.080000  0.948915    -2.757 12.121417   177.355  0.002533    79.194  0.995437    -2.029
 0.090000  0.950899    -3.622 12.218427   177.690  0.002949    80.165  0.996098    -2.332
 0.100000  0.951081    -4.099 12.159206   176.772  0.003161    78.133  0.995148    -2.576
 0.110000  0.952652    -4.517 12.202969   176.739  0.003373    81.730  0.994916    -2.844
 0.120000  0.949976    -4.847 12.179755   176.433  0.003783    82.025  0.995507    -3.209
 0.130000  0.950783    -5.165 12.222874   176.124  0.004081    81.825  0.995212    -3.431
 0.140000  0.948921    -5.667 12.168916   175.673  0.004392    81.492  0.994346    -3.693
 0.150000  0.949060    -6.048 12.170438   175.504  0.004714    80.238  0.993860    -3.952
 0.200000  0.949618    -8.148 12.202118   174.174  0.006203    81.569  0.993243    -5.306
 0.250000  0.946051    -9.921 12.128289   172.328  0.007835    81.624  0.988855    -6.659
 0.300000  0.947171   -12.024 12.160549   171.022  0.009412    80.332  0.990965    -7.956
 0.350000  0.943565   -14.026 12.146046   169.322  0.010920    79.437  0.987897    -9.264
 0.400000  0.941585   -15.948 12.109258   167.832  0.012487    78.443  0.985116   -10.587
 0.450000  0.939332   -18.048 12.140352   166.052  0.013991    77.321  0.983020   -11.896
 0.500000  0.938208   -20.004 12.109107   164.585  0.015525    76.153  0.979675   -13.209
 0.600000  0.930283   -23.929 12.040930   161.160  0.018467    73.853  0.973087   -15.838
 0.700000  0.922689   -27.926 11.981260   157.940  0.021340    71.618  0.964739   -18.425
 0.800000  0.912445   -31.772 11.851704   154.889  0.024103    69.214  0.955419   -20.961
 0.900000  0.901816   -35.656 11.727280   151.644  0.026790    66.837  0.944947   -23.493
 1.000000  0.891051   -39.448 11.598000   148.593  0.029356    64.502  0.933613   -25.970
 1.100000  0.878375   -43.282 11.466052   145.444  0.031796    62.170  0.921339   -28.421
 1.200000  0.865194   -46.971 11.287176   142.331  0.034009    59.899  0.908368   -30.780
 1.300000  0.851101   -50.723 11.132982   139.453  0.036169    57.733  0.895207   -33.173
 1.400000  0.837944   -54.241 10.935285   136.525  0.038171    55.585  0.881448   -35.438
 1.500000  0.822876   -57.707 10.731705   133.543  0.040020    53.444  0.866633   -37.628
 1.600000  0.807357   -61.338 10.534094   130.686  0.041686    51.417  0.852934   -39.822
 1.700000  0.794039   -64.618 10.328197   128.046  0.043273    49.475  0.838983   -41.907
 1.800000  0.780529   -68.009 10.128683   125.436  0.044669    47.686  0.824706   -43.917
 1.900000  0.765815   -71.178  9.909008   122.753  0.045990    45.927  0.810531   -45.849
 2.000000  0.752927   -74.468  9.699409   120.281  0.047174    44.175  0.797139   -47.823
 2.200000  0.727262   -80.634  9.304303   115.562  0.049173    41.100  0.770797   -51.486
 2.400000  0.704506   -86.446  8.880303   111.020  0.050723    38.134  0.746735   -55.001
 2.600000  0.684808   -92.082  8.500682   106.833  0.051980    35.645  0.723985   -58.297
 2.800000  0.665383   -97.678  8.166888   102.664  0.052923    33.356  0.703841   -61.469
 3.000000  0.647977  -102.766  7.817415    98.772  0.053596    31.266  0.684512   -64.565
 3.500000  0.611098  -114.984  7.065230    89.525  0.054399    27.030  0.643663   -71.712
 4.000000  0.582104  -125.827  6.420027    81.139  0.054123    24.069  0.608574   -78.242
 4.500000  0.561605  -135.771  5.862200    73.259  0.053389    22.286  0.581118   -84.974
 5.000000  0.548738  -145.219  5.401245    65.707  0.052347    21.547  0.559347   -92.095
 5.500000  0.541931  -153.899  4.994076    58.463  0.051176    21.951  0.542940   -99.266
 6.000000  0.540927  -162.006  4.640285    51.332  0.050350    23.535  0.532360  -106.686
 6.500000  0.541985  -169.856  4.321414    43.973  0.050123    25.647  0.527145  -114.510
 7.000000  0.542045  -177.526  4.001581    36.630  0.050535    28.341  0.523003  -122.594
 7.500000  0.545627   174.535  3.687492    29.784  0.051802    31.494  0.519811  -130.538
 8.000000  0.558680   166.714  3.419453    23.441  0.054333    34.402  0.524159  -138.593
 8.500000  0.582443   159.001  3.179701    16.775  0.057623    35.958  0.536063  -146.911
 9.000000  0.608966   152.070  2.929925    10.096  0.060727    37.215  0.551078  -155.309
 9.500000  0.633784   146.141  2.693999     4.107  0.064425    38.484  0.568648  -162.876
10.000000  0.658979   141.052  2.484041    -1.795  0.069247    38.995  0.594570  -169.694
!
!                    Infineon Technologies AG
