!    Infineon Technologies AG
!    BGB707L7ESD 
!    Vce = 4.0V, Ic = 1.6mA
!    DATUM: 30.06.2009 10:57:42
# GHz   S   MA   R  50
!f                S11                 S21                 S12                 S22
!GHz            Mag  Ang            Mag  Ang            Mag  Ang            Mag  Ang
 0.050000  0.983031    -1.515  5.267175   179.066  0.001672    90.357  0.998094    -0.855
 0.060000  0.987703    -1.991  5.369796   178.824  0.001996    90.430  0.998397    -1.096
 0.070000  0.980235    -1.816  5.304440   178.514  0.002076    79.693  0.998249    -1.345
 0.080000  0.980931    -2.156  5.278864   178.063  0.002575    83.433  0.998408    -1.620
 0.090000  0.983862    -2.552  5.319903   178.462  0.002873    85.815  0.997913    -1.780
 0.100000  0.982816    -3.017  5.295127   177.643  0.003120    84.237  0.997604    -2.019
 0.110000  0.985322    -3.168  5.316665   177.687  0.003445    85.674  0.997144    -2.207
 0.120000  0.983069    -3.405  5.306856   177.449  0.003802    83.260  0.998209    -2.497
 0.130000  0.982363    -3.718  5.326515   177.217  0.004167    85.544  0.997835    -2.698
 0.140000  0.985402    -3.907  5.305768   176.829  0.004432    84.280  0.996878    -2.878
 0.150000  0.983265    -4.222  5.300538   176.743  0.004782    84.756  0.996732    -3.090
 0.200000  0.983285    -5.777  5.318104   175.751  0.006431    84.275  0.996837    -4.115
 0.250000  0.980543    -7.072  5.288167   174.301  0.007946    83.705  0.993342    -5.214
 0.300000  0.981739    -8.404  5.308093   173.375  0.009521    82.959  0.996074    -6.169
 0.350000  0.979339    -9.976  5.307304   172.075  0.011203    82.307  0.994814    -7.176
 0.400000  0.979852   -11.281  5.298318   170.982  0.012737    81.404  0.993195    -8.170
 0.450000  0.978302   -12.731  5.316924   169.595  0.014369    80.477  0.993000    -9.217
 0.500000  0.977944   -14.178  5.310156   168.556  0.015969    79.520  0.991505   -10.254
 0.600000  0.975044   -16.992  5.308156   165.876  0.019092    77.644  0.989133   -12.331
 0.700000  0.972344   -19.872  5.310065   163.467  0.022199    75.690  0.985814   -14.380
 0.800000  0.968222   -22.625  5.281718   161.154  0.025255    73.709  0.982577   -16.451
 0.900000  0.963512   -25.444  5.267400   158.619  0.028248    71.657  0.978224   -18.484
 1.000000  0.958700   -28.265  5.253685   156.204  0.031238    69.586  0.973564   -20.535
 1.100000  0.952356   -31.114  5.243943   153.683  0.034148    67.522  0.968532   -22.585
 1.200000  0.947217   -33.911  5.208092   151.159  0.036906    65.538  0.962801   -24.581
 1.300000  0.940082   -36.757  5.186207   148.840  0.039555    63.546  0.957243   -26.637
 1.400000  0.933869   -39.468  5.149516   146.346  0.042242    61.518  0.951209   -28.668
 1.500000  0.925980   -42.225  5.110563   143.759  0.044746    59.429  0.944008   -30.648
 1.600000  0.918002   -45.021  5.071973   141.295  0.047189    57.459  0.937544   -32.634
 1.700000  0.910870   -47.712  5.030701   138.991  0.049443    55.503  0.930305   -34.590
 1.800000  0.903248   -50.439  4.987343   136.668  0.051627    53.565  0.922761   -36.514
 1.900000  0.894741   -53.035  4.931890   134.200  0.053707    51.638  0.915091   -38.392
 2.000000  0.886531   -55.755  4.883385   131.902  0.055666    49.755  0.907818   -40.310
 2.200000  0.871267   -61.026  4.786175   127.496  0.059240    46.121  0.892632   -44.061
 2.400000  0.855570   -66.127  4.662556   123.037  0.062239    42.645  0.877368   -47.644
 2.600000  0.841613   -71.110  4.552078   118.929  0.064945    39.349  0.862376   -51.197
 2.800000  0.826893   -76.206  4.460112   114.750  0.067187    36.136  0.848492   -54.670
 3.000000  0.812464   -80.946  4.342591   110.743  0.069074    33.105  0.834490   -58.049
 3.500000  0.779855   -92.682  4.088393   100.797  0.072201    25.921  0.801768   -66.180
 4.000000  0.748958  -103.611  3.836807    91.516  0.073030    19.478  0.769434   -73.772
 4.500000  0.722937  -113.939  3.595810    82.562  0.072191    13.966  0.741588   -81.446
 5.000000  0.702602  -123.998  3.385696    73.877  0.069787     9.082  0.717354   -89.450
 5.500000  0.687962  -133.617  3.181576    65.503  0.065972     5.252  0.697092   -97.332
 6.000000  0.677005  -142.687  2.993369    57.273  0.061081     2.872  0.680808  -105.326
 6.500000  0.670068  -151.631  2.817708    48.796  0.056003     1.957  0.670387  -113.515
 7.000000  0.660818  -160.408  2.625388    40.256  0.050565     2.974  0.660339  -121.918
 7.500000  0.653887  -168.800  2.420627    32.316  0.045840     7.083  0.650235  -130.114
 8.000000  0.658120  -176.766  2.239007    25.100  0.043234    13.864  0.647911  -138.296
 8.500000  0.674003   174.674  2.079639    17.732  0.043231    20.907  0.653377  -146.592
 9.000000  0.693719   166.212  1.907434    10.236  0.044551    27.800  0.662681  -154.998
 9.500000  0.713493   158.859  1.739459     3.648  0.047933    34.177  0.673563  -162.698
10.000000  0.735132   152.212  1.589923    -2.703  0.053421    38.335  0.693356  -169.646
!
!                    Infineon Technologies AG
