!    Infineon Technologies AG
!    BGB707L7ESD 
!    Vce = 3.0V, Ic = 4.2mA
!    DATUM: 30.06.2009 10:18:03
# GHz   S   MA   R  50
!f                S11                 S21                 S12                 S22
!GHz            Mag  Ang            Mag  Ang            Mag  Ang            Mag  Ang
 0.050000  0.948648    -2.260 12.173117   178.548  0.001690    84.012  0.998253    -1.192
 0.060000  0.954974    -2.785 12.390500   178.220  0.001832    86.722  0.998593    -1.525
 0.070000  0.954399    -2.820 12.238570   177.928  0.002304    89.181  0.998627    -1.801
 0.080000  0.949972    -3.109 12.176188   177.394  0.002471    89.797  0.998558    -2.139
 0.090000  0.952554    -3.664 12.272825   177.729  0.002970    85.997  0.998721    -2.413
 0.100000  0.951393    -4.162 12.207197   176.818  0.003203    84.664  0.997817    -2.611
 0.110000  0.953356    -4.581 12.252110   176.770  0.003537    86.947  0.997698    -2.893
 0.120000  0.951048    -4.848 12.229515   176.463  0.003836    86.547  0.998062    -3.244
 0.130000  0.950790    -5.167 12.280130   176.139  0.004200    85.400  0.997757    -3.528
 0.140000  0.951284    -5.646 12.226715   175.682  0.004535    86.034  0.997236    -3.788
 0.150000  0.950271    -6.090 12.222376   175.505  0.004835    86.243  0.996843    -4.054
 0.200000  0.951159    -8.136 12.249418   174.165  0.006465    85.055  0.996087    -5.434
 0.250000  0.948575   -10.007 12.180186   172.332  0.007998    83.566  0.992881    -6.817
 0.300000  0.946912   -12.138 12.210450   170.952  0.009625    81.990  0.993384    -8.152
 0.350000  0.944307   -14.104 12.197791   169.251  0.011142    81.230  0.990730    -9.488
 0.400000  0.942668   -16.041 12.158097   167.740  0.012750    79.775  0.988169   -10.827
 0.450000  0.940032   -18.128 12.186620   165.928  0.014349    78.753  0.985892   -12.178
 0.500000  0.937319   -20.152 12.151718   164.456  0.015827    77.396  0.982032   -13.518
 0.600000  0.929715   -24.094 12.087340   160.999  0.018927    74.774  0.975389   -16.204
 0.700000  0.922784   -28.067 12.027300   157.763  0.021886    72.219  0.967043   -18.855
 0.800000  0.911500   -31.902 11.886967   154.730  0.024710    69.753  0.957462   -21.455
 0.900000  0.900790   -35.832 11.761964   151.443  0.027449    67.279  0.946460   -24.030
 1.000000  0.890864   -39.635 11.631730   148.369  0.030090    64.915  0.935042   -26.556
 1.100000  0.877286   -43.518 11.499051   145.181  0.032556    62.446  0.922164   -29.041
 1.200000  0.863734   -47.202 11.312017   142.066  0.034874    60.039  0.909460   -31.502
 1.300000  0.850512   -50.976 11.153089   139.173  0.037069    57.890  0.895621   -33.918
 1.400000  0.836870   -54.529 10.956606   136.237  0.039122    55.729  0.881701   -36.216
 1.500000  0.821573   -58.035 10.755399   133.210  0.040994    53.539  0.866411   -38.470
 1.600000  0.806058   -61.590 10.545833   130.368  0.042706    51.501  0.852358   -40.677
 1.700000  0.792561   -64.929 10.339674   127.729  0.044269    49.628  0.837534   -42.789
 1.800000  0.778744   -68.268 10.141444   125.102  0.045727    47.675  0.823438   -44.873
 1.900000  0.764269   -71.514  9.918840   122.384  0.047064    45.896  0.809102   -46.857
 2.000000  0.750019   -74.768  9.698190   119.937  0.048255    44.090  0.795211   -48.877
 2.200000  0.725323   -80.987  9.299515   115.196  0.050293    40.988  0.768345   -52.608
 2.400000  0.702102   -86.828  8.873415   110.603  0.051880    38.016  0.743777   -56.165
 2.600000  0.682423   -92.445  8.490022   106.445  0.053167    35.497  0.720785   -59.544
 2.800000  0.662339   -98.085  8.158438   102.242  0.054140    33.121  0.700561   -62.814
 3.000000  0.645708  -103.132  7.802448    98.367  0.054821    31.092  0.680733   -65.927
 3.500000  0.608390  -115.317  7.045789    89.100  0.055668    26.760  0.639099   -73.213
 4.000000  0.580186  -126.204  6.398301    80.663  0.055391    23.699  0.603538   -79.845
 4.500000  0.559523  -136.076  5.838074    72.822  0.054686    21.855  0.575711   -86.696
 5.000000  0.546854  -145.532  5.375778    65.258  0.053587    20.993  0.553639   -93.960
 5.500000  0.540410  -154.306  4.967319    57.998  0.052469    21.259  0.537342  -101.233
 6.000000  0.539152  -162.364  4.614625    50.851  0.051600    22.594  0.526840  -108.750
 6.500000  0.540523  -170.198  4.291725    43.490  0.051332    24.578  0.521917  -116.628
 7.000000  0.540899  -177.843  3.971225    36.157  0.051605    27.031  0.517980  -124.762
 7.500000  0.543816   174.164  3.658446    29.287  0.052705    30.044  0.515432  -132.698
 8.000000  0.557351   166.390  3.387375    22.932  0.055063    32.844  0.520565  -140.750
 8.500000  0.581424   158.679  3.150336    16.334  0.058187    34.388  0.533206  -149.027
 9.000000  0.608226   151.713  2.899806     9.703  0.061049    35.648  0.548624  -157.335
 9.500000  0.632069   145.853  2.664011     3.729  0.064610    36.988  0.566812  -164.790
10.000000  0.657382   140.726  2.455303    -2.174  0.069295    37.576  0.593397  -171.519
!
!                    Infineon Technologies AG
