!    Infineon Technologies AG
!    BGB707L7ESD RU919007 w#7 Sample Build #08493 Teil Nr. 3
!    Vce = 1.8V, Ic = 6.0mA
!    DATUM: 30.06.2009 10:15:36
# GHz   S   MA   R  50
!f                S11                 S21                 S12                 S22
!GHz            Mag  Ang            Mag  Ang            Mag  Ang            Mag  Ang
 0.050000  0.930346    -2.239 16.177088   178.398  0.001659    80.543  0.998126    -1.443
 0.060000  0.934006    -3.224 16.474382   178.023  0.001969    86.559  0.997874    -1.786
 0.070000  0.929571    -3.465 16.275564   177.664  0.002397    88.289  0.998411    -2.141
 0.080000  0.930511    -3.740 16.202982   177.083  0.002583    87.275  0.998437    -2.510
 0.090000  0.934807    -4.342 16.339106   177.345  0.002913    87.315  0.998357    -2.825
 0.100000  0.930514    -4.873 16.255827   176.372  0.003261    88.384  0.997870    -3.139
 0.110000  0.932751    -5.275 16.320658   176.266  0.003593    86.606  0.997516    -3.479
 0.120000  0.929509    -5.738 16.285904   175.924  0.003997    86.954  0.998088    -3.879
 0.130000  0.929027    -6.138 16.347023   175.554  0.004329    88.017  0.997328    -4.173
 0.140000  0.931323    -6.750 16.277515   175.032  0.004742    86.171  0.996754    -4.470
 0.150000  0.930194    -7.249 16.282835   174.792  0.005095    86.048  0.996484    -4.791
 0.200000  0.930066    -9.666 16.319874   173.105  0.006787    84.653  0.994916    -6.415
 0.250000  0.927328   -12.036 16.212957   171.000  0.008438    83.089  0.990950    -8.055
 0.300000  0.925348   -14.491 16.230303   169.362  0.009998    81.260  0.990378    -9.657
 0.350000  0.921179   -16.848 16.194525   167.382  0.011703    80.179  0.986458   -11.235
 0.400000  0.918952   -19.067 16.121862   165.611  0.013304    78.507  0.982237   -12.787
 0.450000  0.915543   -21.596 16.134876   163.536  0.014941    77.188  0.978671   -14.397
 0.500000  0.910795   -23.876 16.058468   161.851  0.016539    75.661  0.973350   -15.970
 0.600000  0.899318   -28.588 15.893645   157.908  0.019562    72.920  0.962358   -19.090
 0.700000  0.888243   -33.277 15.743051   154.179  0.022537    70.013  0.949754   -22.155
 0.800000  0.874482   -37.845 15.481730   150.682  0.025278    67.283  0.935527   -25.118
 0.900000  0.859859   -42.288 15.218667   147.055  0.027939    64.565  0.919457   -28.027
 1.000000  0.844632   -46.633 14.953706   143.640  0.030431    61.944  0.902679   -30.859
 1.100000  0.828058   -51.033 14.679443   140.131  0.032739    59.430  0.885053   -33.620
 1.200000  0.810330   -55.217 14.346137   136.750  0.034836    57.061  0.866912   -36.252
 1.300000  0.792865   -59.439 14.048475   133.628  0.036758    54.786  0.848279   -38.868
 1.400000  0.776533   -63.355 13.704119   130.516  0.038558    52.609  0.829903   -41.331
 1.500000  0.757627   -67.242 13.352995   127.350  0.040160    50.472  0.810327   -43.662
 1.600000  0.739409   -71.127 13.001537   124.397  0.041556    48.536  0.792406   -46.004
 1.700000  0.724126   -74.822 12.664261   121.678  0.042861    46.698  0.774352   -48.198
 1.800000  0.708485   -78.350 12.342304   118.991  0.044030    44.982  0.756844   -50.286
 1.900000  0.693347   -81.827 11.993420   116.263  0.045097    43.369  0.740020   -52.298
 2.000000  0.678153   -85.294 11.659282   113.777  0.046028    41.795  0.723586   -54.292
 2.200000  0.650776   -91.818 11.060630   109.063  0.047539    39.065  0.693223   -57.981
 2.400000  0.627620   -97.879 10.447886   104.606  0.048735    36.698  0.666278   -61.431
 2.600000  0.608857  -103.596  9.913858   100.515  0.049705    34.648  0.641820   -64.729
 2.800000  0.590176  -109.387  9.440089    96.474  0.050453    32.848  0.620814   -67.892
 3.000000  0.574709  -114.470  8.968559    92.770  0.050929    31.382  0.600581   -70.893
 3.500000  0.543136  -126.481  7.971887    84.004  0.051681    28.502  0.560228   -77.883
 4.000000  0.520776  -137.056  7.155283    76.098  0.051844    26.943  0.527358   -84.289
 4.500000  0.506266  -146.487  6.478072    68.713  0.051992    26.360  0.502240   -91.027
 5.000000  0.499802  -155.411  5.921592    61.605  0.052073    26.510  0.483388   -98.237
 5.500000  0.498864  -163.544  5.443726    54.781  0.052393    27.372  0.470567  -105.534
 6.000000  0.501631  -171.054  5.034610    48.005  0.053157    28.760  0.463545  -113.140
 6.500000  0.506145  -178.393  4.664427    41.037  0.054447    30.214  0.461942  -121.122
 7.000000  0.510698   173.822  4.303954    34.130  0.056068    31.644  0.461405  -129.371
 7.500000  0.517148   166.106  3.960494    27.703  0.058251    33.213  0.462289  -137.343
 8.000000  0.533233   158.800  3.667411    21.672  0.061251    34.428  0.471299  -145.390
 8.500000  0.559559   151.803  3.407799    15.364  0.064510    34.629  0.487262  -153.648
 9.000000  0.587001   145.492  3.137843     9.030  0.067301    34.811  0.505480  -161.802
 9.500000  0.611848   140.222  2.887956     3.371  0.070529    35.208  0.526933  -168.985
10.000000  0.637394   135.645  2.666885    -2.295  0.074746    35.134  0.556053  -175.398
!
!  f       Fmin   Gammaopt  rn/50
! GHz       dB    MAG  ANG    -
 0.100      0.45  0.46    2   0.18
 0.450      0.53  0.46    4   0.18
 0.900      0.61  0.47   12   0.18
 1.800      0.63  0.40   33   0.17
 5.000      0.92  0.31   70   0.16
10.000      1.53  0.40 -131   0.13
!
! (c) 2009  Infineon Technologies AG, Munich

