!    Infineon Technologies AG
!    BGB707L7ESD 
!    VCE = 1.0V, IC = 1.0mA
!    DATUM: 02.07.2009 17:27:06
# GHz   S   MA   R  50
!f                S11                 S21                 S12                 S22
!GHz            Mag  Ang            Mag  Ang            Mag  Ang            Mag  Ang
 0.050000  1.001361    -0.944  0.002614    19.858  0.002272    92.134  0.999528    -1.036
 0.060000  1.002204    -1.133  0.004540    76.280  0.003065    90.268  0.999726    -1.236
 0.070000  0.998087    -1.497  0.004649    33.251  0.003050    90.065  0.999756    -1.437
 0.080000  1.001855    -1.339  0.002963    77.509  0.003851    87.084  0.999827    -1.644
 0.090000  1.004872    -1.667  0.003760   100.652  0.004255    89.237  0.999728    -1.848
 0.100000  0.998878    -1.814  0.005871    66.969  0.004648    88.332  0.999708    -2.047
 0.110000  1.000649    -1.964  0.007971   108.584  0.005102    87.389  0.999116    -2.216
 0.120000  1.001139    -2.293  0.004134    81.910  0.005538    86.372  0.999276    -2.371
 0.130000  0.997002    -2.425  0.005124    85.786  0.006117    88.293  0.999781    -2.690
 0.140000  1.000249    -2.724  0.005374    81.385  0.006561    87.663  0.999338    -2.861
 0.150000  1.000907    -2.917  0.006071    92.046  0.007111    87.436  0.999589    -3.064
 0.200000  1.000395    -3.722  0.008472    84.067  0.009401    86.296  0.999103    -4.052
 0.250000  0.999137    -4.642  0.012220    86.590  0.011830    85.663  0.999011    -5.135
 0.300000  0.999480    -5.665  0.012786    86.560  0.014275    85.113  0.998749    -6.132
 0.350000  0.998101    -6.624  0.015523    82.930  0.016604    83.835  0.998246    -7.095
 0.400000  0.999049    -7.559  0.017118    81.762  0.019038    83.242  0.998304    -8.143
 0.450000  0.998179    -8.571  0.019678    82.868  0.021395    82.227  0.997803    -9.145
 0.500000  0.998730    -9.355  0.022217    82.754  0.023765    81.393  0.997086   -10.127
 0.600000  0.998650   -11.252  0.026070    79.688  0.028559    79.538  0.995852   -12.135
 0.700000  0.997242   -13.189  0.030230    77.395  0.033413    77.620  0.994465   -14.186
 0.800000  0.996442   -15.034  0.035289    76.446  0.038018    75.790  0.993197   -16.177
 0.900000  0.995314   -16.899  0.038648    75.026  0.042699    73.878  0.991611   -18.188
 1.000000  0.994636   -18.797  0.043717    72.489  0.047421    71.933  0.989827   -20.275
 1.100000  0.993061   -20.670  0.047798    70.682  0.052062    70.056  0.987688   -22.284
 1.200000  0.992620   -22.565  0.052662    69.106  0.056552    68.133  0.985220   -24.328
 1.300000  0.990617   -24.486  0.056423    67.298  0.061075    66.261  0.983297   -26.384
 1.400000  0.989069   -26.397  0.060632    65.214  0.065515    64.326  0.980371   -28.425
 1.500000  0.988158   -28.273  0.064344    63.334  0.069860    62.410  0.977849   -30.450
 1.600000  0.986598   -30.263  0.068728    61.347  0.073981    60.498  0.974903   -32.482
 1.700000  0.984346   -32.086  0.072326    59.657  0.078226    58.501  0.972026   -34.524
 1.800000  0.983683   -34.006  0.075863    58.001  0.082370    56.600  0.968662   -36.594
 1.900000  0.981121   -35.916  0.079563    55.443  0.086171    54.704  0.966015   -38.596
 2.000000  0.980312   -37.793  0.083975    54.129  0.090026    52.828  0.962738   -40.628
 2.200000  0.977671   -41.674  0.090345    50.450  0.097326    49.017  0.956080   -44.689
 2.400000  0.974507   -45.598  0.095721    46.361  0.104110    45.317  0.949485   -48.679
 2.600000  0.971699   -49.372  0.102382    43.282  0.110466    41.670  0.943242   -52.648
 2.800000  0.969573   -53.181  0.108327    39.923  0.116400    38.060  0.937216   -56.598
 3.000000  0.967940   -57.011  0.113617    36.192  0.121732    34.668  0.931699   -60.432
 3.500000  0.961780   -66.667  0.124779    27.692  0.133409    25.663  0.916759   -70.057
 4.000000  0.955298   -76.153  0.131871    18.586  0.141570    16.884  0.900619   -79.465
 4.500000  0.948287   -85.719  0.136522     9.855  0.146386     8.237  0.884595   -89.066
 5.000000  0.942818   -95.380  0.138155     1.446  0.147996    -0.594  0.868677   -99.063
 5.500000  0.937429  -105.067  0.136479    -7.178  0.145375    -9.149  0.853522  -108.929
 6.000000  0.933423  -114.615  0.130514   -15.416  0.139247   -17.306  0.839724  -118.705
 6.500000  0.931392  -124.351  0.123386   -23.594  0.130767   -25.459  0.829543  -128.428
 7.000000  0.921518  -134.410  0.110581   -31.867  0.118356   -33.525  0.816838  -138.171
 7.500000  0.904201  -144.429  0.094061   -38.177  0.102773   -40.253  0.800862  -147.383
 8.000000  0.892401  -154.029  0.078913   -43.703  0.086759   -45.190  0.792756  -156.172
 8.500000  0.892860  -163.688  0.063578   -45.809  0.071544   -48.728  0.791263  -164.695
 9.000000  0.897943  -172.815  0.048920   -45.996  0.055461   -50.032  0.792600  -172.832
 9.500000  0.901376   178.961  0.035030   -38.567  0.041157   -44.875  0.794161  -179.992
10.000000  0.907077   170.028  0.027609   -20.085  0.031780   -31.089  0.803128   171.987
!
!                    Infineon Technologies AG
