!    Infineon Technologies AG
!    BGB707L7ESD 
!    Vce = 3.5V, Ic = 20.0mA
!    DATUM: 30.06.2009 10:57:26
# GHz   S   MA   R  50
!f                S11                 S21                 S12                 S22
!GHz            Mag  Ang            Mag  Ang            Mag  Ang            Mag  Ang
 0.050000  0.793234    -4.101 33.816437   177.152  0.001400    93.596  0.990449    -1.590
 0.060000  0.791157    -5.318 34.402287   176.555  0.001909    87.916  0.992023    -2.160
 0.070000  0.790200    -5.818 34.018898   176.054  0.002268    82.608  0.992580    -2.740
 0.080000  0.791484    -6.324 33.870911   175.312  0.002484    86.024  0.992226    -3.269
 0.090000  0.793596    -7.805 34.159603   175.315  0.002738    85.943  0.992499    -3.813
 0.100000  0.791906    -8.539 33.976883   174.182  0.002929    82.657  0.991330    -4.275
 0.110000  0.794794    -9.276 34.112476   173.837  0.003303    82.056  0.991197    -4.783
 0.120000  0.789908   -10.204 34.060333   173.282  0.003578    82.796  0.991222    -5.323
 0.130000  0.791268   -10.907 34.166370   172.695  0.003852    83.015  0.989985    -5.842
 0.140000  0.788800   -11.558 34.002129   171.950  0.004139    82.531  0.988813    -6.302
 0.150000  0.789023   -12.737 33.984253   171.502  0.004460    82.081  0.987941    -6.772
 0.200000  0.786616   -16.998 33.956875   168.700  0.005821    81.192  0.982280    -9.158
 0.250000  0.779311   -20.990 33.546009   165.584  0.007215    79.319  0.972492   -11.530
 0.300000  0.773876   -25.166 33.401672   162.843  0.008609    76.510  0.967057   -13.709
 0.350000  0.764909   -29.201 33.045273   159.873  0.009951    74.988  0.955375   -15.904
 0.400000  0.759086   -33.110 32.615204   157.114  0.011264    73.051  0.943831   -18.019
 0.450000  0.749609   -37.155 32.298756   154.114  0.012442    71.211  0.931742   -20.129
 0.500000  0.740495   -41.098 31.813515   151.506  0.013631    69.377  0.917373   -22.142
 0.600000  0.718097   -48.482 30.728268   146.058  0.015768    66.054  0.888377   -26.009
 0.700000  0.695686   -55.867 29.646278   140.982  0.017750    62.887  0.856985   -29.526
 0.800000  0.672602   -62.551 28.371059   136.402  0.019456    60.221  0.825316   -32.775
 0.900000  0.649221   -69.062 27.129408   131.936  0.020974    57.520  0.793076   -35.784
 1.000000  0.627560   -75.172 25.934916   127.884  0.022296    55.450  0.761850   -38.431
 1.100000  0.604882   -81.175 24.776102   123.927  0.023473    53.470  0.731155   -40.866
 1.200000  0.584992   -86.654 23.605185   120.298  0.024501    51.765  0.703250   -43.104
 1.300000  0.565723   -92.083 22.549438   117.014  0.025371    50.366  0.676564   -45.186
 1.400000  0.549771   -96.860 21.505802   113.893  0.026189    49.151  0.652057   -47.061
 1.500000  0.532863  -101.529 20.520920   110.868  0.026901    48.140  0.628422   -48.678
 1.600000  0.518345  -106.118 19.577448   108.095  0.027565    47.223  0.607958   -50.319
 1.700000  0.506476  -110.226 18.733837   105.564  0.028131    46.572  0.588559   -51.783
 1.800000  0.496002  -114.234 17.954288   103.148  0.028727    45.993  0.571014   -53.143
 1.900000  0.486113  -118.066 17.195858   100.747  0.029237    45.643  0.554699   -54.403
 2.000000  0.476840  -121.769 16.487478    98.562  0.029714    45.219  0.540465   -55.703
 2.200000  0.462365  -128.475 15.249275    94.582  0.030682    44.831  0.514927   -58.031
 2.400000  0.452679  -134.347 14.122996    90.816  0.031586    44.673  0.494430   -60.227
 2.600000  0.445148  -139.769 13.162815    87.432  0.032472    44.856  0.477107   -62.395
 2.800000  0.439228  -144.825 12.338365    84.133  0.033387    45.095  0.463296   -64.550
 3.000000  0.434355  -149.182 11.575542    81.144  0.034323    45.484  0.451019   -66.665
 3.500000  0.428462  -159.096 10.038669    74.021  0.036775    46.721  0.428516   -71.876
 4.000000  0.425852  -167.345  8.865100    67.544  0.039585    47.966  0.411420   -77.016
 4.500000  0.428117  -174.517  7.938072    61.445  0.042823    49.218  0.398998   -82.932
 5.000000  0.435595   178.840  7.203500    55.467  0.046352    50.042  0.389982   -89.750
 5.500000  0.444683   172.403  6.586788    49.634  0.050215    50.497  0.384878   -96.894
 6.000000  0.456632   166.548  6.072032    43.773  0.054372    50.497  0.383945  -104.558
 6.500000  0.469325   160.296  5.615667    37.646  0.058774    50.018  0.387071  -112.890
 7.000000  0.481576   154.027  5.183009    31.569  0.063072    49.125  0.390188  -121.593
 7.500000  0.494914   147.786  4.781352    25.835  0.067443    48.138  0.394131  -130.044
 8.000000  0.516551   142.081  4.441921    20.328  0.072049    46.807  0.405048  -138.639
 8.500000  0.546836   136.720  4.139042    14.540  0.076236    44.814  0.422787  -147.607
 9.000000  0.576157   131.960  3.828746     8.755  0.079671    43.081  0.442398  -156.480
 9.500000  0.601618   127.935  3.543858     3.486  0.083284    41.743  0.465253  -164.194
10.000000  0.625548   124.522  3.291768    -1.806  0.087497    40.129  0.496190  -170.998
!
!                    Infineon Technologies AG
