!    Infineon Technologies AG
!    BGB707L7ESD RU919007 w#7 Sample Build #08493 Teil Nr. 3
!    Vce = 3.0V, Ic = 10.0mA
!    DATUM: 30.06.2009 10:18:19
# GHz   S   MA   R  50
!f                S11                 S21                 S12                 S22
!GHz            Mag  Ang            Mag  Ang            Mag  Ang            Mag  Ang
 0.050000  0.892840    -2.808 23.085279   177.825  0.001608    86.745  0.996848    -1.525
 0.060000  0.890108    -3.549 23.496853   177.369  0.001963    84.191  0.996998    -1.965
 0.070000  0.889639    -4.127 23.227173   176.950  0.002166    86.609  0.997162    -2.333
 0.080000  0.886985    -4.821 23.115952   176.315  0.002453    87.940  0.997179    -2.780
 0.090000  0.890906    -5.587 23.306581   176.532  0.002745    87.578  0.997314    -3.199
 0.100000  0.888165    -6.176 23.185780   175.518  0.003180    84.065  0.996306    -3.544
 0.110000  0.890766    -6.792 23.275784   175.332  0.003487    85.740  0.996040    -3.924
 0.120000  0.886575    -7.193 23.240192   174.908  0.003628    86.175  0.996536    -4.360
 0.130000  0.888474    -7.792 23.316242   174.452  0.003997    86.200  0.995591    -4.698
 0.140000  0.886582    -8.484 23.218184   173.868  0.004361    84.789  0.994841    -5.089
 0.150000  0.888368    -9.058 23.215723   173.558  0.004676    85.500  0.994240    -5.475
 0.200000  0.886474   -12.178 23.252886   171.505  0.006196    83.448  0.991790    -7.356
 0.250000  0.880983   -15.055 23.058037   169.026  0.007722    81.118  0.986595    -9.259
 0.300000  0.877350   -18.087 23.056261   167.004  0.009250    79.915  0.984008   -11.034
 0.350000  0.871446   -21.041 22.949265   164.656  0.010658    78.217  0.977733   -12.842
 0.400000  0.869306   -23.873 22.791916   162.530  0.012175    76.493  0.971505   -14.655
 0.450000  0.862001   -26.879 22.739809   160.100  0.013585    75.090  0.965140   -16.431
 0.500000  0.855531   -29.877 22.554401   158.031  0.014947    73.595  0.956437   -18.162
 0.600000  0.839818   -35.590 22.158417   153.449  0.017634    70.278  0.939396   -21.613
 0.700000  0.822649   -41.163 21.749594   149.203  0.020140    67.275  0.920033   -24.929
 0.800000  0.803721   -46.581 21.189709   145.174  0.022432    64.377  0.898659   -28.050
 0.900000  0.784009   -51.868 20.626173   141.122  0.024538    61.636  0.875985   -31.066
 1.000000  0.765257   -56.995 20.062696   137.332  0.026466    59.071  0.852709   -33.924
 1.100000  0.742623   -62.109 19.492676   133.546  0.028180    56.584  0.828638   -36.656
 1.200000  0.721774   -66.825 18.848749   129.969  0.029738    54.370  0.805139   -39.212
 1.300000  0.701637   -71.538 18.271086   126.693  0.031151    52.297  0.782095   -41.687
 1.400000  0.682827   -75.889 17.656317   123.469  0.032344    50.472  0.759410   -43.961
 1.500000  0.662375   -80.139 17.043272   120.276  0.033460    48.637  0.736749   -46.087
 1.600000  0.642507   -84.379 16.444050   117.322  0.034414    47.125  0.716074   -48.148
 1.700000  0.627343   -88.319 15.888140   114.631  0.035271    45.599  0.696152   -50.062
 1.800000  0.611896   -92.165 15.362857   112.022  0.036051    44.350  0.677306   -51.864
 1.900000  0.596656   -95.854 14.828764   109.344  0.036726    43.223  0.659340   -53.547
 2.000000  0.582251   -99.520 14.318229   106.968  0.037344    42.179  0.642826   -55.262
 2.200000  0.557998  -106.274 13.418840   102.494  0.038400    40.422  0.612644   -58.341
 2.400000  0.538803  -112.505 12.547142    98.325  0.039244    38.969  0.586984   -61.197
 2.600000  0.522748  -118.239 11.796342    94.517  0.039964    37.990  0.564355   -63.914
 2.800000  0.508904  -123.853 11.141587    90.816  0.040603    37.165  0.545714   -66.547
 3.000000  0.497211  -128.801 10.511959    87.420  0.041163    36.715  0.528458   -69.050
 3.500000  0.476366  -140.241  9.224996    79.413  0.042395    36.114  0.495154   -75.003
 4.000000  0.462589  -150.126  8.206482    72.179  0.043672    36.519  0.469074   -80.523
 4.500000  0.456456  -158.785  7.385613    65.460  0.045249    37.417  0.450046   -86.649
 5.000000  0.456194  -166.813  6.727270    58.938  0.047152    38.583  0.435879   -93.437
 5.500000  0.460966  -174.082  6.167653    52.632  0.049412    39.835  0.426680  -100.477
 6.000000  0.468878   179.312  5.694889    46.357  0.052090    40.985  0.422715  -107.917
 6.500000  0.477750   172.025  5.275960    39.844  0.055249    41.681  0.423465  -115.932
 7.000000  0.486061   164.771  4.870018    33.356  0.058525    42.045  0.424526  -124.276
 7.500000  0.496269   157.545  4.490614    27.301  0.062113    42.282  0.426983  -132.408
 8.000000  0.514934   151.202  4.167460    21.546  0.066122    42.117  0.436621  -140.674
 8.500000  0.544099   144.878  3.883129    15.505  0.070057    41.043  0.453190  -149.275
 9.000000  0.573073   139.298  3.587767     9.440  0.073324    40.125  0.472020  -157.804
 9.500000  0.598438   134.571  3.314356     3.940  0.076814    39.507  0.493897  -165.289
10.000000  0.623698   130.576  3.072576    -1.558  0.081093    38.503  0.523951  -171.979
!
!  f       Fmin   Gammaopt  rn/50 
! GHz       dB    MAG  ANG    -
 0.100      0.55  0.46    2   0.18
 0.450      0.69  0.46    4   0.18
 0.900      0.73  0.47   12   0.18
 1.800      0.75  0.40   33   0.17
 5.000      0.97  0.31   70   0.16
10.000	      1.48  0.39 -123   0.14
!
! (c) 2009  Infineon Technologies AG, Munich
