!    Infineon Technologies AG
!    BGB707L7ESD 
!    Vce = 1.8V, Ic = 25.0mA
!    DATUM: 30.06.2009 10:16:07
# GHz   S   MA   R  50
!f                S11                 S21                 S12                 S22
!GHz            Mag  Ang            Mag  Ang            Mag  Ang            Mag  Ang
 0.050000  0.683604    -7.091 30.097206   176.672  0.001643    67.174  0.890616    -2.185
 0.060000  0.687849    -9.316 30.557413   175.763  0.002500    73.823  0.892319    -2.862
 0.070000  0.683051   -10.164 30.258354   174.951  0.002908    67.265  0.891847    -3.587
 0.080000  0.682499   -11.610 30.144474   173.897  0.003358    72.619  0.891366    -4.250
 0.090000  0.684326   -13.498 30.367802   173.522  0.003732    72.363  0.891586    -4.932
 0.100000  0.679894   -14.948 30.144083   172.164  0.003893    72.886  0.890989    -5.531
 0.110000  0.683329   -16.540 30.199205   171.517  0.004452    71.742  0.889743    -6.149
 0.120000  0.680176   -17.535 30.118301   170.691  0.004867    72.255  0.889188    -6.862
 0.130000  0.681737   -19.130 30.142038   169.825  0.005153    73.362  0.887382    -7.480
 0.140000  0.678706   -20.674 29.981232   168.852  0.005478    73.303  0.884745    -8.032
 0.150000  0.678177   -22.077 29.945360   168.126  0.005821    72.172  0.882678    -8.647
 0.200000  0.679241   -29.345 29.757751   164.039  0.007682    71.729  0.873557   -11.625
 0.250000  0.673326   -36.234 29.168337   159.853  0.009298    69.633  0.858750   -14.457
 0.300000  0.670225   -42.963 28.769629   156.036  0.011033    67.265  0.844848   -17.058
 0.350000  0.663169   -49.498 28.109087   152.170  0.012579    64.910  0.827694   -19.598
 0.400000  0.658592   -55.491 27.441906   148.591  0.013947    62.663  0.809072   -21.947
 0.450000  0.652965   -61.869 26.842270   144.844  0.015280    60.555  0.791387   -24.191
 0.500000  0.649615   -67.487 26.082912   141.650  0.016456    58.478  0.770569   -26.210
 0.600000  0.637557   -78.333 24.561571   135.209  0.018529    54.770  0.731113   -29.883
 0.700000  0.626090   -88.017 23.068146   129.522  0.020268    51.613  0.693653   -33.044
 0.800000  0.617263   -96.409 21.650667   124.592  0.021608    49.106  0.659281   -35.651
 0.900000  0.607135  -104.358 20.235605   119.941  0.022771    46.728  0.627200   -37.915
 1.000000  0.600527  -111.336 18.954645   115.907  0.023699    45.043  0.598459   -39.826
 1.100000  0.592759  -117.901 17.787449   112.029  0.024510    43.575  0.571972   -41.489
 1.200000  0.586310  -123.634 16.694809   108.559  0.025162    42.422  0.549747   -43.033
 1.300000  0.581710  -128.943 15.735836   105.481  0.025781    41.606  0.529801   -44.422
 1.400000  0.578724  -133.565 14.834030   102.588  0.026302    40.976  0.512370   -45.683
 1.500000  0.574158  -137.904 14.022415    99.801  0.026777    40.419  0.496259   -46.811
 1.600000  0.569847  -141.901 13.277252    97.316  0.027207    40.239  0.483143   -47.966
 1.700000  0.568654  -145.419 12.596425    95.017  0.027617    40.066  0.470869   -49.024
 1.800000  0.568698  -148.779 11.999485    92.832  0.027984    40.054  0.460255   -50.094
 1.900000  0.567237  -152.000 11.429088    90.627  0.028437    40.136  0.450677   -51.129
 2.000000  0.566069  -154.889 10.893722    88.687  0.028764    40.310  0.442803   -52.289
 2.200000  0.566777  -160.090  9.990520    84.974  0.029549    40.895  0.428710   -54.482
 2.400000  0.566559  -164.595  9.182038    81.506  0.030393    41.604  0.418416   -56.681
 2.600000  0.568090  -168.485  8.513580    78.394  0.031216    42.505  0.410030   -59.046
 2.800000  0.569185  -172.285  7.936799    75.217  0.032146    43.486  0.403806   -61.401
 3.000000  0.570428  -175.461  7.416396    72.365  0.033087    44.497  0.398444   -63.891
 3.500000  0.574435   177.205  6.366425    65.514  0.035813    47.031  0.389862   -70.223
 4.000000  0.578124   170.580  5.584583    59.144  0.039076    49.322  0.383013   -76.634
 4.500000  0.585268   164.630  4.965537    53.059  0.042900    51.078  0.378246   -83.981
 5.000000  0.594553   158.943  4.473467    46.986  0.047270    52.162  0.375203   -92.170
 5.500000  0.604827   153.567  4.063234    41.023  0.052037    52.591  0.375326  -100.649
 6.000000  0.616187   148.513  3.717370    34.990  0.057144    52.340  0.378727  -109.576
 6.500000  0.626198   143.050  3.403797    28.657  0.062367    51.355  0.386045  -118.891
 7.000000  0.633810   137.671  3.105718    22.508  0.067390    50.014  0.393470  -128.386
 7.500000  0.644104   132.362  2.835643    16.820  0.072474    48.489  0.401643  -137.509
 8.000000  0.662649   127.554  2.607474    11.388  0.077694    46.567  0.416527  -146.568
 8.500000  0.685670   122.874  2.402446     5.697  0.082118    44.010  0.437273  -155.593
 9.000000  0.707366   118.778  2.194566     0.150  0.085697    41.901  0.460577  -164.266
 9.500000  0.724007   115.354  2.008702    -4.731  0.089488    40.163  0.486509  -171.752
10.000000  0.739518   112.310  1.846738    -9.578  0.093797    38.104  0.518360  -178.392
!
!                    Infineon Technologies AG
