!    Infineon Technologies AG
!    BGB707L7ESD RU919007 w#7 Sample Build #08493 Teil Nr. 3
!    Vce = 1.8V, Ic = 2.6mA
!    DATUM: 30.06.2009 10:15:13
# GHz   S   MA   R  50
!f                S11                 S21                 S12                 S22
!GHz            Mag  Ang            Mag  Ang            Mag  Ang            Mag  Ang
 0.050000  0.967572    -1.443  8.139369   178.885  0.001932    85.692  0.998920    -1.110
 0.060000  0.972858    -2.113  8.298132   178.632  0.002290    83.558  0.998796    -1.403
 0.070000  0.969300    -2.399  8.197599   178.329  0.002515    89.032  0.998973    -1.652
 0.080000  0.968082    -2.403  8.156870   177.867  0.002684    89.096  0.998861    -1.924
 0.090000  0.969510    -3.109  8.221203   178.206  0.003152    90.059  0.998984    -2.183
 0.100000  0.969103    -3.517  8.186021   177.329  0.003392    86.369  0.998491    -2.413
 0.110000  0.972974    -3.786  8.218225   177.305  0.003880    89.563  0.998578    -2.671
 0.120000  0.969363    -4.013  8.201623   177.044  0.004002    88.328  0.999178    -2.979
 0.130000  0.968398    -4.373  8.233580   176.762  0.004478    87.588  0.998541    -3.230
 0.140000  0.969985    -4.689  8.195792   176.348  0.004860    86.096  0.998008    -3.410
 0.150000  0.968090    -4.970  8.192719   176.193  0.005069    86.702  0.997858    -3.671
 0.200000  0.968148    -6.812  8.217241   175.011  0.006882    85.755  0.997233    -4.923
 0.250000  0.968334    -8.455  8.178916   173.365  0.008577    84.079  0.994912    -6.152
 0.300000  0.965996   -10.023  8.198595   172.231  0.010339    83.487  0.995646    -7.343
 0.350000  0.965352   -11.771  8.190610   170.756  0.011991    82.284  0.994066    -8.581
 0.400000  0.963842   -13.403  8.167243   169.466  0.013747    81.066  0.992504    -9.806
 0.450000  0.962185   -15.109  8.195773   167.910  0.015440    80.156  0.991109   -11.028
 0.500000  0.960251   -16.824  8.184263   166.627  0.017179    78.878  0.988571   -12.242
 0.600000  0.955832   -20.210  8.161045   163.586  0.020551    76.431  0.984481   -14.702
 0.700000  0.951089   -23.572  8.146250   160.762  0.023815    74.257  0.979115   -17.131
 0.800000  0.944147   -26.800  8.086576   158.064  0.026959    71.936  0.972903   -19.535
 0.900000  0.936826   -30.129  8.035958   155.179  0.030104    69.497  0.965691   -21.945
 1.000000  0.930087   -33.409  7.985001   152.433  0.033172    67.253  0.958127   -24.328
 1.100000  0.920602   -36.727  7.936936   149.562  0.036087    64.841  0.949517   -26.717
 1.200000  0.911771   -39.942  7.850349   146.713  0.038871    62.676  0.940458   -29.044
 1.300000  0.901196   -43.240  7.788187   144.103  0.041539    60.455  0.930840   -31.385
 1.400000  0.892000   -46.362  7.696949   141.360  0.044098    58.318  0.920919   -33.657
 1.500000  0.879758   -49.479  7.599666   138.518  0.046463    56.050  0.909682   -35.906
 1.600000  0.868339   -52.705  7.499791   135.831  0.048717    54.009  0.899329   -38.128
 1.700000  0.857980   -55.686  7.399231   133.334  0.050807    51.952  0.888306   -40.293
 1.800000  0.847086   -58.716  7.298280   130.808  0.052810    49.973  0.877031   -42.405
 1.900000  0.835619   -61.687  7.178311   128.160  0.054598    48.055  0.865506   -44.465
 2.000000  0.823705   -64.649  7.061983   125.751  0.056319    46.118  0.854552   -46.574
 2.200000  0.802646   -70.370  6.850607   121.136  0.059308    42.558  0.832164   -50.538
 2.400000  0.781850   -75.886  6.603880   116.516  0.061763    39.133  0.811250   -54.372
 2.600000  0.764126   -81.293  6.384509   112.240  0.063832    36.049  0.791030   -58.058
 2.800000  0.745986   -86.640  6.189394   107.985  0.065509    33.073  0.772489   -61.623
 3.000000  0.729424   -91.599  5.970692   103.956  0.066822    30.320  0.754208   -65.103
 3.500000  0.692132  -103.686  5.495850    94.187  0.068554    24.107  0.713192   -73.280
 4.000000  0.658685  -114.603  5.058473    85.218  0.068564    18.967  0.676480   -80.812
 4.500000  0.633864  -124.872  4.664837    76.689  0.067381    14.878  0.646004   -88.425
 5.000000  0.616539  -134.713  4.331476    68.508  0.065186    11.680  0.620807   -96.312
 5.500000  0.604948  -143.913  4.025036    60.655  0.062173     9.659  0.601323  -104.118
 6.000000  0.599455  -152.609  3.751706    52.907  0.058921     8.959  0.587652  -112.015
 6.500000  0.595072  -161.025  3.500827    44.983  0.055816     9.490  0.579685  -120.167
 7.000000  0.590814  -169.286  3.240519    37.075  0.052961    11.351  0.573110  -128.465
 7.500000  0.589246  -177.052  2.978598    29.776  0.050888    14.980  0.567712  -136.498
 8.000000  0.598910   174.848  2.752856    23.065  0.050651    19.617  0.570821  -144.521
 8.500000  0.618494   166.356  2.552855    16.122  0.051868    23.435  0.581170  -152.671
 9.000000  0.642830   158.722  2.340828     9.124  0.053479    27.072  0.594766  -160.786
 9.500000  0.664698   152.140  2.140074     2.982  0.056346    30.753  0.611168  -168.051
10.000000  0.688999   146.298  1.962532    -3.079  0.060828    33.157  0.635463  -174.642
!
!  f       Fmin   Gammaopt  rn/50 
! GHz       dB    MAG  ANG    -
 0.100      0.40  0.63    2   0.21
 0.450      0.47  0.63    4   0.21
 0.900      0.57  0.65   13   0.20
 1.800      0.64  0.51   35   0.20
 5.000      1.07  0.41   77   0.19
10.000      1.82  0.45 -140   0.13
!
! (c) 2009  Infineon Technologies AG, Munich

