!    Infineon Technologies AG
!    BGB707L7ESD 
!    Vce = 3.0V, Ic = 25.0mA
!    DATUM: 30.06.2009 10:18:42
# GHz   S   MA   R  50
!f                S11                 S21                 S12                 S22
!GHz            Mag  Ang            Mag  Ang            Mag  Ang            Mag  Ang
 0.050000  0.744443    -4.662 37.029129   177.109  0.001687    92.998  0.986823    -1.621
 0.060000  0.751736    -6.088 37.673321   176.406  0.001884    83.073  0.987889    -2.312
 0.070000  0.750134    -7.192 37.299496   175.803  0.002072    85.933  0.988821    -2.913
 0.080000  0.745030    -7.616 37.138542   174.968  0.002466    84.001  0.988984    -3.555
 0.090000  0.750246    -9.200 37.470097   174.860  0.002729    82.155  0.988772    -4.076
 0.100000  0.746182    -9.964 37.254913   173.653  0.002999    86.583  0.988231    -4.669
 0.110000  0.748324   -11.135 37.409954   173.220  0.003346    85.532  0.987468    -5.213
 0.120000  0.746104   -11.930 37.352478   172.575  0.003698    84.539  0.987265    -5.855
 0.130000  0.744342   -12.857 37.452873   171.903  0.003976    82.269  0.985811    -6.331
 0.140000  0.744848   -13.826 37.277573   171.088  0.004092    81.399  0.984540    -6.873
 0.150000  0.743664   -14.938 37.255325   170.549  0.004473    81.351  0.983482    -7.430
 0.200000  0.741320   -19.807 37.153431   167.356  0.005927    79.614  0.976471   -10.040
 0.250000  0.733305   -24.600 36.642628   163.856  0.007306    77.997  0.965266   -12.607
 0.300000  0.728343   -29.237 36.346237   160.818  0.008625    75.542  0.956222   -15.008
 0.350000  0.717965   -33.981 35.839283   157.536  0.010062    73.844  0.942368   -17.362
 0.400000  0.710218   -38.364 35.245029   154.515  0.011173    71.506  0.927944   -19.648
 0.450000  0.700897   -43.089 34.765701   151.272  0.012405    69.597  0.912888   -21.851
 0.500000  0.691327   -47.424 34.089531   148.453  0.013535    67.606  0.896290   -23.948
 0.600000  0.668468   -55.897 32.666283   142.642  0.015566    64.219  0.861450   -27.907
 0.700000  0.647319   -63.880 31.240360   137.351  0.017373    61.025  0.825880   -31.489
 0.800000  0.624005   -71.192 29.662148   132.631  0.018892    58.374  0.789973   -34.634
 0.900000  0.602128   -78.293 28.147789   128.086  0.020267    55.964  0.755033   -37.488
 1.000000  0.582579   -84.791 26.722589   124.009  0.021429    53.955  0.722063   -40.031
 1.100000  0.562889   -91.187 25.355045   120.061  0.022421    52.230  0.690515   -42.325
 1.200000  0.544908   -96.894 24.017427   116.461  0.023296    50.889  0.661916   -44.353
 1.300000  0.530381  -102.498 22.827353   113.257  0.024086    49.658  0.635446   -46.230
 1.400000  0.516919  -107.348 21.681349   110.230  0.024816    48.771  0.611661   -47.906
 1.500000  0.503625  -112.163 20.605030   107.266  0.025463    47.964  0.588947   -49.369
 1.600000  0.492210  -116.773 19.586931   104.600  0.026095    47.357  0.569428   -50.810
 1.700000  0.483646  -120.862 18.690870   102.165  0.026633    47.009  0.551303   -52.088
 1.800000  0.476048  -124.780 17.864874    99.838  0.027154    46.699  0.535037   -53.312
 1.900000  0.468702  -128.511 17.074568    97.507  0.027695    46.339  0.520148   -54.443
 2.000000  0.462798  -132.075 16.327911    95.428  0.028199    46.249  0.507203   -55.630
 2.200000  0.453393  -138.529 15.054205    91.587  0.029165    46.296  0.484351   -57.753
 2.400000  0.447911  -144.111 13.904683    87.946  0.030118    46.508  0.466461   -59.808
 2.600000  0.443743  -149.011 12.926232    84.770  0.031105    47.003  0.451548   -61.930
 2.800000  0.440640  -153.813 12.094115    81.544  0.032161    47.410  0.439788   -63.989
 3.000000  0.437688  -157.725 11.326295    78.651  0.033179    48.016  0.429363   -66.057
 3.500000  0.436921  -166.694  9.791622    71.741  0.036058    49.452  0.410872   -71.340
 4.000000  0.437835  -174.280  8.626647    65.436  0.039221    50.805  0.396791   -76.588
 4.500000  0.442297   179.180  7.711454    59.440  0.042861    51.941  0.386648   -82.696
 5.000000  0.451954   172.754  6.988048    53.555  0.046838    52.531  0.379367   -89.719
 5.500000  0.462744   166.810  6.382324    47.801  0.051088    52.681  0.375743   -97.103
 6.000000  0.475085   161.279  5.876131    41.961  0.055616    52.426  0.376172  -105.027
 6.500000  0.488637   155.536  5.426817    35.865  0.060244    51.583  0.380436  -113.578
 7.000000  0.501374   149.580  4.999528    29.832  0.064805    50.378  0.384677  -122.476
 7.500000  0.515222   143.603  4.606183    24.135  0.069358    49.099  0.389596  -131.098
 8.000000  0.537356   138.356  4.275311    18.689  0.074169    47.509  0.401661  -139.829
 8.500000  0.566063   133.198  3.976602    12.915  0.078404    45.265  0.420388  -148.885
 9.000000  0.595492   128.678  3.672895     7.174  0.081920    43.391  0.440896  -157.775
 9.500000  0.618986   124.800  3.393674     1.971  0.085496    41.859  0.464547  -165.470
10.000000  0.642549   121.446  3.149557    -3.265  0.089737    40.058  0.496057  -172.287
!
!                    Infineon Technologies AG
