!    Infineon Technologies AG
!    BGB707L7ESD 
!    Vce = 4.0V, Ic = 20.0mA
!    DATUM: 30.06.2009 10:58:43
# GHz   S   MA   R  50
!f                S11                 S21                 S12                 S22
!GHz            Mag  Ang            Mag  Ang            Mag  Ang            Mag  Ang
 0.050000  0.794351    -3.966 33.583591   177.057  0.001363    72.188  0.985432    -1.528
 0.060000  0.790623    -4.893 34.140171   176.493  0.001916    74.372  0.987048    -2.139
 0.070000  0.786768    -5.754 33.780643   175.986  0.002084    78.316  0.987460    -2.678
 0.080000  0.789259    -6.555 33.632370   175.258  0.002414    80.293  0.987352    -3.208
 0.090000  0.788078    -7.681 33.909615   175.281  0.002650    75.275  0.987197    -3.705
 0.100000  0.788431    -8.444 33.709667   174.161  0.002991    79.872  0.986783    -4.216
 0.110000  0.789218    -9.198 33.848457   173.846  0.003069    78.830  0.986220    -4.715
 0.120000  0.785635    -9.941 33.798904   173.293  0.003529    78.665  0.986178    -5.273
 0.130000  0.785737   -10.828 33.904568   172.711  0.003750    78.969  0.985332    -5.715
 0.140000  0.785935   -11.664 33.749985   171.999  0.004064    77.981  0.983904    -6.189
 0.150000  0.784689   -12.471 33.738152   171.542  0.004332    79.402  0.982825    -6.658
 0.200000  0.782942   -16.916 33.701496   168.791  0.005798    77.896  0.977821    -9.006
 0.250000  0.774126   -20.745 33.305630   165.686  0.007174    76.843  0.967642   -11.291
 0.300000  0.771801   -24.836 33.170315   162.992  0.008493    75.154  0.962257   -13.464
 0.350000  0.763159   -28.831 32.828384   160.046  0.009759    73.816  0.951678   -15.630
 0.400000  0.756772   -32.705 32.405350   157.315  0.011041    72.055  0.940143   -17.685
 0.450000  0.746458   -36.762 32.102974   154.350  0.012272    70.266  0.928386   -19.766
 0.500000  0.737610   -40.611 31.622902   151.763  0.013401    68.856  0.914656   -21.746
 0.600000  0.716122   -48.027 30.571449   146.327  0.015582    65.344  0.886513   -25.549
 0.700000  0.693884   -55.228 29.520445   141.297  0.017509    62.430  0.855946   -29.055
 0.800000  0.671588   -61.883 28.263865   136.760  0.019199    59.858  0.824697   -32.216
 0.900000  0.647639   -68.441 27.044308   132.303  0.020721    57.391  0.793030   -35.156
 1.000000  0.626557   -74.534 25.877605   128.257  0.022031    55.320  0.762430   -37.802
 1.100000  0.604750   -80.498 24.733511   124.312  0.023225    53.311  0.732582   -40.250
 1.200000  0.583493   -85.908 23.575308   120.669  0.024242    51.700  0.704891   -42.442
 1.300000  0.565017   -91.308 22.528399   117.400  0.025167    50.306  0.678806   -44.493
 1.400000  0.548917   -96.131 21.496422   114.281  0.025935    49.120  0.654716   -46.351
 1.500000  0.532463  -100.749 20.521828   111.243  0.026664    48.081  0.631332   -47.968
 1.600000  0.517717  -105.408 19.587837   108.453  0.027304    47.201  0.611086   -49.599
 1.700000  0.505780  -109.542 18.749710   105.921  0.027914    46.551  0.592036   -51.036
 1.800000  0.494720  -113.425 17.972830   103.529  0.028467    45.990  0.574559   -52.385
 1.900000  0.484451  -117.291 17.220240   101.107  0.029006    45.486  0.558409   -53.639
 2.000000  0.476560  -121.094 16.515055    98.917  0.029486    45.210  0.544149   -54.917
 2.200000  0.461795  -127.731 15.282897    94.882  0.030441    44.809  0.518971   -57.242
 2.400000  0.451572  -133.689 14.164656    91.104  0.031302    44.766  0.498497   -59.425
 2.600000  0.444227  -139.051 13.203885    87.733  0.032174    44.802  0.481257   -61.574
 2.800000  0.438021  -144.263 12.379310    84.410  0.033107    45.009  0.467579   -63.719
 3.000000  0.432954  -148.570 11.612254    81.425  0.034077    45.551  0.455447   -65.840
 3.500000  0.426616  -158.529 10.076698    74.292  0.036469    46.735  0.433070   -71.010
 4.000000  0.424289  -166.806  8.900364    67.815  0.039214    48.073  0.415914   -76.095
 4.500000  0.426285  -174.008  7.973104    61.708  0.042372    49.337  0.403385   -81.956
 5.000000  0.433730   179.419  7.236568    55.725  0.045938    50.235  0.394324   -88.717
 5.500000  0.442823   172.832  6.619065    49.891  0.049781    50.750  0.388959   -95.807
 6.000000  0.454698   166.899  6.103772    44.030  0.053950    50.867  0.387798  -103.426
 6.500000  0.467476   160.772  5.647031    37.912  0.058262    50.373  0.390587  -111.716
 7.000000  0.479249   154.447  5.214049    31.813  0.062628    49.562  0.393299  -120.393
 7.500000  0.493609   148.134  4.813521    26.080  0.067028    48.586  0.396904  -128.834
 8.000000  0.514762   142.534  4.471573    20.570  0.071642    47.259  0.407251  -137.445
 8.500000  0.544639   137.075  4.170286    14.735  0.075885    45.280  0.424518  -146.441
 9.000000  0.574952   132.297  3.857809     8.959  0.079363    43.591  0.443741  -155.369
 9.500000  0.600572   128.228  3.571562     3.671  0.083000    42.210  0.466090  -163.154
10.000000  0.624473   124.779  3.319625    -1.639  0.087266    40.597  0.496980  -170.044
!
!                    Infineon Technologies AG
