!    Infineon Technologies AG
!    BGB707L7ESD 
!    Vce = 1.8V, Ic = 20.0mA
!    DATUM: 30.06.2009 10:16:00
# GHz   S   MA   R  50
!f                S11                 S21                 S12                 S22
!GHz            Mag  Ang            Mag  Ang            Mag  Ang            Mag  Ang
 0.050000  0.791409    -4.667 33.937351   177.371  0.001537    88.575  0.985922    -1.865
 0.060000  0.796859    -6.224 34.556667   176.667  0.002129    85.953  0.986726    -2.489
 0.070000  0.793302    -6.776 34.214603   176.057  0.002312    89.919  0.987529    -3.059
 0.080000  0.787961    -7.712 34.074425   175.202  0.002662    85.458  0.987509    -3.690
 0.090000  0.794482    -8.959 34.376705   175.129  0.003015    86.442  0.987529    -4.208
 0.100000  0.789597    -9.750 34.168194   173.917  0.003309    86.478  0.986728    -4.779
 0.110000  0.793088   -10.628 34.312668   173.495  0.003709    84.588  0.985435    -5.248
 0.120000  0.789500   -11.453 34.248585   172.853  0.003960    83.180  0.986186    -5.939
 0.130000  0.787453   -12.463 34.351612   172.193  0.004367    82.437  0.984784    -6.430
 0.140000  0.787361   -13.449 34.181381   171.396  0.004655    82.343  0.983119    -6.954
 0.150000  0.786456   -14.253 34.168362   170.868  0.004898    82.426  0.982221    -7.502
 0.200000  0.784894   -19.143 34.088337   167.758  0.006531    80.973  0.975980   -10.122
 0.250000  0.777078   -23.502 33.647186   164.354  0.008104    77.731  0.965996   -12.711
 0.300000  0.771435   -28.150 33.413052   161.403  0.009555    75.815  0.956982   -15.133
 0.350000  0.761594   -32.643 32.986736   158.198  0.011057    73.736  0.944249   -17.519
 0.400000  0.753835   -36.994 32.472713   155.250  0.012402    71.648  0.930775   -19.830
 0.450000  0.744405   -41.434 32.094460   152.081  0.013748    69.567  0.916875   -22.149
 0.500000  0.735113   -45.679 31.497993   149.316  0.015000    67.825  0.900440   -24.282
 0.600000  0.711812   -53.884 30.279896   143.589  0.017315    63.978  0.867227   -28.398
 0.700000  0.688711   -61.702 29.042820   138.339  0.019319    60.658  0.832278   -32.168
 0.800000  0.665498   -68.830 27.654427   133.654  0.021082    57.885  0.797510   -35.550
 0.900000  0.642792   -75.742 26.305954   129.107  0.022623    55.233  0.762270   -38.575
 1.000000  0.621994   -82.167 25.035870   125.004  0.023932    53.002  0.729078   -41.324
 1.100000  0.600838   -88.461 23.812872   121.017  0.025074    50.986  0.697001   -43.854
 1.200000  0.581914   -94.090 22.596825   117.403  0.026061    49.358  0.668196   -46.093
 1.300000  0.565339   -99.626 21.516478   114.140  0.026917    47.992  0.640909   -48.189
 1.400000  0.550633  -104.534 20.467503   111.064  0.027692    46.860  0.616164   -50.061
 1.500000  0.535727  -109.240 19.479031   108.050  0.028390    45.898  0.592387   -51.731
 1.600000  0.522752  -113.854 18.534199   105.339  0.028983    45.080  0.572202   -53.374
 1.700000  0.513367  -117.959 17.697079   102.855  0.029571    44.401  0.552921   -54.801
 1.800000  0.505101  -121.908 16.933271   100.478  0.030092    43.986  0.535688   -56.179
 1.900000  0.495648  -125.654 16.194281    98.097  0.030603    43.539  0.520062   -57.452
 2.000000  0.488534  -129.351 15.498640    95.986  0.031102    43.234  0.506218   -58.789
 2.200000  0.477893  -135.809 14.305412    92.040  0.032026    42.985  0.481918   -61.205
 2.400000  0.469884  -141.545 13.216092    88.324  0.032914    42.919  0.462662   -63.446
 2.600000  0.464948  -146.542 12.298966    85.032  0.033804    43.139  0.446294   -65.696
 2.800000  0.460605  -151.474 11.514729    81.716  0.034756    43.417  0.433629   -67.946
 3.000000  0.457424  -155.563 10.788731    78.759  0.035693    43.887  0.422230   -70.186
 3.500000  0.454208  -164.990  9.325850    71.701  0.038238    45.104  0.402040   -75.746
 4.000000  0.453583  -172.713  8.217781    65.228  0.041124    46.461  0.386746   -81.233
 4.500000  0.457304  -179.464  7.341900    59.130  0.044438    47.645  0.375779   -87.552
 5.000000  0.466376   173.895  6.647679    53.103  0.048136    48.384  0.368698   -94.834
 5.500000  0.476723   167.657  6.065842    47.220  0.052165    48.760  0.365407  -102.432
 6.000000  0.488307   161.926  5.577772    41.291  0.056387    48.675  0.366655  -110.503
 6.500000  0.501341   155.995  5.141479    35.109  0.060821    48.007  0.372160  -119.134
 7.000000  0.512961   149.949  4.729609    28.994  0.065167    46.991  0.377818  -128.049
 7.500000  0.525701   143.823  4.348932    23.279  0.069453    45.927  0.384497  -136.635
 8.000000  0.546794   138.413  4.028954    17.766  0.074053    44.501  0.398471  -145.236
 8.500000  0.575208   133.227  3.740937    12.028  0.078100    42.446  0.419023  -154.032
 9.000000  0.603023   128.596  3.446363     6.284  0.081384    40.710  0.441140  -162.581
 9.500000  0.626627   124.679  3.179390     1.110  0.084809    39.333  0.466192  -169.911
10.000000  0.649337   121.348  2.945137    -4.096  0.088910    37.681  0.498532  -176.407
!
!                    Infineon Technologies AG
