!    Infineon Technologies AG
!    BGB707L7ESD 
!    Vce = 1.8V, Ic = 4.2mA
!    DATUM: 30.06.2009 10:15:29
# GHz   S   MA   R  50
!f                S11                 S21                 S12                 S22
!GHz            Mag  Ang            Mag  Ang            Mag  Ang            Mag  Ang
 0.050000  0.952204    -2.118 12.207242   178.647  0.001872    88.024  0.998422    -1.293
 0.060000  0.956315    -2.650 12.429788   178.324  0.001967    84.003  0.998576    -1.592
 0.070000  0.948535    -2.862 12.286515   177.997  0.002456    86.731  0.998840    -1.903
 0.080000  0.949636    -3.132 12.227167   177.458  0.002728    87.100  0.998576    -2.251
 0.090000  0.954028    -3.816 12.335421   177.775  0.002968    87.949  0.998870    -2.524
 0.100000  0.948128    -4.341 12.264945   176.852  0.003392    86.061  0.998028    -2.776
 0.110000  0.954494    -4.461 12.313551   176.773  0.003750    84.696  0.997884    -3.078
 0.120000  0.949014    -4.825 12.294443   176.459  0.004069    87.885  0.998669    -3.441
 0.130000  0.951081    -5.350 12.340863   176.125  0.004371    87.060  0.997962    -3.681
 0.140000  0.950460    -5.735 12.284729   175.669  0.004792    86.674  0.997623    -3.953
 0.150000  0.949320    -5.983 12.287211   175.468  0.005127    85.583  0.997174    -4.253
 0.200000  0.951431    -8.249 12.318680   174.036  0.006843    85.304  0.996354    -5.672
 0.250000  0.948344   -10.226 12.253471   172.161  0.008463    83.320  0.993371    -7.145
 0.300000  0.947917   -12.316 12.273126   170.807  0.010191    82.797  0.993403    -8.535
 0.350000  0.944521   -14.347 12.251664   169.055  0.011811    81.092  0.990570    -9.924
 0.400000  0.944008   -16.278 12.215333   167.540  0.013525    79.902  0.987890   -11.341
 0.450000  0.940015   -18.385 12.245416   165.686  0.015214    78.763  0.985679   -12.790
 0.500000  0.937908   -20.345 12.204279   164.198  0.016870    77.256  0.981639   -14.143
 0.600000  0.928995   -24.432 12.126031   160.691  0.020049    74.625  0.974395   -16.954
 0.700000  0.921136   -28.463 12.067063   157.404  0.023229    71.985  0.965476   -19.702
 0.800000  0.911015   -32.354 11.924573   154.286  0.026168    69.383  0.955679   -22.473
 0.900000  0.899402   -36.283 11.792811   151.003  0.029058    66.851  0.944129   -25.133
 1.000000  0.888457   -40.138 11.653121   147.899  0.031838    64.419  0.931889   -27.767
 1.100000  0.875226   -44.001 11.506493   144.692  0.034421    61.963  0.918738   -30.381
 1.200000  0.861530   -47.781 11.320799   141.503  0.036904    59.616  0.904848   -32.895
 1.300000  0.847544   -51.593 11.160759   138.591  0.039118    57.309  0.890574   -35.405
 1.400000  0.834360   -55.171 10.956399   135.622  0.041299    55.135  0.876227   -37.859
 1.500000  0.818241   -58.658 10.741489   132.584  0.043243    52.906  0.860199   -40.192
 1.600000  0.802437   -62.275 10.529178   129.717  0.045036    50.806  0.845597   -42.537
 1.700000  0.788659   -65.681 10.318445   127.055  0.046719    48.804  0.830254   -44.729
 1.800000  0.775308   -68.988 10.114225   124.406  0.048224    46.968  0.815281   -46.841
 1.900000  0.760242   -72.270  9.884861   121.675  0.049563    45.150  0.800477   -48.941
 2.000000  0.745688   -75.546  9.660402   119.177  0.050846    43.377  0.786159   -51.040
 2.200000  0.721062   -81.779  9.254841   114.448  0.052902    40.181  0.758446   -54.931
 2.400000  0.696578   -87.621  8.824091   109.837  0.054632    37.160  0.733238   -58.610
 2.600000  0.677667   -93.282  8.437963   105.641  0.055898    34.588  0.709527   -62.136
 2.800000  0.657738   -98.926  8.094199   101.469  0.056923    32.199  0.688423   -65.510
 3.000000  0.640760  -103.955  7.739197    97.571  0.057632    30.103  0.668191   -68.782
 3.500000  0.603209  -116.107  6.974797    88.321  0.058528    25.689  0.625487   -76.310
 4.000000  0.575254  -127.018  6.321732    79.867  0.058290    22.411  0.589498   -83.248
 4.500000  0.555486  -136.838  5.762076    72.007  0.057577    20.412  0.561037   -90.355
 5.000000  0.543158  -146.267  5.296899    64.449  0.056500    19.325  0.538924   -97.815
 5.500000  0.537480  -154.959  4.888192    57.184  0.055288    19.222  0.522928  -105.282
 6.000000  0.536380  -163.062  4.535305    50.023  0.054298    20.210  0.512836  -112.959
 6.500000  0.538020  -170.858  4.211303    42.678  0.053844    21.803  0.508409  -120.965
 7.000000  0.538058  -178.474  3.888065    35.379  0.053808    23.886  0.505343  -129.179
 7.500000  0.541983   173.479  3.577812    28.555  0.054559    26.600  0.503676  -137.118
 8.000000  0.555269   165.674  3.310740    22.261  0.056551    29.247  0.510262  -145.108
 8.500000  0.579274   157.981  3.072795    15.682  0.059208    30.714  0.524121  -153.291
 9.000000  0.605458   151.145  2.824146     9.093  0.061653    32.082  0.540632  -161.381
 9.500000  0.630158   145.294  2.591930     3.256  0.064795    33.569  0.560195  -168.578
10.000000  0.655498   140.235  2.387963    -2.566  0.069103    34.322  0.587360  -175.054
!
!                    Infineon Technologies AG
