!    Infineon Technologies AG
!    BGB707L7ESD 
!    Vce = 3.5V, Ic = 15.0mA
!    DATUM: 30.06.2009 10:57:18
# GHz   S   MA   R  50
!f                S11                 S21                 S12                 S22
!GHz            Mag  Ang            Mag  Ang            Mag  Ang            Mag  Ang
 0.050000  0.843017    -3.318 29.308004   177.363  0.001592    77.771  0.993096    -1.573
 0.060000  0.841943    -4.549 29.823982   176.839  0.001759    88.628  0.993715    -2.072
 0.070000  0.838026    -5.209 29.489336   176.379  0.002149    86.701  0.994467    -2.571
 0.080000  0.833913    -5.720 29.333958   175.698  0.002476    83.727  0.993851    -3.055
 0.090000  0.839933    -6.678 29.584627   175.796  0.002817    87.405  0.994323    -3.542
 0.100000  0.836092    -7.442 29.419584   174.725  0.002930    82.205  0.993206    -3.947
 0.110000  0.839717    -8.252 29.548746   174.470  0.003270    81.914  0.992933    -4.401
 0.120000  0.838074    -8.568 29.497252   173.970  0.003515    81.556  0.993207    -4.882
 0.130000  0.836090    -9.556 29.596939   173.448  0.004009    84.191  0.992286    -5.367
 0.140000  0.835947   -10.156 29.453985   172.791  0.004191    84.076  0.991335    -5.750
 0.150000  0.835496   -10.875 29.450605   172.397  0.004529    83.393  0.990417    -6.189
 0.200000  0.832658   -14.624 29.455591   169.949  0.006002    81.336  0.986383    -8.345
 0.250000  0.826321   -18.081 29.157349   167.114  0.007386    79.876  0.978392   -10.518
 0.300000  0.822753   -21.822 29.094481   164.710  0.008883    77.878  0.974712   -12.512
 0.350000  0.815772   -25.350 28.876036   162.021  0.010134    75.936  0.965754   -14.535
 0.400000  0.809425   -28.820 28.578045   159.535  0.011546    74.229  0.956529   -16.540
 0.450000  0.800826   -32.333 28.405676   156.784  0.012858    72.963  0.947147   -18.492
 0.500000  0.793148   -35.804 28.070322   154.392  0.014185    71.046  0.935706   -20.389
 0.600000  0.773673   -42.558 27.333967   149.297  0.016517    67.659  0.911828   -24.110
 0.700000  0.753381   -49.074 26.594311   144.535  0.018689    64.603  0.885385   -27.556
 0.800000  0.730433   -55.216 25.641338   140.188  0.020637    61.777  0.858188   -30.792
 0.900000  0.707561   -61.215 24.713682   135.846  0.022356    59.046  0.829731   -33.890
 1.000000  0.685310   -66.880 23.803835   131.879  0.023941    56.852  0.801445   -36.641
 1.100000  0.662450   -72.493 22.900171   127.947  0.025293    54.577  0.772665   -39.230
 1.200000  0.640988   -77.730 21.952745   124.309  0.026492    52.609  0.746216   -41.629
 1.300000  0.620735   -82.854 21.092052   121.000  0.027552    50.868  0.720357   -43.922
 1.400000  0.602013   -87.524 20.224657   117.803  0.028518    49.381  0.696152   -45.986
 1.500000  0.583048   -91.969 19.387791   114.692  0.029326    48.062  0.672147   -47.811
 1.600000  0.565131   -96.492 18.578539   111.822  0.030081    46.799  0.651425   -49.659
 1.700000  0.551323  -100.554 17.843039   109.200  0.030756    45.878  0.631305   -51.309
 1.800000  0.538378  -104.483 17.153345   106.691  0.031364    45.013  0.612658   -52.850
 1.900000  0.525789  -108.413 16.480263   104.183  0.031892    44.224  0.595230   -54.280
 2.000000  0.514420  -112.004 15.845831   101.918  0.032448    43.608  0.579819   -55.747
 2.200000  0.495242  -118.817 14.724403    97.708  0.033357    42.692  0.551907   -58.369
 2.400000  0.480972  -124.973 13.686666    93.739  0.034163    41.981  0.529041   -60.797
 2.600000  0.469787  -130.560 12.790679    90.267  0.034984    41.819  0.509211   -63.170
 2.800000  0.459884  -135.998 12.028508    86.744  0.035750    41.642  0.493360   -65.467
 3.000000  0.452681  -140.606 11.305840    83.595  0.036488    41.774  0.479025   -67.703
 3.500000  0.440882  -151.319  9.839859    76.206  0.038465    42.476  0.452042   -73.100
 4.000000  0.433703  -160.283  8.714620    69.453  0.040672    43.602  0.431550   -78.318
 4.500000  0.433322  -168.132  7.816407    63.121  0.043284    44.894  0.416463   -84.240
 5.000000  0.438167  -175.250  7.103830    56.963  0.046223    45.951  0.405480   -90.971
 5.500000  0.445645   178.090  6.502227    50.965  0.049593    46.790  0.398832   -97.988
 6.000000  0.455884   171.602  5.996766    44.968  0.053238    47.263  0.396747  -105.517
 6.500000  0.467183   165.041  5.551805    38.730  0.057229    47.221  0.398929  -113.696
 7.000000  0.477999   158.384  5.126632    32.505  0.061189    46.778  0.401364  -122.235
 7.500000  0.490918   151.740  4.730305    26.678  0.065312    46.227  0.404605  -130.538
 8.000000  0.511659   145.763  4.394920    21.083  0.069710    45.283  0.414804  -139.002
 8.500000  0.541012   140.035  4.096272    15.221  0.073848    43.619  0.432070  -147.815
 9.000000  0.570873   134.991  3.787977     9.328  0.077248    42.164  0.451297  -156.572
 9.500000  0.596471   130.673  3.504437     3.975  0.080802    41.058  0.473740  -164.210
10.000000  0.621254   127.056  3.255787    -1.384  0.085033    39.674  0.504267  -170.974
!
!                    Infineon Technologies AG
