!    Infineon Technologies AG
!    BGB707L7ESD RU919007 w#7 Sample Build #08493 Teil Nr. 3
!    Vce = 2.5V, Ic = 2.6mA
!    DATUM: 30.06.2009 10:16:30
# GHz   S   MA   R  50
!f                S11                 S21                 S12                 S22
!GHz            Mag  Ang            Mag  Ang            Mag  Ang            Mag  Ang
 0.050000  0.974218    -1.532  8.127656   178.871  0.001657    98.552  0.998673    -1.064
 0.060000  0.973809    -2.006  8.284070   178.600  0.002162    83.060  0.999111    -1.356
 0.070000  0.968965    -2.214  8.179407   178.305  0.002262    87.779  0.998957    -1.605
 0.080000  0.968694    -2.308  8.144601   177.833  0.002559    87.188  0.999014    -1.900
 0.090000  0.970173    -3.156  8.212822   178.199  0.002981    86.965  0.999256    -2.122
 0.100000  0.969501    -3.414  8.175464   177.339  0.003238    88.736  0.998635    -2.350
 0.110000  0.972676    -3.782  8.200378   177.305  0.003608    87.936  0.998197    -2.526
 0.120000  0.967731    -3.981  8.184203   177.043  0.003912    87.437  0.999091    -2.901
 0.130000  0.969498    -4.272  8.215816   176.764  0.004335    86.097  0.998545    -3.098
 0.140000  0.969105    -4.658  8.183222   176.353  0.004726    87.769  0.997933    -3.315
 0.150000  0.968030    -5.026  8.181309   176.235  0.004960    86.442  0.997754    -3.563
 0.200000  0.968366    -6.797  8.201790   175.046  0.006680    85.729  0.997355    -4.769
 0.250000  0.966605    -8.419  8.160090   173.422  0.008355    84.975  0.995145    -6.020
 0.300000  0.967193   -10.029  8.180415   172.306  0.009944    83.565  0.995951    -7.156
 0.350000  0.963971   -11.741  8.176619   170.822  0.011610    82.681  0.994180    -8.342
 0.400000  0.964231   -13.290  8.156088   169.579  0.013211    81.099  0.992549    -9.537
 0.450000  0.962686   -15.037  8.185618   167.968  0.014866    80.147  0.991197   -10.758
 0.500000  0.960703   -16.710  8.167769   166.809  0.016443    78.851  0.988785   -11.894
 0.600000  0.955722   -20.010  8.148761   163.738  0.019686    76.619  0.984656   -14.282
 0.700000  0.951853   -23.377  8.136162   160.946  0.022853    74.343  0.979522   -16.652
 0.800000  0.945611   -26.632  8.077040   158.277  0.025905    72.118  0.973805   -19.019
 0.900000  0.937429   -29.907  8.029125   155.414  0.028911    69.767  0.966702   -21.334
 1.000000  0.930781   -33.168  7.978054   152.694  0.031824    67.589  0.959336   -23.639
 1.100000  0.921669   -36.506  7.934206   149.848  0.034658    65.239  0.950979   -25.968
 1.200000  0.912810   -39.710  7.849334   147.041  0.037333    63.071  0.942273   -28.209
 1.300000  0.903360   -42.970  7.791651   144.420  0.039890    60.934  0.932883   -30.488
 1.400000  0.893347   -46.109  7.698931   141.711  0.042378    58.704  0.923404   -32.739
 1.500000  0.881552   -49.177  7.601137   138.902  0.044662    56.506  0.912437   -34.912
 1.600000  0.869484   -52.332  7.507928   136.215  0.046841    54.408  0.902576   -37.113
 1.700000  0.859849   -55.352  7.406740   133.739  0.048858    52.425  0.891672   -39.184
 1.800000  0.849303   -58.360  7.310350   131.239  0.050777    50.467  0.880785   -41.246
 1.900000  0.837415   -61.317  7.192664   128.583  0.052554    48.517  0.869830   -43.253
 2.000000  0.825893   -64.254  7.079378   126.229  0.054195    46.613  0.859077   -45.307
 2.200000  0.805449   -70.040  6.874565   121.551  0.057101    43.046  0.837472   -49.210
 2.400000  0.785319   -75.539  6.627233   116.998  0.059436    39.712  0.816874   -52.899
 2.600000  0.767387   -80.932  6.410799   112.734  0.061512    36.674  0.797021   -56.506
 2.800000  0.749260   -86.244  6.218522   108.525  0.063084    33.716  0.779111   -60.012
 3.000000  0.732753   -91.190  6.001589   104.505  0.064291    31.025  0.760872   -63.398
 3.500000  0.694634  -103.337  5.530937    94.726  0.066034    24.864  0.721034   -71.391
 4.000000  0.662200  -114.248  5.099661    85.705  0.066003    19.760  0.684688   -78.745
 4.500000  0.637787  -124.445  4.706623    77.234  0.064814    15.851  0.654623   -86.170
 5.000000  0.619284  -134.336  4.374172    69.064  0.062651    12.773  0.630025   -93.929
 5.500000  0.607927  -143.568  4.069127    61.213  0.059732    10.909  0.610582  -101.605
 6.000000  0.601826  -152.223  3.798549    53.499  0.056495    10.546  0.596706  -109.411
 6.500000  0.597269  -160.667  3.547479    45.531  0.053562    11.389  0.588688  -117.480
 7.000000  0.593113  -168.934  3.288647    37.611  0.050917    13.697  0.581749  -125.733
 7.500000  0.591645  -176.779  3.025989    30.266  0.049203    17.801  0.575680  -133.757
 8.000000  0.601422   175.163  2.798335    23.503  0.049308    22.674  0.577980  -141.819
 8.500000  0.620470   166.733  2.596989    16.518  0.051003    26.648  0.587728  -150.023
 9.000000  0.644265   159.014  2.383153     9.487  0.053078    30.268  0.600764  -158.263
 9.500000  0.667476   152.410  2.181223     3.264  0.056405    33.726  0.616335  -165.682
10.000000  0.691649   146.496  2.001430    -2.861  0.061232    35.949  0.639988  -172.421
!
!  f       Fmin   Gammaopt  rn/50 
! GHz       dB    MAG  ANG    -
 0.100      0.40  0.63    2   0.21
 0.450      0.47  0.63    4   0.21
 0.900      0.57  0.65   13   0.20
 1.800      0.64  0.51   35   0.20
 5.000      1.07  0.41   77   0.19
10.000      1.82  0.45 -140   0.13
!
! (c) 2009  Infineon Technologies AG, Munich

