!    Infineon Technologies AG
!    BGB707L7ESD RU919007 w#7 Sample Build #08493 Teil Nr. 3
!    Vce = 4.0V, Ic = 2.6mA
!    DATUM: 30.06.2009 10:57:57
# GHz   S   MA   R  50
!f                S11                 S21                 S12                 S22
!GHz            Mag  Ang            Mag  Ang            Mag  Ang            Mag  Ang
 0.050000  0.969383    -1.582  8.111559   178.778  0.001279    68.529  0.996742    -0.969
 0.060000  0.976066    -2.039  8.259407   178.542  0.001899    84.542  0.997431    -1.250
 0.070000  0.971289    -2.109  8.160206   178.237  0.002235    86.688  0.997692    -1.510
 0.080000  0.969751    -2.473  8.113957   177.803  0.002559    81.577  0.997348    -1.768
 0.090000  0.970271    -3.103  8.182372   178.169  0.002894    82.162  0.997055    -1.991
 0.100000  0.969350    -3.353  8.143932   177.288  0.003239    82.969  0.996660    -2.247
 0.110000  0.971372    -3.810  8.175737   177.297  0.003579    80.838  0.996707    -2.479
 0.120000  0.970546    -3.979  8.159263   177.041  0.003732    81.521  0.997407    -2.765
 0.130000  0.969671    -4.298  8.188169   176.766  0.004055    83.838  0.996833    -3.021
 0.140000  0.969780    -4.749  8.151553   176.341  0.004391    82.867  0.995943    -3.202
 0.150000  0.969975    -4.914  8.150084   176.217  0.004740    84.034  0.995808    -3.446
 0.200000  0.970689    -6.701  8.174902   175.103  0.006230    83.501  0.995673    -4.603
 0.250000  0.967594    -8.282  8.130939   173.501  0.007937    82.745  0.991833    -5.804
 0.300000  0.967575    -9.922  8.153032   172.403  0.009541    81.849  0.994220    -6.913
 0.350000  0.965709   -11.628  8.152454   170.943  0.011077    80.941  0.992011    -8.042
 0.400000  0.965867   -13.183  8.127707   169.669  0.012650    80.276  0.990278    -9.171
 0.450000  0.964263   -14.957  8.160526   168.125  0.014247    79.196  0.989972   -10.380
 0.500000  0.964037   -16.558  8.146401   166.933  0.015746    78.180  0.987050   -11.489
 0.600000  0.958859   -19.878  8.127159   163.929  0.018885    76.131  0.983172   -13.802
 0.700000  0.953544   -23.270  8.115429   161.167  0.021890    73.845  0.978303   -16.097
 0.800000  0.946830   -26.474  8.058140   158.545  0.024839    71.751  0.972520   -18.348
 0.900000  0.939467   -29.720  8.014457   155.689  0.027690    69.484  0.966183   -20.673
 1.000000  0.932966   -32.921  7.964056   153.003  0.030526    67.296  0.958846   -22.878
 1.100000  0.923685   -36.253  7.918245   150.192  0.033229    65.110  0.950815   -25.110
 1.200000  0.915529   -39.425  7.839424   147.400  0.035822    62.975  0.942382   -27.282
 1.300000  0.905896   -42.703  7.779484   144.815  0.038235    60.868  0.933542   -29.532
 1.400000  0.896231   -45.797  7.692571   142.108  0.040596    58.784  0.924022   -31.677
 1.500000  0.884353   -48.846  7.596047   139.342  0.042838    56.629  0.913844   -33.785
 1.600000  0.873704   -52.029  7.506885   136.681  0.044942    54.653  0.903956   -35.874
 1.700000  0.863574   -55.052  7.411764   134.191  0.046885    52.621  0.893600   -37.919
 1.800000  0.852623   -58.025  7.311631   131.712  0.048739    50.694  0.883063   -39.921
 1.900000  0.840821   -60.965  7.198153   129.122  0.050471    48.815  0.872442   -41.854
 2.000000  0.829660   -63.922  7.087481   126.749  0.052009    46.931  0.862040   -43.827
 2.200000  0.809424   -69.676  6.883834   122.116  0.054831    43.456  0.841301   -47.599
 2.400000  0.789406   -75.145  6.646993   117.543  0.057103    40.115  0.821052   -51.219
 2.600000  0.771863   -80.517  6.429938   113.349  0.059125    37.123  0.801953   -54.718
 2.800000  0.754522   -85.877  6.238421   109.108  0.060644    34.208  0.784296   -58.130
 3.000000  0.736803   -90.837  6.026462   105.105  0.061863    31.545  0.766792   -61.420
 3.500000  0.699505  -102.902  5.562899    95.409  0.063509    25.488  0.727907   -69.178
 4.000000  0.667078  -113.842  5.130207    86.441  0.063429    20.523  0.692364   -76.285
 4.500000  0.641548  -124.102  4.744645    77.977  0.062262    16.667  0.663281   -83.584
 5.000000  0.623221  -133.973  4.415016    69.809  0.060098    13.806  0.638668   -91.126
 5.500000  0.611682  -143.203  4.111898    61.974  0.057228    12.126  0.619491   -98.634
 6.000000  0.605267  -151.891  3.841932    54.259  0.054122    12.065  0.605568  -106.308
 6.500000  0.601345  -160.350  3.595144    46.330  0.051275    13.305  0.597139  -114.259
 7.000000  0.596086  -168.602  3.336133    38.423  0.048824    16.062  0.589854  -122.448
 7.500000  0.594591  -176.455  3.074089    31.018  0.047491    20.536  0.583261  -130.450
 8.000000  0.603704   175.563  2.845684    24.235  0.047992    25.818  0.584345  -138.518
 8.500000  0.623007   167.019  2.645276    17.221  0.050130    29.861  0.593180  -146.780
 9.000000  0.647080   159.363  2.431430    10.129  0.052637    33.411  0.605423  -155.149
 9.500000  0.669219   152.734  2.225638     3.860  0.056299    36.688  0.620063  -162.751
10.000000  0.693260   146.894  2.043750    -2.300  0.061447    38.686  0.643327  -169.623
!
!  f       Fmin   Gammaopt  rn/50 
! GHz       dB    MAG  ANG    -
 0.100      0.40  0.63    2   0.21
 0.450      0.47  0.63    4   0.21
 0.900      0.57  0.65   13   0.20
 1.800      0.64  0.51   35   0.20
 5.000      1.07  0.41   77   0.19
10.000      1.82  0.45 -140   0.13
!
! (c) 2009  Infineon Technologies AG, Munich

