!    Infineon Technologies AG
!    BGB707L7ESD 
!    Vce = 2.5V, Ic = 4.2mA
!    DATUM: 30.06.2009 10:16:46
# GHz   S   MA   R  50
!f                S11                 S21                 S12                 S22
!GHz            Mag  Ang            Mag  Ang            Mag  Ang            Mag  Ang
 0.050000  0.950018    -1.613 12.172957   178.571  0.001635    97.545  0.998289    -1.218
 0.060000  0.954161    -2.613 12.408746   178.255  0.001939    88.432  0.998762    -1.535
 0.070000  0.951792    -2.762 12.258308   177.942  0.002333    89.709  0.999086    -1.845
 0.080000  0.948118    -2.892 12.197605   177.433  0.002637    88.557  0.998830    -2.139
 0.090000  0.953967    -3.672 12.298105   177.761  0.002920    88.231  0.998511    -2.396
 0.100000  0.949628    -4.273 12.235093   176.829  0.003332    87.349  0.998319    -2.707
 0.110000  0.954115    -4.630 12.279533   176.779  0.003489    84.894  0.997785    -2.941
 0.120000  0.950659    -4.777 12.258897   176.467  0.003824    86.086  0.998677    -3.334
 0.130000  0.949853    -5.372 12.304113   176.149  0.004229    87.207  0.998227    -3.610
 0.140000  0.950846    -5.626 12.252982   175.679  0.004484    87.603  0.997439    -3.842
 0.150000  0.951074    -6.035 12.253510   175.512  0.004812    86.614  0.997029    -4.120
 0.200000  0.951752    -8.147 12.282886   174.092  0.006516    85.365  0.996178    -5.517
 0.250000  0.948168   -10.034 12.212254   172.232  0.008083    84.199  0.992951    -6.915
 0.300000  0.946699   -12.161 12.233923   170.888  0.009813    82.369  0.993638    -8.272
 0.350000  0.944171   -14.189 12.223754   169.167  0.011421    81.006  0.990601    -9.627
 0.400000  0.942865   -16.042 12.181273   167.664  0.013015    79.936  0.987911   -10.965
 0.450000  0.939843   -18.191 12.219145   165.844  0.014577    78.613  0.986308   -12.409
 0.500000  0.937462   -20.228 12.171022   164.379  0.016133    77.456  0.982025   -13.715
 0.600000  0.929916   -24.203 12.103972   160.897  0.019268    74.815  0.975005   -16.447
 0.700000  0.921872   -28.197 12.046101   157.645  0.022280    72.218  0.966431   -19.107
 0.800000  0.911159   -32.089 11.907627   154.555  0.025171    69.762  0.956961   -21.762
 0.900000  0.900370   -35.963 11.778269   151.308  0.027976    67.131  0.946172   -24.407
 1.000000  0.889866   -39.808 11.643178   148.213  0.030608    64.795  0.934193   -26.940
 1.100000  0.876968   -43.675 11.508005   145.010  0.033142    62.321  0.921381   -29.489
 1.200000  0.863045   -47.380 11.321894   141.874  0.035490    60.016  0.908209   -31.917
 1.300000  0.849668   -51.173 11.161270   138.990  0.037687    57.740  0.894155   -34.409
 1.400000  0.835927   -54.745 10.961315   136.026  0.039770    55.538  0.880173   -36.749
 1.500000  0.820982   -58.294 10.756884   133.005  0.041693    53.347  0.864822   -39.018
 1.600000  0.805235   -61.806 10.544751   130.151  0.043419    51.297  0.850425   -41.302
 1.700000  0.791649   -65.196 10.337709   127.513  0.045015    49.323  0.835669   -43.424
 1.800000  0.777487   -68.444 10.135975   124.902  0.046485    47.441  0.820987   -45.520
 1.900000  0.763218   -71.748  9.912344   122.146  0.047790    45.674  0.806320   -47.520
 2.000000  0.748585   -74.992  9.689124   119.702  0.049031    43.910  0.792647   -49.564
 2.200000  0.723789   -81.253  9.291286   114.941  0.051085    40.727  0.765384   -53.355
 2.400000  0.700914   -87.046  8.860190   110.371  0.052657    37.789  0.740589   -56.947
 2.600000  0.680503   -92.700  8.479694   106.165  0.053976    35.216  0.717312   -60.374
 2.800000  0.661398   -98.327  8.140113   102.003  0.054967    32.857  0.696832   -63.682
 3.000000  0.643952  -103.353  7.785946    98.141  0.055660    30.813  0.676903   -66.843
 3.500000  0.607439  -115.553  7.027368    88.838  0.056497    26.396  0.634880   -74.216
 4.000000  0.578258  -126.505  6.375438    80.403  0.056273    23.342  0.599116   -80.958
 4.500000  0.558038  -136.333  5.815260    72.545  0.055552    21.441  0.571172   -87.889
 5.000000  0.545676  -145.752  5.352656    64.961  0.054452    20.486  0.549057   -95.200
 5.500000  0.539578  -154.430  4.944923    57.707  0.053293    20.653  0.532889  -102.529
 6.000000  0.538186  -162.514  4.589395    50.560  0.052388    21.875  0.522566  -110.112
 6.500000  0.539718  -170.414  4.267887    43.195  0.052068    23.720  0.517684  -118.014
 7.000000  0.540012  -178.030  3.946884    35.845  0.052271    26.114  0.514097  -126.185
 7.500000  0.543286   173.961  3.632826    29.066  0.053231    29.025  0.511844  -134.137
 8.000000  0.556931   166.149  3.364443    22.686  0.055474    31.732  0.517415  -142.168
 8.500000  0.580909   158.479  3.125604    16.114  0.058498    33.275  0.530509  -150.417
 9.000000  0.606886   151.502  2.876324     9.463  0.061246    34.566  0.546173  -158.663
 9.500000  0.631211   145.710  2.641612     3.531  0.064676    35.972  0.564961  -166.036
10.000000  0.657011   140.618  2.433578    -2.345  0.069223    36.612  0.591723  -172.688
!
!                    Infineon Technologies AG
