!    Infineon Technologies AG
!    BGB707L7ESD RU919007 w#7 Sample Build #08493 Teil Nr. 3
!    Vce = 3.5V, Ic = 10.0mA
!    DATUM: 30.06.2009 10:57:11
# GHz   S   MA   R  50
!f                S11                 S21                 S12                 S22
!GHz            Mag  Ang            Mag  Ang            Mag  Ang            Mag  Ang
 0.050000  0.884853    -2.754 22.992214   177.717  0.001631    80.860  0.994178    -1.461
 0.060000  0.888813    -3.712 23.388227   177.297  0.001781    82.744  0.995119    -1.889
 0.070000  0.884921    -3.970 23.121151   176.888  0.002110    84.338  0.995400    -2.303
 0.080000  0.884389    -4.564 22.998100   176.274  0.002465    83.834  0.995093    -2.717
 0.090000  0.887948    -5.483 23.186968   176.481  0.002930    84.810  0.995212    -3.133
 0.100000  0.885672    -6.077 23.062805   175.487  0.003121    81.172  0.994379    -3.479
 0.110000  0.888646    -6.793 23.162104   175.312  0.003382    83.270  0.994212    -3.860
 0.120000  0.883269    -7.193 23.121422   174.902  0.003808    83.319  0.994523    -4.286
 0.130000  0.884415    -7.873 23.203058   174.461  0.003907    83.400  0.993942    -4.663
 0.140000  0.884444    -8.443 23.095541   173.874  0.004233    85.037  0.992968    -5.013
 0.150000  0.884738    -8.846 23.094675   173.571  0.004566    82.940  0.992249    -5.385
 0.200000  0.883457   -12.016 23.132618   171.553  0.006076    82.297  0.990111    -7.245
 0.250000  0.879642   -14.833 22.945873   169.101  0.007534    79.829  0.983381    -9.100
 0.300000  0.875781   -17.852 22.949480   167.104  0.009080    79.110  0.982544   -10.860
 0.350000  0.871405   -20.873 22.840508   164.767  0.010565    78.404  0.976038   -12.652
 0.400000  0.866636   -23.624 22.677666   162.663  0.012013    76.335  0.970000   -14.425
 0.450000  0.859646   -26.688 22.632704   160.254  0.013395    74.685  0.963554   -16.171
 0.500000  0.853843   -29.605 22.451294   158.222  0.014761    73.293  0.955364   -17.884
 0.600000  0.838946   -35.326 22.066650   153.663  0.017372    70.101  0.938629   -21.275
 0.700000  0.822797   -40.946 21.673801   149.370  0.019871    67.124  0.919256   -24.525
 0.800000  0.803174   -46.260 21.122522   145.410  0.022098    64.384  0.898601   -27.633
 0.900000  0.782986   -51.573 20.569143   141.351  0.024190    61.520  0.876279   -30.661
 1.000000  0.764237   -56.605 20.007563   137.591  0.026074    59.058  0.853428   -33.434
 1.100000  0.742831   -61.696 19.443491   133.823  0.027821    56.641  0.829490   -36.106
 1.200000  0.721541   -66.426 18.814455   130.249  0.029361    54.411  0.806635   -38.646
 1.300000  0.700895   -71.203 18.239323   126.974  0.030747    52.365  0.783611   -41.098
 1.400000  0.682248   -75.496 17.627773   123.757  0.031965    50.614  0.761324   -43.356
 1.500000  0.662180   -79.765 17.028044   120.588  0.033038    48.825  0.738689   -45.419
 1.600000  0.643338   -83.993 16.432203   117.639  0.034012    47.211  0.718856   -47.487
 1.700000  0.627046   -87.876 15.882257   114.927  0.034868    45.775  0.698867   -49.379
 1.800000  0.612202   -91.678 15.356547   112.300  0.035645    44.525  0.680250   -51.157
 1.900000  0.597102   -95.413 14.829046   109.671  0.036359    43.374  0.662185   -52.836
 2.000000  0.582755   -99.037 14.325905   107.285  0.036969    42.291  0.646032   -54.515
 2.200000  0.558750  -105.907 13.424078   102.828  0.037990    40.561  0.616120   -57.558
 2.400000  0.539562  -112.055 12.565123    98.591  0.038794    39.183  0.590534   -60.393
 2.600000  0.523363  -117.806 11.812857    94.807  0.039551    38.150  0.568012   -63.088
 2.800000  0.509024  -123.408 11.157843    91.118  0.040139    37.347  0.549429   -65.683
 3.000000  0.497293  -128.258 10.532090    87.732  0.040690    36.918  0.532401   -68.166
 3.500000  0.476458  -139.837  9.246842    79.715  0.041918    36.350  0.499193   -74.013
 4.000000  0.462158  -149.649  8.228210    72.549  0.043218    36.765  0.473345   -79.522
 4.500000  0.456044  -158.396  7.407609    65.772  0.044756    37.777  0.454166   -85.569
 5.000000  0.456655  -166.384  6.749685    59.257  0.046613    39.007  0.439997   -92.283
 5.500000  0.460522  -173.721  6.189906    52.959  0.048879    40.280  0.430693   -99.242
 6.000000  0.467505   179.681  5.717491    46.678  0.051595    41.495  0.426399  -106.642
 6.500000  0.477130   172.444  5.299124    40.171  0.054710    42.266  0.426695  -114.612
 7.000000  0.485559   165.177  4.895036    33.705  0.058045    42.650  0.427607  -122.948
 7.500000  0.496344   158.026  4.515749    27.624  0.061674    42.944  0.429510  -131.067
 8.000000  0.514871   151.516  4.192016    21.845  0.065735    42.751  0.438466  -139.351
 8.500000  0.542859   145.245  3.906958    15.778  0.069725    41.708  0.454677  -147.960
 9.000000  0.573018   139.673  3.609643     9.736  0.073087    40.767  0.473031  -156.562
 9.500000  0.598876   134.991  3.335784     4.227  0.076657    40.113  0.494660  -164.131
10.000000  0.624409   130.917  3.094094    -1.281  0.080952    39.123  0.524206  -170.875
!
!  f       Fmin   Gammaopt  rn/50 
! GHz       dB    MAG  ANG    -
 0.100      0.55  0.46    2   0.18
 0.450      0.69  0.46    4   0.18
 0.900      0.73  0.47   12   0.18
 1.800      0.75  0.40   33   0.17
 5.000      0.97  0.31   70   0.16
10.000	      1.48  0.39 -123   0.14
!
! (c) 2009  Infineon Technologies AG, Munich
