!    Infineon Technologies AG
!    BGB707L7ESD 
!    Vce = 3.0V, Ic = 1.6mA
!    DATUM: 30.06.2009 10:17:32
# GHz   S   MA   R  50
!f                S11                 S21                 S12                 S22
!GHz            Mag  Ang            Mag  Ang            Mag  Ang            Mag  Ang
 0.050000  0.979009    -1.244  5.384778   179.044  0.001816    80.409  0.998949    -0.903
 0.060000  0.981379    -2.167  5.486025   178.762  0.002036    83.832  0.998981    -1.184
 0.070000  0.981757    -1.953  5.422369   178.519  0.002411    92.816  0.999408    -1.409
 0.080000  0.978723    -2.172  5.396967   178.087  0.002642    86.161  0.998943    -1.658
 0.090000  0.983928    -2.680  5.443282   178.503  0.002984    87.733  0.999093    -1.848
 0.100000  0.980896    -2.922  5.417897   177.659  0.003133    87.928  0.998756    -2.068
 0.110000  0.982586    -3.233  5.437546   177.669  0.003598    88.076  0.998355    -2.234
 0.120000  0.978813    -3.505  5.426431   177.438  0.003906    87.056  0.999322    -2.569
 0.130000  0.979973    -3.748  5.448480   177.184  0.004249    86.646  0.998701    -2.738
 0.140000  0.980528    -4.050  5.428345   176.794  0.004617    86.604  0.998206    -2.938
 0.150000  0.979042    -4.168  5.427250   176.708  0.004890    85.743  0.998218    -3.163
 0.200000  0.982526    -5.843  5.440464   175.720  0.006519    87.046  0.997911    -4.217
 0.250000  0.978176    -7.140  5.411546   174.237  0.008131    84.808  0.995613    -5.290
 0.300000  0.979498    -8.622  5.425753   173.284  0.009799    84.368  0.996864    -6.299
 0.350000  0.977142   -10.067  5.429577   171.965  0.011439    83.135  0.995696    -7.362
 0.400000  0.977897   -11.393  5.418671   170.863  0.013085    82.030  0.994546    -8.384
 0.450000  0.976274   -12.835  5.439767   169.468  0.014718    81.039  0.994103    -9.455
 0.500000  0.975635   -14.320  5.430285   168.401  0.016319    80.016  0.992314   -10.509
 0.600000  0.972218   -17.153  5.423840   165.719  0.019526    78.035  0.989879   -12.634
 0.700000  0.969818   -20.062  5.431505   163.237  0.022747    75.830  0.986552   -14.734
 0.800000  0.965562   -22.907  5.400757   160.890  0.025862    73.832  0.983022   -16.819
 0.900000  0.959696   -25.682  5.386178   158.353  0.028955    71.749  0.978778   -18.920
 1.000000  0.956068   -28.502  5.365066   155.933  0.031973    69.613  0.973713   -21.018
 1.100000  0.950072   -31.475  5.355818   153.346  0.034946    67.485  0.968547   -23.117
 1.200000  0.943206   -34.245  5.319639   150.804  0.037750    65.487  0.962733   -25.159
 1.300000  0.936970   -37.103  5.299007   148.467  0.040548    63.426  0.956783   -27.245
 1.400000  0.930371   -39.861  5.258507   145.960  0.043212    61.391  0.950473   -29.322
 1.500000  0.921738   -42.577  5.213940   143.358  0.045788    59.245  0.943026   -31.370
 1.600000  0.914047   -45.441  5.172822   140.871  0.048203    57.311  0.935990   -33.379
 1.700000  0.906679   -48.157  5.129379   138.545  0.050537    55.283  0.928606   -35.373
 1.800000  0.898743   -50.898  5.084694   136.197  0.052769    53.317  0.920867   -37.349
 1.900000  0.890131   -53.558  5.030918   133.675  0.054838    51.383  0.912975   -39.264
 2.000000  0.881977   -56.293  4.972642   131.373  0.056878    49.482  0.905453   -41.232
 2.200000  0.866313   -61.603  4.872742   126.940  0.060452    45.811  0.889401   -45.042
 2.400000  0.850052   -66.696  4.745162   122.458  0.063512    42.289  0.873576   -48.685
 2.600000  0.835863   -71.707  4.629068   118.306  0.066229    38.976  0.858166   -52.280
 2.800000  0.820860   -76.788  4.530899   114.146  0.068441    35.805  0.843825   -55.786
 3.000000  0.806996   -81.598  4.410113   110.062  0.070405    32.761  0.829418   -59.251
 3.500000  0.773019   -93.321  4.143004   100.147  0.073456    25.522  0.795579   -67.489
 4.000000  0.742518  -104.304  3.883775    90.809  0.074268    19.071  0.762834   -75.201
 4.500000  0.716324  -114.630  3.633792    81.905  0.073435    13.535  0.734421   -83.002
 5.000000  0.696145  -124.626  3.415397    73.230  0.070961     8.711  0.709668   -91.060
 5.500000  0.681790  -134.244  3.206990    64.834  0.067105     4.879  0.689130   -99.029
 6.000000  0.671823  -143.271  3.013748    56.606  0.062322     2.500  0.673123  -107.090
 6.500000  0.664465  -152.191  2.833079    48.128  0.057208     1.441  0.662592  -115.336
 7.000000  0.655393  -160.961  2.636297    39.625  0.051821     2.335  0.652873  -123.768
 7.500000  0.649076  -169.348  2.428236    31.728  0.047063     6.173  0.643200  -131.971
 8.000000  0.654249  -177.279  2.245168    24.570  0.044389    12.599  0.641709  -140.144
 8.500000  0.669494   174.057  2.082105    17.214  0.044180    19.252  0.647846  -148.417
 9.000000  0.690082   165.666  1.908904     9.768  0.045214    25.959  0.657515  -156.756
 9.500000  0.709641   158.343  1.741367     3.253  0.048333    32.292  0.669087  -164.347
10.000000  0.731239   151.782  1.590577    -3.090  0.053564    36.542  0.689471  -171.249
!
!                    Infineon Technologies AG
