!    Infineon Technologies AG
!    BGB707L7ESD 
!    Vce = 3.5V, Ic = 4.2mA
!    DATUM: 30.06.2009 10:56:55
# GHz   S   MA   R  50
!f                S11                 S21                 S12                 S22
!GHz            Mag  Ang            Mag  Ang            Mag  Ang            Mag  Ang
 0.050000  0.949049    -1.640 12.132339   178.497  0.001334    89.534  0.996905    -1.137
 0.060000  0.952714    -2.424 12.350700   178.183  0.001765    80.343  0.997323    -1.468
 0.070000  0.949683    -2.815 12.208760   177.872  0.002299    83.093  0.997468    -1.778
 0.080000  0.949474    -2.885 12.144522   177.387  0.002531    87.042  0.997206    -2.066
 0.090000  0.953442    -3.690 12.241302   177.710  0.002835    81.581  0.997117    -2.329
 0.100000  0.947098    -4.142 12.174209   176.812  0.003230    83.194  0.996653    -2.607
 0.110000  0.954151    -4.575 12.224517   176.759  0.003502    85.354  0.996537    -2.883
 0.120000  0.950203    -4.920 12.199916   176.450  0.003790    83.460  0.997177    -3.201
 0.130000  0.951808    -5.202 12.250584   176.140  0.004198    84.009  0.996477    -3.454
 0.140000  0.948334    -5.540 12.193961   175.675  0.004429    84.846  0.996051    -3.736
 0.150000  0.949606    -5.899 12.193704   175.500  0.004787    85.495  0.995674    -4.008
 0.200000  0.948948    -8.122 12.223059   174.142  0.006311    83.712  0.994824    -5.357
 0.250000  0.945267   -10.018 12.151013   172.336  0.007928    82.865  0.990677    -6.765
 0.300000  0.946001   -12.038 12.184360   171.000  0.009568    81.794  0.992518    -8.036
 0.350000  0.943664   -14.006 12.172218   169.295  0.011053    80.478  0.989350    -9.352
 0.400000  0.942214   -15.996 12.129585   167.790  0.012571    79.588  0.986632   -10.661
 0.450000  0.939637   -18.031 12.165078   166.004  0.014149    78.177  0.984668   -12.013
 0.500000  0.937262   -20.046 12.126678   164.544  0.015685    76.902  0.981149   -13.341
 0.600000  0.930156   -23.979 12.053950   161.097  0.018609    74.557  0.974223   -15.994
 0.700000  0.922007   -27.956 12.004210   157.876  0.021574    72.036  0.965960   -18.619
 0.800000  0.912438   -31.866 11.868186   154.812  0.024386    69.722  0.956762   -21.169
 0.900000  0.901444   -35.678 11.742791   151.568  0.027074    67.267  0.945829   -23.734
 1.000000  0.890363   -39.523 11.611779   148.497  0.029657    64.832  0.934232   -26.205
 1.100000  0.876970   -43.393 11.478984   145.321  0.032110    62.445  0.921824   -28.683
 1.200000  0.864596   -47.084 11.299166   142.223  0.034408    60.193  0.909150   -31.082
 1.300000  0.850604   -50.811 11.136701   139.346  0.036556    57.894  0.895793   -33.499
 1.400000  0.837572   -54.338 10.942937   136.404  0.038587    55.755  0.881834   -35.787
 1.500000  0.821646   -57.819 10.738877   133.422  0.040449    53.579  0.867029   -38.006
 1.600000  0.806611   -61.376 10.536332   130.575  0.042102    51.619  0.852843   -40.202
 1.700000  0.793129   -64.802 10.333801   127.927  0.043705    49.625  0.838747   -42.314
 1.800000  0.780007   -68.101 10.130585   125.316  0.045164    47.795  0.824460   -44.342
 1.900000  0.765480   -71.294  9.913486   122.614  0.046451    46.015  0.810056   -46.305
 2.000000  0.751158   -74.569  9.700701   120.141  0.047634    44.240  0.796487   -48.293
 2.200000  0.726570   -80.785  9.302423   115.421  0.049618    41.091  0.770022   -51.992
 2.400000  0.702944   -86.621  8.877043   110.828  0.051236    38.194  0.745641   -55.495
 2.600000  0.683059   -92.240  8.496208   106.685  0.052523    35.693  0.722801   -58.858
 2.800000  0.664287   -97.863  8.163607   102.492  0.053467    33.324  0.702479   -62.092
 3.000000  0.646560  -102.932  7.811984    98.608  0.054159    31.255  0.683094   -65.177
 3.500000  0.610028  -115.089  7.055469    89.366  0.054951    26.972  0.641550   -72.372
 4.000000  0.580998  -125.920  6.410627    80.965  0.054702    23.961  0.606446   -78.980
 4.500000  0.560181  -135.871  5.851587    73.107  0.053993    22.163  0.578808   -85.754
 5.000000  0.547742  -145.337  5.389765    65.534  0.052914    21.351  0.556865   -92.932
 5.500000  0.541310  -154.010  4.983875    58.281  0.051757    21.700  0.540527  -100.147
 6.000000  0.540138  -162.157  4.627734    51.156  0.050939    23.145  0.529849  -107.605
 6.500000  0.540900  -169.945  4.308964    43.778  0.050699    25.255  0.524722  -115.447
 7.000000  0.541629  -177.644  3.988636    36.454  0.051028    27.830  0.520507  -123.573
 7.500000  0.544368   174.411  3.675222    29.603  0.052214    30.882  0.517765  -131.508
 8.000000  0.558365   166.581  3.404364    23.225  0.054690    33.723  0.522415  -139.560
 8.500000  0.582247   158.879  3.167142    16.636  0.057904    35.234  0.534520  -147.848
 9.000000  0.608375   152.002  2.917016     9.946  0.060917    36.516  0.549676  -156.205
 9.500000  0.633122   146.069  2.680599     3.989  0.064541    37.797  0.567582  -163.727
10.000000  0.658310   140.939  2.471184    -1.903  0.069253    38.328  0.593813  -170.494
!
!                    Infineon Technologies AG
