!    Infineon Technologies AG
!    BGB707L7ESD RU919007 w#7 Sample Build #08493 Teil Nr. 3
!    Vce = 3.0V, Ic = 2.1mA
!    DATUM: 30.06.2009 10:17:40
# GHz   S   MA   R  50
!f                S11                 S21                 S12                 S22
!GHz            Mag  Ang            Mag  Ang            Mag  Ang            Mag  Ang
 0.050000  0.973660    -1.623  6.750622   178.976  0.001528    95.986  0.999218    -0.984
 0.060000  0.973965    -2.084  6.869900   178.676  0.002257    84.237  0.999142    -1.233
 0.070000  0.971300    -2.135  6.784479   178.405  0.002330    84.630  0.999123    -1.486
 0.080000  0.974036    -2.375  6.748435   177.982  0.002639    87.945  0.998930    -1.742
 0.090000  0.976541    -2.864  6.807496   178.344  0.002998    89.075  0.999014    -1.953
 0.100000  0.974194    -3.299  6.771787   177.498  0.003226    86.982  0.998670    -2.187
 0.110000  0.976076    -3.520  6.797091   177.511  0.003574    86.270  0.998596    -2.408
 0.120000  0.976203    -3.563  6.785068   177.231  0.003902    87.220  0.999204    -2.713
 0.130000  0.975050    -3.960  6.810269   176.963  0.004244    86.946  0.998783    -2.896
 0.140000  0.975695    -4.329  6.774064   176.583  0.004549    86.206  0.997916    -3.106
 0.150000  0.975289    -4.606  6.773915   176.461  0.004858    86.510  0.998072    -3.338
 0.200000  0.974544    -6.271  6.792365   175.402  0.006564    84.861  0.997607    -4.455
 0.250000  0.973837    -7.805  6.763193   173.848  0.008183    84.576  0.995301    -5.631
 0.300000  0.972305    -9.303  6.772996   172.826  0.009865    83.637  0.996600    -6.689
 0.350000  0.971632   -10.950  6.772618   171.439  0.011431    82.722  0.994766    -7.783
 0.400000  0.971032   -12.292  6.755811   170.246  0.013041    81.730  0.993587    -8.895
 0.450000  0.969318   -13.883  6.785543   168.764  0.014668    80.707  0.992714   -10.007
 0.500000  0.969006   -15.445  6.774642   167.652  0.016233    79.620  0.990755   -11.117
 0.600000  0.964353   -18.538  6.759979   164.819  0.019450    77.274  0.987629   -13.360
 0.700000  0.961220   -21.712  6.758827   162.169  0.022616    75.135  0.983411   -15.572
 0.800000  0.955603   -24.694  6.717430   159.665  0.025672    73.029  0.978775   -17.768
 0.900000  0.949348   -27.753  6.690208   156.954  0.028681    70.738  0.973353   -19.981
 1.000000  0.943743   -30.730  6.657244   154.431  0.031619    68.650  0.967154   -22.167
 1.100000  0.936175   -33.894  6.633632   151.700  0.034504    66.473  0.960317   -24.338
 1.200000  0.929062   -36.867  6.576574   149.024  0.037242    64.197  0.953468   -26.537
 1.300000  0.920741   -39.936  6.538723   146.542  0.039895    62.146  0.945907   -28.699
 1.400000  0.912572   -42.890  6.481229   143.939  0.042455    60.090  0.937927   -30.822
 1.500000  0.902989   -45.783  6.414221   141.232  0.044851    57.960  0.928658   -32.917
 1.600000  0.892583   -48.840  6.348025   138.647  0.047151    55.916  0.920475   -35.007
 1.700000  0.884038   -51.717  6.283603   136.214  0.049309    53.900  0.911569   -37.019
 1.800000  0.874850   -54.565  6.211477   133.797  0.051390    51.945  0.902436   -39.057
 1.900000  0.865162   -57.362  6.127488   131.241  0.053262    50.037  0.892930   -41.009
 2.000000  0.855187   -60.211  6.045989   128.856  0.055070    48.048  0.883681   -43.016
 2.200000  0.837062   -65.787  5.897334   124.323  0.058281    44.509  0.864866   -46.821
 2.400000  0.818522   -71.079  5.714377   119.841  0.060965    41.034  0.846793   -50.524
 2.600000  0.802227   -76.298  5.553231   115.612  0.063289    37.816  0.828962   -54.104
 2.800000  0.785478   -81.550  5.413010   111.364  0.065197    34.766  0.812773   -57.626
 3.000000  0.770104   -86.420  5.243089   107.349  0.066718    31.902  0.796217   -61.019
 3.500000  0.733666   -98.312  4.880507    97.484  0.069046    25.158  0.759217   -69.116
 4.000000  0.701133  -109.262  4.531727    88.369  0.069306    19.448  0.724105   -76.591
 4.500000  0.675571  -119.622  4.212448    79.606  0.068217    14.724  0.694773   -84.175
 5.000000  0.655895  -129.601  3.936351    71.188  0.065814    10.818  0.669790   -92.049
 5.500000  0.642444  -138.991  3.678655    63.101  0.062379     8.067  0.649864   -99.834
 6.000000  0.634761  -147.828  3.444734    55.104  0.058397     6.821  0.634457  -107.726
 6.500000  0.628701  -156.569  3.228224    46.903  0.054362     6.979  0.625061  -115.832
 7.000000  0.621618  -165.048  2.997987    38.718  0.050481     8.872  0.616740  -124.151
 7.500000  0.618049  -173.113  2.760026    31.098  0.047457    13.148  0.608916  -132.246
 8.000000  0.625838   179.083  2.553098    24.138  0.046486    19.009  0.609272  -140.342
 8.500000  0.643264   170.298  2.369219    16.974  0.047523    24.268  0.616925  -148.597
 9.000000  0.664931   162.252  2.173886     9.733  0.049303    29.236  0.628371  -156.894
 9.500000  0.685854   155.327  1.985958     3.367  0.052623    33.840  0.642010  -164.432
10.000000  0.709657   149.119  1.819100    -2.881  0.057751    36.849  0.664146  -171.276
!
!  f       Fmin   Gammaopt  rn/50 
! GHz       dB    MAG  ANG    -
 0.100	      0.40  0.68    2   0.23
 0.450      0.51  0.68    4   0.23
 0.900      0.57  0.70   13   0.22
 1.800      0.65  0.54   36   0.22
 5.000      1.07  0.43   79   0.20
10.000      2.02  0.48 -143   0.13
!
! (c) 2009  Infineon Technologies AG, Munich

