!    Infineon Technologies AG
!    BGB707L7ESD RU919007 w#7 Sample Build #08493 Teil Nr. 3
!    Vce = 1.8V, Ic = 2.1mA
!    DATUM: 30.06.2009 10:15:06
# GHz   S   MA   R  50
!f                S11                 S21                 S12                 S22
!GHz            Mag  Ang            Mag  Ang            Mag  Ang            Mag  Ang
 0.050000  0.978803    -1.522  6.743738   179.021  0.001490    87.895  0.998988    -1.060
 0.060000  0.977879    -1.951  6.873366   178.735  0.002024    90.757  0.999366    -1.307
 0.070000  0.974253    -2.209  6.789692   178.460  0.002367    87.034  0.999227    -1.574
 0.080000  0.973774    -2.294  6.760680   177.972  0.002754    87.445  0.999036    -1.823
 0.090000  0.975741    -2.929  6.817230   178.390  0.003109    90.116  0.999461    -2.058
 0.100000  0.974381    -3.275  6.781528   177.499  0.003396    90.466  0.998963    -2.287
 0.110000  0.976111    -3.537  6.809412   177.489  0.003864    88.811  0.999070    -2.529
 0.120000  0.971068    -3.713  6.797664   177.236  0.004186    86.870  0.999432    -2.822
 0.130000  0.975266    -4.089  6.824884   176.963  0.004396    89.025  0.998990    -3.053
 0.140000  0.974953    -4.275  6.793679   176.562  0.004812    87.526  0.998305    -3.234
 0.150000  0.974962    -4.598  6.792900   176.433  0.005140    86.660  0.998075    -3.485
 0.200000  0.975995    -6.314  6.810156   175.336  0.006892    85.893  0.997755    -4.638
 0.250000  0.972819    -7.765  6.776365   173.760  0.008655    84.863  0.995445    -5.858
 0.300000  0.972421    -9.340  6.795714   172.716  0.010386    83.749  0.996324    -6.943
 0.350000  0.970996   -10.996  6.794167   171.300  0.012119    82.457  0.994887    -8.109
 0.400000  0.972016   -12.400  6.777642   170.098  0.013825    81.648  0.993385    -9.221
 0.450000  0.968703   -13.995  6.801075   168.629  0.015539    80.531  0.992567   -10.418
 0.500000  0.968631   -15.586  6.791146   167.421  0.017224    79.385  0.990742   -11.580
 0.600000  0.964688   -18.719  6.780051   164.550  0.020641    77.082  0.987143   -13.913
 0.700000  0.960260   -21.858  6.775565   161.897  0.023977    74.913  0.983046   -16.227
 0.800000  0.954205   -24.872  6.728559   159.366  0.027244    72.788  0.977895   -18.505
 0.900000  0.948396   -27.969  6.697151   156.626  0.030410    70.477  0.972145   -20.809
 1.000000  0.943312   -31.060  6.668730   154.030  0.033549    68.282  0.965809   -23.078
 1.100000  0.934712   -34.197  6.640167   151.296  0.036606    66.047  0.958825   -25.366
 1.200000  0.927083   -37.183  6.580100   148.587  0.039490    63.852  0.951187   -27.591
 1.300000  0.919356   -40.282  6.541046   146.061  0.042315    61.687  0.943541   -29.874
 1.400000  0.910548   -43.249  6.476622   143.439  0.045000    59.556  0.935010   -32.074
 1.500000  0.900951   -46.181  6.412465   140.688  0.047579    57.380  0.925470   -34.252
 1.600000  0.890507   -49.192  6.343153   138.100  0.049924    55.315  0.916659   -36.424
 1.700000  0.881270   -52.072  6.269423   135.701  0.052218    53.246  0.907393   -38.560
 1.800000  0.872522   -54.948  6.203697   133.218  0.054400    51.277  0.897612   -40.634
 1.900000  0.862097   -57.798  6.115275   130.608  0.056364    49.292  0.887869   -42.702
 2.000000  0.851630   -60.692  6.031673   128.249  0.058315    47.383  0.878203   -44.742
 2.200000  0.832991   -66.159  5.876830   123.657  0.061683    43.733  0.858757   -48.724
 2.400000  0.814335   -71.530  5.688108   119.156  0.064491    40.154  0.839802   -52.561
 2.600000  0.797675   -76.752  5.524452   114.889  0.066916    36.966  0.821390   -56.252
 2.800000  0.781113   -82.006  5.380194   110.599  0.068939    33.846  0.804675   -59.875
 3.000000  0.765424   -86.838  5.207298   106.617  0.070545    30.908  0.787664   -63.384
 3.500000  0.728155   -98.873  4.837982    96.655  0.072908    24.122  0.748891   -71.750
 4.000000  0.696440  -109.799  4.484624    87.509  0.073296    18.234  0.713118   -79.502
 4.500000  0.670584  -120.102  4.160846    78.748  0.072202    13.352  0.682885   -87.318
 5.000000  0.651146  -129.977  3.882175    70.295  0.069782     9.251  0.657412   -95.402
 5.500000  0.638313  -139.427  3.621591    62.168  0.066253     6.252  0.636910  -103.363
 6.000000  0.630057  -148.279  3.386105    54.188  0.062083     4.634  0.621986  -111.413
 6.500000  0.624825  -156.944  3.166410    46.011  0.057897     4.290  0.612828  -119.645
 7.000000  0.618414  -165.404  2.935912    37.861  0.053686     5.556  0.604842  -128.037
 7.500000  0.614220  -173.486  2.698567    30.314  0.050151     9.080  0.597614  -136.139
 8.000000  0.622459   178.732  2.492201    23.404  0.048535    14.306  0.599143  -144.214
 8.500000  0.640604   169.938  2.310569    16.282  0.048853    19.274  0.607777  -152.385
 9.000000  0.662131   161.944  2.116128     9.140  0.049880    24.269  0.620147  -160.528
 9.500000  0.683792   155.052  1.931638     2.860  0.052502    29.184  0.634880  -167.843
10.000000  0.706977   148.777  1.766614    -3.286  0.057027    32.597  0.657723  -174.483
!
!  f       Fmin   Gammaopt  rn/50 
! GHz       dB    MAG  ANG    -
 0.100	      0.40  0.68    2   0.23
 0.450      0.51  0.68    4   0.23
 0.900      0.57  0.70   13   0.22
 1.800      0.65  0.54   36   0.22
 5.000      1.07  0.43   79   0.20
10.000      2.02  0.48 -143   0.13
!
! (c) 2009  Infineon Technologies AG, Munich

