# HZ S RI R 50
700000000 -0.7975385920441542 -0.47130795176411533
700146556 -0.7967646498185842 -0.47284466698534644
700293112 -0.7948379748442189 -0.4752587384975262
700439668 -0.7941726436902733 -0.47583310179938637
700586224 -0.7926448723263164 -0.47732178175276435
700732780 -0.7912493515323521 -0.47836410465977736
700879336 -0.7894868371017505 -0.4806027850136395
701025892 -0.7893876446393714 -0.4809602660502477
701172448 -0.7876616977840715 -0.48311492448417676
701319004 -0.7863898911878687 -0.48444244801758163
701465560 -0.7855316749500212 -0.4851553587878443
701612116 -0.7829684488267888 -0.4876394210322882
701758672 -0.7827658851373026 -0.48786670796678705
701905228 -0.7808942468919523 -0.49035096674592055
702051784 -0.779779695697365 -0.49066918468736925
702198340 -0.7782279178858872 -0.4926524369055728
702344896 -0.7779386759686603 -0.492863415885111
702491452 -0.7756432150404309 -0.49566124961287455
702638008 -0.7746003511035271 -0.4968499963784049
702784564 -0.7732026835177946 -0.4975617709302465
702931120 -0.7723207344636488 -0.49934881150019844
703077676 -0.7694718641707172 -0.5016897649045385
703224232 -0.7687237105583928 -0.5020811449954636
703370788 -0.7677197236787524 -0.5028014683914755
703517344 -0.7659448651309589 -0.5044861698210317
703663900 -0.7657033718696487 -0.5049398786094521
703810456 -0.763686804987452 -0.5073104531715428
703957012 -0.7625946521674426 -0.5084301937057243
704103568 -0.7613014197440054 -0.5094625168336913
704250124 -0.7598121618986344 -0.5114431132609288
704396680 -0.7576839858047976 -0.5126584485654007
704543236 -0.7563972887280419 -0.5138148887168664
704689792 -0.754417877807304 -0.515121537660891
704836348 -0.7541619194337218 -0.5155862745185655
704982904 -0.751626016467028 -0.5183767627411149
705129460 -0.7507264341513945 -0.5187745908280487
705276016 -0.748777171948729 -0.5203659835868925
705422572 -0.7476230650053065 -0.5215636534698103
705569128 -0.7460416344313089 -0.5234892455043281
705715684 -0.7457378766114681 -0.5235966475772668
705862240 -0.7436140291992979 -0.5253961704699998
706008796 -0.7423914667472877 -0.5273531718458699
706155352 -0.7405674117957585 -0.5284628036231126
706301908 -0.738651012845314 -0.5300665739107966
706448464 -0.7375339924667049 -0.5313973517940418
706595020 -0.7362824138622603 -0.5327716777524301
706741576 -0.7345064828287559 -0.5345015590786563
706888132 -0.7333564855184712 -0.5361188143336785
707034688 -0.7313791983986441 -0.5372629557909822
707181244 -0.7299126224511653 -0.5380770842077667
707327800 -0.728348290635802 -0.5403801656869511
707474356 -0.7265637963253817 -0.5412176458617297
707620912 -0.7244266115331072 -0.5432280208919966
707767468 -0.7235657934717765 -0.5444680268359712
707914024 -0.7224762879078098 -0.5448234947257045
708060580 -0.7210874312761648 -0.5461914825081642
708207136 -0.7200662759912085 -0.5472017760905382
708353692 -0.7184459119640992 -0.5489853376656401
708500248 -0.7171878515324589 -0.5506695130742616
708646804 -0.715642507248529 -0.5515397654605485
708793360 -0.7147014714047597 -0.5527193370407474
708939916 -0.7114034354912503 -0.5551235539732566
709086472 -0.7108262305192437 -0.5556945194898683
709233028 -0.7081977383519373 -0.5583036541194359
709379584 -0.707843951017942 -0.5589949115185474
709526140 -0.7064314964595241 -0.5603176578493242
709672696 -0.7056900074236032 -0.5609599963009247
709819252 -0.7025421642340716 -0.5636190655419177
709965808 -0.7036408773908495 -0.5632898003144136
710112364 -0.7011846432705972 -0.5651119383406382
710258920 -0.6990755381229059 -0.5671328159723279
710405476 -0.6986991163410659 -0.5680398100861754
710552032 -0.6965857670624375 -0.5694127631522737
710698588 -0.6952588535600572 -0.5702138311828239
710845144 -0.6937855644251987 -0.5713810604966844
710991700 -0.6926119330264541 -0.5727606547701906
711138256 -0.6914331423448854 -0.5738058724015257
711284812 -0.6897413370733412 -0.5747464752805679
711431368 -0.688795237041462 -0.5761519045639222
711577924 -0.6869280086029627 -0.5772993070162507
711724480 -0.6858821197223314 -0.5787202898154467
711871036 -0.6844300610444046 -0.5794997295658197
712017592 -0.6828922232310524 -0.580647067437714
712164148 -0.6807806818167569 -0.5826316841720474
712310704 -0.6794892814218623 -0.5833411164076893
712457260 -0.6775848621645046 -0.5851138585984036
712603816 -0.676365429128295 -0.5862738596979685
712750372 -0.6738248149216611 -0.5881855765737417
712896928 -0.6737749398542257 -0.5879961790716353
713043484 -0.6720155805629746 -0.5893949865233519
713190040 -0.6707726341231521 -0.5906591662161538
713336596 -0.6691315445579172 -0.5919058830939266
713483152 -0.6677645959656181 -0.5927457944588648
713629708 -0.6654476861952661 -0.5947131713576155
713776264 -0.6638582747809567 -0.5961441245681081
713922820 -0.6624810650414651 -0.5969545570502763
714069376 -0.661256225874486 -0.597669275482837
714215932 -0.6589870885898724 -0.5989200286295884
714362488 -0.6579753917400093 -0.6002082536520562
714509044 -0.6565860495004195 -0.6006566222486924
714655600 -0.6549457200187084 -0.6019275141094812
714802156 -0.6537880804646861 -0.6029979833588242
714948712 -0.6517350125059439 -0.604539601989053
715095268 -0.6493485021603451 -0.6061223891211807
715241824 -0.6479272955739763 -0.6070630461805877
715388380 -0.6463112616899268 -0.6080427313892687
715534936 -0.6445216079722373 -0.6091656079351621
715681492 -0.6426995606052827 -0.610393027589336
715828048 -0.6419567123906832 -0.610817126891007
715974604 -0.6399455748196488 -0.6123418879710915
716121160 -0.6375322689259878 -0.6136879317429462
716267716 -0.6364370364415867 -0.6150166514308817
716414272 -0.6343779004277698 -0.6164447642385241
716560828 -0.633363295597323 -0.6177710284019322
716707384 -0.6305877009186103 -0.6192884955122601
716853940 -0.6292513588978745 -0.6203922573121687
717000496 -0.6274781112053252 -0.621993949220487
717147052 -0.6257705347728733 -0.6230526176315563
717293608 -0.624745871703347 -0.6232028964704202
717440164 -0.6216853039780069 -0.6248036511020298
717586720 -0.6214924946692167 -0.6252546128356882
717733276 -0.6199491502521925 -0.6264114905853975
717879832 -0.6177328964403068 -0.6269967107072685
718026388 -0.6153182627969207 -0.6286712702145321
718172944 -0.6146827250625977 -0.6294329262034297
718319500 -0.6122129546991302 -0.6309237991878412
718466056 -0.6117480136028579 -0.6316997455484894
718612612 -0.6093890321841063 -0.6332076537520114
718759168 -0.6080820368725005 -0.6338445640580873
718905724 -0.605499390856301 -0.6358847114509172
719052280 -0.6060343848882186 -0.6363376125002326
719198836 -0.6036454898788158 -0.6373873519893062
719345392 -0.6016596734929084 -0.6381059536940774
719491948 -0.5994321470150737 -0.6394953450612552
719638504 -0.5976887759508603 -0.6405623802053348
719785060 -0.5952844078544299 -0.6414278405744477
719931616 -0.5930808782401918 -0.6423536993624764
720078172 -0.5920299990006761 -0.6432149829972438
720224728 -0.5907794682445082 -0.6441328287954161
720371284 -0.5892043445081062 -0.645308722948411
720517840 -0.5874789204977339 -0.6463650987886402
720664396 -0.5859168308900508 -0.6474005994857356
720810952 -0.5844017638856842 -0.6482887442523909
720957508 -0.5828215412362339 -0.6496872415004722
721104064 -0.5806657634520944 -0.6510733726864122
721250620 -0.5799813033279363 -0.6511757703708141
721397176 -0.5770872242068238 -0.6534540773442428
721543732 -0.5756618470008927 -0.6540519877147328
721690288 -0.5747049743057702 -0.6549171424534671
721836844 -0.5723000148417866 -0.6558935982845052
721983400 -0.57123791720788 -0.6571946882010051
722129956 -0.5694435130524523 -0.6575185847979239
722276512 -0.5679882971473256 -0.6587718227914012
722423068 -0.5655299517320037 -0.6600690445355618
722569624 -0.5640138300044104 -0.6608104115208003
722716180 -0.5616164679030615 -0.6617475114933982
722862736 -0.560090158452936 -0.6625458949405281
723009292 -0.5577683939645264 -0.6638253203750714
723155848 -0.5557077863622691 -0.664532306209677
723302404 -0.5543691545727769 -0.665662950386363
723448960 -0.5516962077732224 -0.6668274128654481
723595516 -0.5510021541493372 -0.667672457600466
723742072 -0.548346102728867 -0.6691457139200623
723888628 -0.5461648801721207 -0.669439587024737
724035184 -0.5451787401157866 -0.6705376484400536
724181740 -0.5425164646288365 -0.6720027321507248
724328296 -0.5404572740062757 -0.6730144728613162
724474852 -0.5390612148619216 -0.6735250198259868
724621408 -0.5368460911097533 -0.6748869847390665
724767964 -0.5356565924267019 -0.6753261070076855
724914520 -0.533821487235897 -0.676674207089019
725061076 -0.5312863841398852 -0.6774488167341889
725207632 -0.5296173471686338 -0.6788782090924249
725354188 -0.5285053703909822 -0.6794111386063071
725500744 -0.5253452616676701 -0.6809110993881692
725647300 -0.5242415556056983 -0.6813556091769248
725793856 -0.5212429364030727 -0.6829179514141835
725940412 -0.5195646681802819 -0.6840021676236716
726086968 -0.5179118322219065 -0.6850992277549804
726233524 -0.5159042034275998 -0.6859383410399859
726380080 -0.5138552602694059 -0.6866727734639472
726526636 -0.5133379420809977 -0.6872876191087267
726673192 -0.511726982096307 -0.6882549386461938
726819748 -0.508892941960072 -0.689740890298496
726966304 -0.5069263688261528 -0.6910229067698628
727112860 -0.5060947649576343 -0.6910997155640252
727259416 -0.5039011984306144 -0.6920449629240026
727405972 -0.5008655243754565 -0.6938149711853862
727552528 -0.4995935353858963 -0.6942703828209115
727699084 -0.49710676318605834 -0.69501080261431
727845640 -0.49587156302572827 -0.6958496923590041
727992196 -0.4939468187605952 -0.6972113342243068
728138752 -0.4916549607847329 -0.6978690599331762
728285308 -0.4898529933087168 -0.6987462414330243
728431864 -0.4876309774700451 -0.6999189795971746
728578420 -0.48508556015481413 -0.7008773142261135
728724976 -0.483405913513003 -0.7018584930552992
728871532 -0.4811640302788787 -0.7024686811067304
729018088 -0.4796127043164945 -0.7026830394591869
729164644 -0.4772419151845322 -0.7040086473135787
729311200 -0.4758689135074709 -0.7048229072463681
729457756 -0.47335659053995066 -0.7056226454805689
729604312 -0.4705533919929403 -0.7064921041052175
729750868 -0.4690970941369597 -0.7071417354232549
729897424 -0.46503459791487045 -0.7089236933818576
730043980 -0.4643775568423257 -0.7090364557917238
730190536 -0.4625470559200719 -0.7098669467217597
730337092 -0.4595956804678137 -0.7112774536266716
730483648 -0.4576709160788675 -0.7121367576001691
730630204 -0.45717427560859986 -0.7122084389668893
730776760 -0.45369213159227945 -0.7136664010276396
730923316 -0.4515197240571179 -0.7155244383259239
731069872 -0.4494629907870577 -0.716116773599966
731216428 -0.4471212073902115 -0.7170093436605764
731362984 -0.44421722110916384 -0.718064284055157
731509540 -0.44188828061098034 -0.7194471709180508
731656096 -0.43965077042622447 -0.720298572047592
731802652 -0.4373774128692233 -0.7213687870847167
731949208 -0.4355374787411283 -0.7225953688266199
732095764 -0.43308427662518445 -0.723935318782485
732242320 -0.4310527366303595 -0.7249912575104291
732388876 -0.4293452732389706 -0.725946523356068
732535432 -0.42704658000093804 -0.7274916603270719
732681988 -0.42510389519073594 -0.728582412661802
732828544 -0.42369638991553343 -0.7294889613155114
732975100 -0.41982876757028165 -0.7312365367097192
733121656 -0.4178817649630894 -0.7324154731191481
733268212 -0.4165189080492377 -0.7334561111866633
733414768 -0.41399919909568295 -0.7348634304769798
733561324 -0.4111858694626244 -0.7363204469790038
733707880 -0.4097309799034571 -0.7375388369163581
733854436 -0.40708785484433907 -0.7389266253913613
734000992 -0.40543563278620154 -0.740147470136123
734147548 -0.40305442384896867 -0.74153975475096
734294104 -0.40154394729072135 -0.7425160747614047
734440660 -0.39975541951510346 -0.7436101823813085
734587216 -0.39706990384437335 -0.745486246798821
734733772 -0.3949833726500938 -0.7467463733812315
734880328 -0.39226309136401805 -0.747976449702751
735026884 -0.3908346799300085 -0.7490587189005845
735173440 -0.3882674950913836 -0.7504143586331369
735319996 -0.3862051641115618 -0.751603706946549
735466552 -0.38382834622726225 -0.7529638673350348
735613108 -0.38245733876680166 -0.7540160521397178
735759664 -0.3809327671499101 -0.7549169542375875
735906220 -0.37919632462196035 -0.7566972334171288
736052776 -0.37785768969865885 -0.7574804164578128
736199332 -0.3752507067113834 -0.7595693394337236
736345888 -0.3733738434676298 -0.7606610329818122
736492444 -0.3719860450803211 -0.7620342701551392
736639000 -0.3704925426761594 -0.7632495510951959
736785556 -0.3677787057491001 -0.7646725437864832
736932112 -0.3661335928243705 -0.7656088962300198
737078668 -0.3642226929038266 -0.7666194583863346
737225224 -0.36219453200626106 -0.7678295498633585
737371780 -0.3601945949234451 -0.7687899587470998
737518336 -0.358263759736598 -0.7701024219089234
737664892 -0.3557325741746379 -0.771893415330186
737811448 -0.3547995205993195 -0.7726860311303326
737958004 -0.3532393995453434 -0.7739205937049064
738104560 -0.3511784467789484 -0.7750072428263263
738251116 -0.3494003898606846 -0.7758043956828798
738397672 -0.34726474524376727 -0.7767562974838914
738544228 -0.3448875251251209 -0.7778759905721075
738690784 -0.34280773683941956 -0.779471326552896
738837340 -0.34129444499521 -0.7802718919212108
738983896 -0.3399422562932721 -0.7810559508844727
739130452 -0.33832567342247255 -0.7829167006897985
739277008 -0.33592269018389725 -0.7837010428635596
739423564 -0.33410514373271055 -0.7850089311194255
739570120 -0.3317550111658407 -0.7862961583305996
739716676 -0.3301285145025513 -0.7876007595575146
739863232 -0.32867664968766175 -0.7877995758270913
740009788 -0.3258930494140914 -0.7892607751730109
740156344 -0.32382448997214397 -0.7898349835827768
740302900 -0.32236660146581564 -0.791041341108817
740449456 -0.32074963466542494 -0.7924740110742201
740596012 -0.31877963639780416 -0.7931930162008899
740742568 -0.3174569495162002 -0.7937886930581783
740889124 -0.31470835305444267 -0.7951925325848814
741035680 -0.31332748005732586 -0.7962660328470357
741182236 -0.3115992511940317 -0.7972628443037962
741328792 -0.3097239959016504 -0.7984660435076891
741475348 -0.3084096986521089 -0.7996944804304126
741621904 -0.30647460891928824 -0.8005068682346329
741768460 -0.3047136384006475 -0.8012661676197731
741915016 -0.3024560907331558 -0.8026828469020114
742061572 -0.3001316832142501 -0.8036431192885082
742208128 -0.2990032050236893 -0.8039704792406903
742354684 -0.29686908864844186 -0.8051898700760702
742501240 -0.29349388830166107 -0.8058668295359726
742647796 -0.2930245835608734 -0.8067114874090919
742794352 -0.2906770591080688 -0.8074770469056123
742940908 -0.2892100908620963 -0.8088763851206171
743087464 -0.28856776394143924 -0.8095283298557344
743234020 -0.2855883784375743 -0.8105209880780959
743380576 -0.28394811179758167 -0.8112832515993139
743527132 -0.2830122451749157 -0.8120560349066864
743673688 -0.2812533742291163 -0.8128971766025581
743820244 -0.2782729632605319 -0.8140937384446637
743966800 -0.27689562597566464 -0.8150350602292556
744113356 -0.2748059383973021 -0.8159023773206003
744259912 -0.27314200711705483 -0.8162658730355378
744406468 -0.2699692394317824 -0.8174702397971197
744553024 -0.26963847712067046 -0.8185499108552774
744699580 -0.2678241367722821 -0.8193509693125811
744846136 -0.26605959240332816 -0.8200174710524261
744992692 -0.26487205201845837 -0.8203305662230591
745139248 -0.2619198177263689 -0.8216659105282093
745285804 -0.26061983614595813 -0.8223178676464282
745432360 -0.25842192985707024 -0.82292341688061
745578916 -0.2567277474761271 -0.8237356651118656
745725472 -0.2542003052619813 -0.825014302957242
745872028 -0.251368554815777 -0.8257073720570931
746018584 -0.24933664354117305 -0.826447119010257
746165140 -0.24716774699454963 -0.8276006476397064
746311696 -0.24495260135946706 -0.8282032911276521
746458252 -0.24255534153175937 -0.8293020364692859
746604808 -0.24107413818066167 -0.8305033906477091
746751364 -0.2387932966997274 -0.831852625559907
746897920 -0.23644254856179908 -0.8325143948117242
747044476 -0.23491953510581529 -0.8332465811616925
747191032 -0.23234152118392618 -0.8343449305488503
747337588 -0.23024927211065063 -0.8354693709602254
747484144 -0.22829738387620413 -0.8361776990517092
747630700 -0.22604524434270845 -0.8372924394570604
747777256 -0.2235713801000979 -0.8383885410938604
747923812 -0.22210252485364618 -0.8387484792363163
748070368 -0.22088873107096635 -0.8399513914129761
748216924 -0.21842353400255324 -0.8411115048868886
748363480 -0.21731078122630615 -0.8413705684722527
748510036 -0.2157486397054847 -0.8428689295286252
748656592 -0.21229986486259847 -0.8448498558597513
748803148 -0.21060608150798185 -0.8451786169697731
748949704 -0.20899248800272213 -0.8462412194980551
749096260 -0.20599288878339786 -0.847457966146037
749242816 -0.20460804650599868 -0.8487587160908623
749389372 -0.20353435564806996 -0.8496752875112099
749535928 -0.20181475993608042 -0.8505647396316164
749682484 -0.20090873372522539 -0.8515653350168093
749829040 -0.19728732091461165 -0.8529830738158636
749975596 -0.19637143436143895 -0.8541510823074789
750122152 -0.19399918308298783 -0.8549836921731132
750268708 -0.19182668773564412 -0.8563967358488392
750415264 -0.19014137811630452 -0.8570700858648808
750561820 -0.18867543785572916 -0.858263227355278
750708376 -0.1863967098008099 -0.8593606205562077
750854932 -0.18633057106280654 -0.8603829350947642
751001488 -0.18295050169798788 -0.8612370653986282
751148044 -0.1801264676225 -0.8625077937518788
751294600 -0.18036652170783993 -0.8632557972386787
751441156 -0.1780331295425056 -0.863726719766942
751587712 -0.1764237415630382 -0.8645907614272847
751734268 -0.17582224474953612 -0.8666752140537796
751880824 -0.17314662696872216 -0.8673852025299141
752027380 -0.1732311843313799 -0.8683400399334292
752173936 -0.17169466555321658 -0.8690474774134412
752320492 -0.17080589196786505 -0.8700801057348231
752467048 -0.16659050317689905 -0.8709446198361193
752613604 -0.16579387523177255 -0.8717284919447353
752760160 -0.16373944726179332 -0.8725628205006724
752906716 -0.16138068956289353 -0.8732795080480971
753053272 -0.16002909992698974 -0.8742824687483518
753199828 -0.15857948527148902 -0.8744427605092685
753346384 -0.1572235616069053 -0.8760050647963712
753492940 -0.1564760507686904 -0.8762203228545971
753639496 -0.15427690710125344 -0.8773398030324335
753786052 -0.15375815706152413 -0.877837988139053
753932608 -0.15126127678232856 -0.8783626906594507
754079164 -0.15062687676556571 -0.8791016916696722
754225720 -0.1478481249837372 -0.8798873598432413
754372276 -0.14672877102777948 -0.8805724834974121
754518832 -0.14516359661244838 -0.8811124240994708
754665388 -0.1431148230839057 -0.8821041047009031
754811944 -0.14075112936997933 -0.8828207084561289
754958500 -0.13964230353214707 -0.8834819064522494
755105056 -0.1379333450662563 -0.8840081250323363
755251612 -0.13669919130186217 -0.8841816057076759
755398168 -0.13485384254694444 -0.8854437186596801
755544724 -0.13426207298796608 -0.8855525018251105
755691280 -0.1322388116780437 -0.8866795535128852
755837836 -0.12981400294163603 -0.8877368081271556
755984392 -0.1293898189520576 -0.8886850300066498
756130948 -0.127229568208224 -0.8889875450063714
756277504 -0.12520380185483204 -0.8889916907365885
756424060 -0.12358055984555986 -0.8898006378878576
756570616 -0.12250888586340739 -0.890381746514288
756717172 -0.12029281818855171 -0.8906877458484905
756863728 -0.11873914208145127 -0.8915823499434573
757010284 -0.11647031458969608 -0.8916747833954299
757156840 -0.11453917246306056 -0.8935494636073225
757303396 -0.11376051994701149 -0.89334737865178
757449952 -0.11204173308352613 -0.8933672262716972
757596508 -0.11038868789979663 -0.8941616883604379
757743064 -0.108983143920414 -0.8942967946196525
757889620 -0.10864224881241116 -0.895410696190065
758036176 -0.10513993305218264 -0.8956245967738002
758182732 -0.10340588857191149 -0.8965767435486017
