# HZ S RI R 50
500000000 -0.5304886788886837 -0.722553004040095
500312500 -0.5332631422031907 -0.7204593487934217
500625000 -0.5350308752525738 -0.7182714381008617
500937500 -0.5364529133531629 -0.7160371526886148
501250000 -0.5387042529335175 -0.713384959834602
501562500 -0.5411093962939321 -0.7107291870421397
501875000 -0.5430518963840026 -0.70857815753725
502187500 -0.5447177833586819 -0.7063971665481112
502500000 -0.5467827535866189 -0.7041631290821994
502812500 -0.5490305836664049 -0.7018358004499005
503125000 -0.5514733945899244 -0.699415360770496
503437500 -0.5526566295647806 -0.6974110571323332
503750000 -0.554660275377266 -0.6950367041471527
504062500 -0.557464862244094 -0.6919165392519557
504375000 -0.5586310864774625 -0.6902015549248108
504687500 -0.5604061978244208 -0.6879548628220784
505000000 -0.5622867480037764 -0.685679689879802
505312500 -0.5650054028971992 -0.6826981572038128
505625000 -0.5671427367794116 -0.6804656655238367
505937500 -0.5685063279670497 -0.6778759226254474
506250000 -0.5704924253122241 -0.6753054025464647
506562500 -0.572194121923903 -0.6731508558494876
506875000 -0.5742597632512038 -0.6706324656267569
507187500 -0.5763122020279058 -0.6677040673504452
507500000 -0.5778729271051486 -0.6654889181428775
507812500 -0.5802050204994358 -0.6628284366601964
508125000 -0.5821619886767806 -0.6599719027980046
508437500 -0.5839743873067887 -0.6575459407535624
508750000 -0.5860098721606644 -0.6550131139320953
509062500 -0.588550697642827 -0.6511051983880656
509375000 -0.5898493531719565 -0.6491825607704962
509687500 -0.5909035800875501 -0.6467420340701231
510000000 -0.5927871561188714 -0.6440397596705705
510312500 -0.5946510132163532 -0.6411107932272807
510625000 -0.5967396806710754 -0.6388087130197387
510937500 -0.5983240153576325 -0.635956078462716
511250000 -0.5996774034445027 -0.6332641777986648
511562500 -0.6020273290076159 -0.6301639890590557
511875000 -0.6039717498365464 -0.6264672976820045
512187500 -0.6054955046528507 -0.624593029736968
512500000 -0.6070228665816058 -0.6214645538995043
512812500 -0.6091348124167344 -0.6180088943542876
513125000 -0.6114367298825291 -0.615004443058393
513437500 -0.6127806373896065 -0.6126573313564188
513750000 -0.6144252325158656 -0.6092068081158978
514062500 -0.6165736047154761 -0.6065369116683982
514375000 -0.6177449710864455 -0.6038835881848434
514687500 -0.6187125112355137 -0.6007522393511232
515000000 -0.6204753557779492 -0.5976344312185183
515312500 -0.6219254045016972 -0.5945653015271936
515625000 -0.6241938437471433 -0.5911200937596446
515937500 -0.6257227713963659 -0.588154647686674
516250000 -0.6274166742680601 -0.5849878655595782
516562500 -0.6292426203579531 -0.5817762106548929
516875000 -0.6310325566550066 -0.578294365568038
517187500 -0.6327685592418736 -0.5755781025303901
517500000 -0.6341349907001406 -0.5726864852051171
517812500 -0.6354692620350039 -0.569312707039735
518125000 -0.6369527273104315 -0.5661485484296925
518437500 -0.6385276421659173 -0.5624631519712321
518750000 -0.6398328694982035 -0.5600742023620311
519062500 -0.6415786504664027 -0.5562260240984969
519375000 -0.6432173150346474 -0.5527729824961242
519687500 -0.644497802517664 -0.5502087025875997
520000000 -0.6453696369114306 -0.5470807114681251
520312500 -0.646867858037519 -0.5432385113176603
520625000 -0.6485701512716777 -0.5398981957616243
520937500 -0.6504834094267448 -0.5364910573256745
521250000 -0.6519054122014072 -0.533423360001809
521562500 -0.6535972723635614 -0.5301160630862897
521875000 -0.6548860246302152 -0.5263754008984748
522187500 -0.656085566406264 -0.5235033055228198
522500000 -0.6571968401014766 -0.5199028036112443
522812500 -0.6587512911273007 -0.5164190164192881
523125000 -0.6602440737696452 -0.5131748763772177
523437500 -0.661085263545518 -0.5103247304715239
523750000 -0.6623208978160534 -0.5066705129021313
524062500 -0.6639848054234654 -0.5037130650647044
524375000 -0.6652758466058176 -0.5001010613220993
524687500 -0.6666969438168717 -0.49645570010814
525000000 -0.6675430435549625 -0.4924214415407533
525312500 -0.6688199599561642 -0.48825817270663574
525625000 -0.6704037301969923 -0.4844195991426959
525937500 -0.6712194605733788 -0.4818215962287668
526250000 -0.6714900311605227 -0.4788535581562278
526562500 -0.6728779835160894 -0.4753196385746115
526875000 -0.6744468186749594 -0.4719067947209228
527187500 -0.6754580413857302 -0.46886028708292526
527500000 -0.6757318847321411 -0.4652190913199243
527812500 -0.6774253916466488 -0.4607653399594226
528125000 -0.678950879573048 -0.4569094640133
528437500 -0.6803481443666233 -0.4533470952372773
528750000 -0.6811321594504348 -0.4504039154403222
529062500 -0.6824834686694883 -0.4471380663951496
529375000 -0.6835194538053995 -0.4429586413184096
529687500 -0.6844380331446397 -0.4393706388618087
530000000 -0.6849881482741844 -0.4361555890970044
530312500 -0.6858330478352616 -0.43238779715780795
530625000 -0.686969970939761 -0.42784038754996967
530937500 -0.6882915023602741 -0.42381632554602067
531250000 -0.6890937298007233 -0.42028332564422977
531562500 -0.6901914790892858 -0.4158958667626332
531875000 -0.6909035329793052 -0.41240908153023376
532187500 -0.6918357394822404 -0.4085397572704246
532500000 -0.6928612123241914 -0.404178898231165
532812500 -0.6936113793035363 -0.4001679242788533
533125000 -0.694493032519174 -0.396267327265224
533437500 -0.6956429902484106 -0.39178743359275126
533750000 -0.6961668177763611 -0.38819494676169064
534062500 -0.6967718375704972 -0.384604485826962
534375000 -0.6973747266413751 -0.3800024831842131
534687500 -0.6988922626320758 -0.37588173360461946
535000000 -0.6992125217178602 -0.3718125049526708
535312500 -0.6998339198109281 -0.36781366574095387
535625000 -0.7004148133643163 -0.3636695468355377
535937500 -0.7014208832490677 -0.3588321532780353
536250000 -0.7019820279619441 -0.3550269386155406
536562500 -0.7028671892385302 -0.34968736376847787
536875000 -0.703280110834473 -0.3455639376990393
537187500 -0.7039516352696356 -0.3405967472404216
537500000 -0.7045091225168499 -0.3364907894954353
537812500 -0.704759427222426 -0.33190164596445615
538125000 -0.7057478983176858 -0.32768304681315374
538437500 -0.7061548392911852 -0.32319962825823667
538750000 -0.7066910784406152 -0.3187057313805563
539062500 -0.7069134049914917 -0.31421534447489524
539375000 -0.7071088689132297 -0.309643447895529
539687500 -0.7072810990960894 -0.30537887665365365
540000000 -0.7072433788930204 -0.3007314821880568
540312500 -0.7077609322288128 -0.2959662708380815
540625000 -0.7078049455381917 -0.2914636932272611
540937500 -0.7085931156543095 -0.28647987015531257
541250000 -0.7077919680734771 -0.2823361511575809
541562500 -0.7085144436570412 -0.2773768478122824
541875000 -0.7079507526308696 -0.27290788718288694
542187500 -0.70864248649583 -0.2676046578142779
542500000 -0.7087043538850281 -0.26323931455304794
542812500 -0.7083759001811358 -0.25813792647877054
543125000 -0.7087001477625312 -0.2536428144347026
543437500 -0.7085501336203945 -0.24863782299938642
543750000 -0.7083088027633626 -0.24347804669080292
544062500 -0.7080515311112191 -0.2393425007022491
544375000 -0.7078960807440021 -0.23373550719464226
544687500 -0.7077400541770419 -0.22931111647070287
545000000 -0.7073388437748777 -0.22380773066777956
545312500 -0.7070078362243075 -0.21933878595852882
545625000 -0.7073043375483637 -0.21444039061488135
545937500 -0.7069269071445567 -0.2088282626934999
546250000 -0.7061575121282734 -0.20440995413446858
546562500 -0.7053852192827468 -0.19985866687233803
546875000 -0.7048014745555978 -0.1944812145090014
547187500 -0.7042984740368357 -0.18998351974829558
547500000 -0.7037326778080778 -0.18485938038961575
547812500 -0.7031989513857531 -0.18002078591320522
548125000 -0.7020753781859175 -0.17481857958706623
548437500 -0.701914587265434 -0.16927790128058554
548750000 -0.7013449463218028 -0.16398821164764046
549062500 -0.6999619494606028 -0.15958984689148178
549375000 -0.6993788985981869 -0.15452830652724964
549687500 -0.6987261314852732 -0.14912634371921238
550000000 -0.6976385878306008 -0.1435908049848885
550312500 -0.6961215903457998 -0.13914205934003215
550625000 -0.6948876295025777 -0.1342406919114937
550937500 -0.6934358765281737 -0.12950244390268825
551250000 -0.6923006900517463 -0.1245657747222508
551562500 -0.6910812546032492 -0.1191175429890897
551875000 -0.6898369588153695 -0.11417692931070422
552187500 -0.6884541145879082 -0.10824495705130177
552500000 -0.6871623651853094 -0.10395619900508571
552812500 -0.685717273485302 -0.09914899687643772
553125000 -0.6841890237673869 -0.09389840948678921
553437500 -0.6826194446181079 -0.08900295095791458
553750000 -0.6812443191886113 -0.0834592547811048
554062500 -0.6797873917158406 -0.07932141366311077
554375000 -0.678346153436776 -0.07391009204886682
554687500 -0.6768113727289965 -0.06840422239410288
555000000 -0.6747726573667746 -0.0639574140564221
555312500 -0.6728266147454521 -0.05894519410352283
555625000 -0.6710377618662264 -0.05395667047663577
555937500 -0.6695286719261629 -0.04810456429333244
556250000 -0.6675561750300174 -0.04392758930581436
556562500 -0.6654302361444819 -0.03933147194437782
556875000 -0.6633919080637972 -0.03436336326327614
557187500 -0.6610406199136388 -0.02979354038195259
557500000 -0.6595570850203162 -0.024818076984631284
557812500 -0.6575063958941519 -0.020094257551361114
558125000 -0.6555119742996678 -0.015133345313043499
558437500 -0.6534424329423295 -0.010175161595254395
558750000 -0.651286315508767 -0.00585199971398103
559062500 -0.6486426914787937 -0.0009266824569893946
559375000 -0.6467300846569392 0.004113011275142754
559687500 -0.6442781493186102 0.009072075350843367
560000000 -0.641585183764303 0.013363738900480572
560312500 -0.6387375984472176 0.0186996412185298
560625000 -0.6361399783588726 0.023676643440432556
560937500 -0.6338307288956051 0.027805509258763465
561250000 -0.6315401312874925 0.03229340481742602
561562500 -0.6287247134086102 0.03719191701309043
561875000 -0.6262011456187692 0.04177270803500387
562187500 -0.6239010345383709 0.04645989613181592
562500000 -0.6215212062338235 0.05037041645080614
562812500 -0.6191698031000672 0.05528206640073312
563125000 -0.6166045403327354 0.0600148319016304
563437500 -0.6141764238416596 0.06395882483921339
563750000 -0.6115116189035501 0.06871587785719803
564062500 -0.6086121195160531 0.07285242790345905
564375000 -0.606607851390349 0.07754736659686368
564687500 -0.6040086519143338 0.08188063905792291
565000000 -0.601155630501595 0.0868476905171639
565312500 -0.5981483832619107 0.09111352896523774
565625000 -0.5952396958104854 0.09661593030013976
565937500 -0.5922982750276942 0.10045490298306702
566250000 -0.5895264736204 0.10538128462444112
566562500 -0.5862555386457241 0.11070505617775035
566875000 -0.5834990087601812 0.11489425900643488
567187500 -0.5804213276523718 0.1198172440785115
567500000 -0.5775216957131407 0.12457646896041552
567812500 -0.574293186098895 0.12940056491615862
568125000 -0.5708507536080271 0.13425651737403374
568437500 -0.5678605816223582 0.1386486385424521
568750000 -0.5645682709457083 0.14361726764578567
569062500 -0.5616505210189042 0.14858518824505082
569375000 -0.5585426907041744 0.15338850234819318
569687500 -0.5550088675734728 0.1577818721058277
570000000 -0.5512265057763698 0.1624496221794124
570312500 -0.5477875255504249 0.16780279354453295
570625000 -0.5441777172982939 0.1722381887834195
570937500 -0.5404089981889452 0.17704616605467063
571250000 -0.5366905840970928 0.18191841989887345
571562500 -0.5327823900232972 0.18681387063706942
571875000 -0.5293668415327153 0.19088624177551997
572187500 -0.5253311891867419 0.1950161942894888
572500000 -0.5212669070989483 0.20078955406367546
572812500 -0.517234515425461 0.20506474894606752
573125000 -0.5136194739579559 0.20920544361661414
573437500 -0.5091997402965333 0.21416524888927094
573750000 -0.5052114197406434 0.2182926794853788
574062500 -0.5008437805524062 0.2229286620828018
574375000 -0.49646917896446635 0.22768286464828402
574687500 -0.4923293168602057 0.23191482669023855
575000000 -0.4876887731540997 0.2368724956676254
575312500 -0.48287483953957455 0.24188640782401075
575625000 -0.47865041687135534 0.24595609630774481
575937500 -0.4735185178806297 0.25042956187106574
576250000 -0.46877311759795753 0.255036648886617
576562500 -0.46403387733779916 0.25916175003245884
576875000 -0.4591798628995977 0.2632095681959773
577187500 -0.45392800807237443 0.26782775428595723
577500000 -0.4494117302424365 0.27197963127707775
577812500 -0.4438488105266117 0.2762921183251548
578125000 -0.4388565231820392 0.279849019897767
578437500 -0.43374843768738436 0.28407650349842967
578750000 -0.4284722769643731 0.2880282512686738
579062500 -0.4228912038533625 0.29231145480799037
579375000 -0.4178462645209902 0.29612851408222385
579687500 -0.4126517970991261 0.2995834344041737
580000000 -0.4072838316167786 0.3042629269176011
580312500 -0.40229605424793724 0.3073003138732838
580625000 -0.3960715365250892 0.31178643369357095
580937500 -0.3903226735765526 0.3161655594762114
581250000 -0.3854640879142596 0.3188468581121994
581562500 -0.3790414930651412 0.3228707256535907
581875000 -0.3733477218311722 0.326394528332917
582187500 -0.36729542455446434 0.3306958674307133
582500000 -0.3612639074936569 0.3338483786415498
582812500 -0.3552121989624198 0.3373174464473528
583125000 -0.3495189882589524 0.3404923236496654
583437500 -0.3434091233703283 0.3438545666722767
583750000 -0.33710165521487745 0.34709587980188816
584062500 -0.3310497879336324 0.3504459081475734
584375000 -0.3250008678100474 0.3533810726659338
584687500 -0.3185792548137668 0.35684903371658655
585000000 -0.3123831000452475 0.35944710406904096
585312500 -0.3052487974302952 0.3626013392478355
585625000 -0.29891739998143607 0.36525723047020364
585937500 -0.2924740692182412 0.3679550055432107
586250000 -0.2865816520751602 0.37056322243911843
586562500 -0.27938017660099 0.37307319497052954
586875000 -0.2730179262329245 0.37508835998289775
587187500 -0.26658840497552705 0.37787027399919326
587500000 -0.25964212882740567 0.37991395080907614
587812500 -0.25320329162987365 0.3817836661081258
588125000 -0.24647067204779602 0.3837335280207906
588437500 -0.23943010903536546 0.38578340270453065
588750000 -0.23271233319969895 0.3875423372201698
589062500 -0.2258437722275298 0.38940506799771846
589375000 -0.21886468365415992 0.39112207119763787
589687500 -0.2126585123509309 0.39262549672607233
590000000 -0.20553537391420518 0.3943799260361424
590312500 -0.19952183431937062 0.3950366575297725
590625000 -0.192250331829513 0.3969108656647591
590937500 -0.1858243488532015 0.3982268130377977
591250000 -0.17918244295339608 0.3995900535030602
591562500 -0.17296161381975664 0.40022344148882527
591875000 -0.16578599134305783 0.40177661039117696
592187500 -0.15935845433154808 0.40299801965066756
592500000 -0.15236458768372108 0.40387806169777496
592812500 -0.1455414318194992 0.4050230972796798
593125000 -0.13857525870771392 0.4058264223336109
593437500 -0.13204890907409544 0.40645143061119116
593750000 -0.1251875254555525 0.40715764836006557
594062500 -0.11847467618111926 0.40778092291444046
594375000 -0.11145247272645274 0.4086450116076235
594687500 -0.1044836119876108 0.4091688307208617
595000000 -0.10173993298495994 0.40671841016220395
595312500 -0.0952908168682595 0.40692461997588725
595625000 -0.08833993951720194 0.4072238623857435
595937500 -0.08168789566029601 0.40713330198640196
596250000 -0.07538507126100585 0.4074044510035532
596562500 -0.0686937628843032 0.40770371300272495
596875000 -0.06169498121645586 0.40802491357303416
597187500 -0.05607968668441593 0.4075994181456015
597500000 -0.04991461884324618 0.40772673901682527
597812500 -0.04341627465306682 0.4077593515608665
598125000 -0.03742936065325489 0.40776822394723283
598437500 -0.030940124457789625 0.4075286976259008
598750000 -0.024754031143961852 0.4077394081952939
599062500 -0.018486715696882303 0.4077023394882975
599375000 -0.01240050855025865 0.4073878223887679
599687500 -0.006336825166771075 0.40729254580058055
600000000 0.000325010322594539 0.40786084786327886
600312500 0.00620049655651292 0.4071656848362743
600625000 0.012232816031367897 0.4069585544231239
600937500 0.01881038497200439 0.40650093719256186
601250000 0.02448672116581687 0.40621072710780526
601562500 0.030833297735715026 0.40602540926419334
601875000 0.03749550901409641 0.4055539749515718
602187500 0.04355639879769964 0.4053560372473096
602500000 0.049741350614924906 0.4047786793529328
602812500 0.05595591122836332 0.4045751336242181
603125000 0.062022413962008444 0.4038925045676042
603437500 0.06849929506646084 0.4035825930475789
603750000 0.07433534831281831 0.40316620746490095
604062500 0.08106439315510762 0.40246022732138464
604375000 0.08693941214212057 0.4019052061040446
604687500 0.0930213779391469 0.4013542722624563
605000000 0.0998897265058916 0.4004757231359635
605312500 0.10648681483215287 0.40005782903546305
605625000 0.11286241712934146 0.3992071075922363
605937500 0.1191225420466738 0.3982636141159838
606250000 0.12605354769206567 0.3968309089455261
606562500 0.1324155412636123 0.3959951196278244
606875000 0.13898847407896425 0.39497627150491166
607187500 0.1456677210995271 0.3938352063437045
607500000 0.15253207671031507 0.39258178345525185
607812500 0.15895088556986534 0.3908163725747852
608125000 0.16556969629751264 0.3889303989904507
608437500 0.17254793539666732 0.38694855449441934
608750000 0.17855486289786926 0.38552761562360277
609062500 0.18490832647614322 0.3836827538803692
609375000 0.19110719944943338 0.38174267661776506
609687500 0.19754488967730105 0.3798469417035933
610000000 0.20413436760198225 0.37751136151686987
610312500 0.20982603095138117 0.3753835293590556
610625000 0.21621075525160033 0.3731312111462773
610937500 0.22243605586671872 0.3710394618239785
611250000 0.228757803075691 0.36869618725764913
611562500 0.2345621796459295 0.36624173081472694
611875000 0.240559355494719 0.3639430824991666
612187500 0.24694320708388476 0.3615378554015446
612500000 0.25302384667526867 0.3590194282451907
612812500 0.2586635798576586 0.35636936117994517
613125000 0.26498774739778236 0.3537148321405078
613437500 0.2712743492784271 0.3510492479987142
613750000 0.2768132452972607 0.349245844713133
614062500 0.2829423833362436 0.346245787981228
614375000 0.28880046615039756 0.3441058852708357
614687500 0.2953041095420753 0.34116503166912443
615000000 0.30115568113498087 0.33858913153194276
615312500 0.3070337099399379 0.3358377672841501
615625000 0.3133375460974775 0.33305983162375985
615937500 0.3192632723904769 0.3300961122246739
616250000 0.3253517673713804 0.32705631404108926
616562500 0.3311675837655051 0.3240312295695111
616875000 0.33721502542829224 0.3210037064467092
617187500 0.34310840033524287 0.31765167811472644
617500000 0.348773715037003 0.31465632622418005
617812500 0.35500417016883756 0.31086225802536854
618125000 0.36060834161797506 0.30748317911198814
618437500 0.3671017807279775 0.3035652224095241
618750000 0.37252223596174494 0.3003032828994335
619062500 0.3780937809126532 0.29692234003509876
619375000 0.383468358641271 0.2937123381965802
619687500 0.38906196206680344 0.29015009196513203
620000000 0.3946850523029941 0.28622343927164107
620312500 0.4003117359422264 0.28203491842955913
620625000 0.405518218183102 0.27851768089111767
620937500 0.41075591220831725 0.2746965971884623
621250000 0.4161268914814304 0.2705668378058472
621562500 0.42155032486575555 0.2667002778413051
621875000 0.4264269165364645 0.2623946846772221
622187500 0.43175295339653585 0.2580334912942637
622500000 0.4366686926145713 0.2537523925281059
622812500 0.44171007644050847 0.24922200535468672
623125000 0.446244059470156 0.24493919648772564
623437500 0.45145814254975436 0.24004055785823503
623750000 0.4558891166524308 0.235823821488058
624062500 0.460342706522534 0.23107535943110885
624375000 0.4648440157974086 0.22644462137124083
624687500 0.4694082952738295 0.22150262028275308
625000000 0.47421888890953345 0.21662619845906259
