# HZ S RI R 50
500000000 -0.8886208680878721 -0.055450381783607436
500312500 -0.8882703599570211 -0.05228531903279712
500625000 -0.8878921102074703 -0.04887993740002776
500937500 -0.8877788871739641 -0.04516064935968824
501250000 -0.8873064614541459 -0.04197262190546239
501562500 -0.8867771043597898 -0.03933696778973508
501875000 -0.8863986088056717 -0.03608327788064509
502187500 -0.8860765888839991 -0.032342002543034265
502500000 -0.8861601113048664 -0.028214304949319202
502812500 -0.885517686954061 -0.025199851374499434
503125000 -0.8851798378682563 -0.021867213029284974
503437500 -0.8847436789628289 -0.018207987916826956
503750000 -0.8844578766495621 -0.014589519364319722
504062500 -0.8844074415793615 -0.010834768983912235
504375000 -0.883644751347067 -0.007561927956514
504687500 -0.8829652236075438 -0.0034165330117470133
505000000 -0.8824403177902665 0.00022095729318265928
505312500 -0.8823821377964989 0.0033994150744310054
505625000 -0.8813640602414587 0.0057066311861344796
505937500 -0.8807613071909919 0.009749250741517905
506250000 -0.8800681265365259 0.013768012465892421
506562500 -0.8799754693427421 0.01598521342017179
506875000 -0.8789815659853646 0.02005250610301231
507187500 -0.8784078238440745 0.023542119792438417
507500000 -0.8780018064186319 0.02711862257107765
507812500 -0.8776202600851744 0.03126273144377745
508125000 -0.8769400217329206 0.033902529722524576
508437500 -0.8757217938810765 0.03790660921471819
508750000 -0.8749081545627129 0.041792519291284885
509062500 -0.8745659731885087 0.04542939469773824
509375000 -0.8736339990942222 0.048930650380789364
509687500 -0.8731611190776065 0.05205427200867284
510000000 -0.8721507465295756 0.055773835528265196
510312500 -0.8711560595418804 0.059215588911859525
510625000 -0.8704081201499634 0.06301986887651168
510937500 -0.8695332561621238 0.06687921914743883
511250000 -0.868762816953884 0.0700953744124305
511562500 -0.8677598012179226 0.07419931667221671
511875000 -0.8669980774541811 0.07836092355755005
512187500 -0.8660321470443677 0.08134045353959775
512500000 -0.8651198339892434 0.08542880699859096
512812500 -0.864349236155333 0.08856103056483584
513125000 -0.8634007496062054 0.09232390795037718
513437500 -0.8621724150884998 0.09571680485642425
513750000 -0.8609696635266744 0.09935890717899139
514062500 -0.8598582297387706 0.10268813035053319
514375000 -0.8587168277188751 0.10659220320393871
514687500 -0.8579350057295029 0.10997594839273543
515000000 -0.8568721464748248 0.11423450259306833
515312500 -0.8554898422164133 0.11844241674848296
515625000 -0.8541671270819707 0.12184156098235033
515937500 -0.8532736154564716 0.1253898522732353
516250000 -0.8517612075638807 0.12937510395464402
516562500 -0.85063173123806 0.13260113767057768
516875000 -0.849524530466638 0.13636143472345125
517187500 -0.8480059373034253 0.14032049162367102
517500000 -0.846560060087936 0.1444571364568154
517812500 -0.8453485217895448 0.14833562245256424
518125000 -0.8442205870036096 0.15149709542080608
518437500 -0.8430464785736017 0.15555098103497056
518750000 -0.8411767613678576 0.15944619865591686
519062500 -0.8400089153280015 0.16295237008972935
519375000 -0.8388670418208342 0.1653439347925694
519687500 -0.8373478401618094 0.1695660583304619
520000000 -0.8353529531541016 0.17397360935574666
520312500 -0.8339178588378682 0.17778168505271125
520625000 -0.832305421501254 0.18250111227695184
520937500 -0.8311231400771841 0.18558736180466226
521250000 -0.8291745102901463 0.1900487242228386
521562500 -0.82748581487388 0.19267594585407893
521875000 -0.8255816812261833 0.1964167997721605
522187500 -0.8240339598387566 0.20096008689673223
522500000 -0.8221406470221858 0.20492874679328082
522812500 -0.8206220464032333 0.20854994383769
523125000 -0.8189111921964567 0.21233223867224849
523437500 -0.8166917212325322 0.2156093518008857
523750000 -0.8152287508332171 0.2194680784299612
524062500 -0.8135722334375197 0.22321308820906235
524375000 -0.812032457934497 0.2270078661149121
524687500 -0.8097985711965436 0.23047052853921515
525000000 -0.8073619177207207 0.23419431377767724
525312500 -0.8055824967589114 0.2379773760525364
525625000 -0.803853894389304 0.24131702740833988
525937500 -0.8021524657079537 0.24561040785616584
526250000 -0.7997171446321749 0.2500466148137473
526562500 -0.7973552713543766 0.25355763015538213
526875000 -0.7957250840253581 0.25778092446501566
527187500 -0.7936180993805365 0.26133526518935396
527500000 -0.7913076019233776 0.2653869339486016
527812500 -0.7892161121725094 0.26810401069066014
528125000 -0.786417639115717 0.2734511897462348
528437500 -0.7845338989932447 0.2757210175515072
528750000 -0.7817298447971991 0.28102390261843285
529062500 -0.7795061709075796 0.2844232428379638
529375000 -0.7768763744424845 0.2886158010606947
529687500 -0.7749262967276193 0.2919939970145786
530000000 -0.7722633582188074 0.29539579996271126
530312500 -0.7697217294968132 0.2997453689728352
530625000 -0.7669610531271728 0.30322590101227015
530937500 -0.7647917929284713 0.3070710444540937
531250000 -0.7619075492709426 0.3109792736958292
531562500 -0.7594932078945653 0.31397359358940435
531875000 -0.7567606586613369 0.3181776665730937
532187500 -0.7540523549734777 0.32195006930356945
532500000 -0.7515596233052002 0.32609346846382853
532812500 -0.7485073950117525 0.3293866558694318
533125000 -0.7456014929636632 0.332823403361259
533437500 -0.7433544515449496 0.3371222472672422
533750000 -0.740779735544932 0.34072177238880513
534062500 -0.7379979559485242 0.34406930184304146
534375000 -0.7352248463754885 0.3475257705756833
534687500 -0.7318218790181374 0.35137309987658966
535000000 -0.7287641525839945 0.35537906540074105
535312500 -0.7253538765561928 0.35908236018539014
535625000 -0.7220874284149769 0.36282521491830194
535937500 -0.7185351465313994 0.36730395595638254
536250000 -0.7162214416948672 0.37021082316164544
536562500 -0.7126299040390122 0.3743305697086925
536875000 -0.7100715493174641 0.37659095503881856
537187500 -0.7063290424252184 0.3805909856633153
537500000 -0.7029339494755096 0.3842661723013056
537812500 -0.6994239879100761 0.3885542009117979
538125000 -0.6962760175862736 0.39154050710859073
538437500 -0.6928024842004985 0.39514681247793415
538750000 -0.6895074016001644 0.39891887373133644
539062500 -0.6865135347426248 0.4025307109347243
539375000 -0.6826935358562523 0.40602183969463346
539687500 -0.6791350396078262 0.40904152028879787
540000000 -0.6756595170227824 0.41269061089839654
540312500 -0.671941353938419 0.41608914351519377
540625000 -0.6674111698859013 0.41909335138179543
540937500 -0.6637021534543767 0.42301914351945946
541250000 -0.66024449474045 0.42470201902692867
541562500 -0.6561398994149792 0.4286705145980496
541875000 -0.652606225188764 0.43261991031173497
542187500 -0.6479637248218006 0.43577909398150566
542500000 -0.6443991220058939 0.4392923170403761
542812500 -0.6412639037438908 0.4421286854124516
543125000 -0.6371482847020374 0.44527409556405695
543437500 -0.6328421365563691 0.4487593660905938
543750000 -0.628295603274937 0.4521033496245824
544062500 -0.6243460035128643 0.4547323347793342
544375000 -0.6206938798363208 0.4575515541250787
544687500 -0.6165317718893415 0.4612430667079534
545000000 -0.6119227318969889 0.46413104818037726
545312500 -0.6077422576058269 0.46707512147162444
545625000 -0.6035085900687084 0.46993069259805914
545937500 -0.5993539992760359 0.47332021045430445
546250000 -0.5956252200705237 0.47556328549062704
546562500 -0.5907517975633562 0.4785873628698958
546875000 -0.5861093170705239 0.4817239400346428
547187500 -0.5816712034681998 0.48458654156274616
547500000 -0.5769871080274578 0.48762921813779864
547812500 -0.5718904139029632 0.490865719926205
548125000 -0.5680527683012981 0.49270258847307247
548437500 -0.5631147839099809 0.49559675698232025
548750000 -0.558009972225842 0.4985747656548017
549062500 -0.55402972505371 0.5002144186250947
549375000 -0.5493073640442829 0.5028247761374169
549687500 -0.5449198738001745 0.5048568768562756
550000000 -0.5399240854833768 0.5074042626483533
550312500 -0.5352050497878155 0.5099509334323267
550625000 -0.5300188484730851 0.5124394563060558
550937500 -0.5256395867636104 0.5143316680072397
551250000 -0.520670895746827 0.5162481452315782
551562500 -0.5157050029073205 0.5185859930293104
551875000 -0.5108678582627223 0.5206221422354482
552187500 -0.506353486127966 0.5225870368215028
552500000 -0.5013728492950442 0.524187906982558
552812500 -0.49641831998442615 0.5267343143492458
553125000 -0.49193675188242686 0.5286213065105047
553437500 -0.4877597679497 0.5303039132319514
553750000 -0.4825055741918649 0.531708078027074
554062500 -0.4778049581258151 0.5335606362836708
554375000 -0.4727228903451504 0.5350290807945154
554687500 -0.4674025549311172 0.5377347891621688
555000000 -0.46322098220570607 0.5387557414619802
555312500 -0.45833296177548594 0.5402022152104549
555625000 -0.45380370260735775 0.5417023838020953
555937500 -0.44944595711961444 0.543479833803503
556250000 -0.4446963872489527 0.5446188587249826
556562500 -0.4399458969211486 0.5460210788125193
556875000 -0.4358024863996787 0.5475961347458447
557187500 -0.4312912486784233 0.5494525590013442
557500000 -0.4268344993698622 0.5499634749253537
557812500 -0.4222121161483919 0.5512337046093826
558125000 -0.417256956522265 0.5532228317108626
558437500 -0.4135495994893477 0.5546069307347163
558750000 -0.4090413612134726 0.5560568749654713
559062500 -0.4048727618487053 0.5572863167575383
559375000 -0.39966403449003157 0.5591788578887971
559687500 -0.3958256661229386 0.5611771030842614
560000000 -0.39106151644538323 0.5627359578382025
560312500 -0.3866785616665783 0.5640636918974634
560625000 -0.3821654287979347 0.5656940060832821
560937500 -0.37787610721192844 0.5676755107110184
561250000 -0.3739315675656259 0.5688537198506445
561562500 -0.3688476025349413 0.5707687392796393
561875000 -0.36411863357921426 0.5725443102578847
562187500 -0.35842170249634747 0.5748418773152211
562500000 -0.3540255889612687 0.5762748737146731
562812500 -0.3493488515616563 0.5782643414919252
563125000 -0.3445860341959275 0.5802293053377057
563437500 -0.3397457242453335 0.5816544965138707
563750000 -0.33487562658634845 0.5831635766512269
564062500 -0.3301018662724324 0.584602855492759
564375000 -0.3246117741240625 0.5865560094195641
564687500 -0.3200360933734384 0.5881539267752697
565000000 -0.3149988753251256 0.589735069525313
565312500 -0.3095737104946539 0.5912621921178107
565625000 -0.3039188657377207 0.5928974666702678
565937500 -0.29863849845868257 0.5948804717565512
566250000 -0.2936523585795967 0.5961698439867014
566562500 -0.28863507621826157 0.5976685591382904
566875000 -0.2823695237691597 0.5999686821997924
567187500 -0.2767779123564238 0.6015315591110868
567500000 -0.27143404484222583 0.6034335756092385
567812500 -0.26603694675610884 0.604401775289445
568125000 -0.2603467450800585 0.6057333504478458
568437500 -0.2544236977005945 0.6072395910030788
568750000 -0.24867791622219867 0.6084704037721753
569062500 -0.24268956742029546 0.6098592839179434
569375000 -0.2364279444598647 0.6111639068117698
569687500 -0.23045055084874067 0.6125699134344267
570000000 -0.22442546298352836 0.6138026717258384
570312500 -0.21818208146344362 0.6146946233031322
570625000 -0.2125871880265518 0.6158600664331375
570937500 -0.20583992781025132 0.6170828395359264
571250000 -0.1996650720061368 0.6182220195168268
571562500 -0.1934383340972148 0.6188319220146394
571875000 -0.18703644095072627 0.6194440899870903
572187500 -0.18015506802351133 0.6207035245819645
572500000 -0.17368442478038537 0.6212364119666205
572812500 -0.16742942327067611 0.6218268509637446
573125000 -0.16096979040137183 0.6225342518467005
573437500 -0.1534564012511201 0.6235251358059426
573750000 -0.1475248587594318 0.624049243191726
574062500 -0.14064806439933727 0.6242279449931131
574375000 -0.13403347289846287 0.6245877837070933
574687500 -0.12701627569131824 0.6248755974761873
575000000 -0.12013238712802819 0.6250294281494514
575312500 -0.11320429636243506 0.6248092803170293
575625000 -0.10631574588565326 0.6249225298648143
575937500 -0.09897850179873412 0.6248229814435082
576250000 -0.09208508940038923 0.624737692453777
576562500 -0.08484311770781586 0.6241518179170946
576875000 -0.07772385820810063 0.6239890526259956
577187500 -0.070922307579693 0.6231889341080914
577500000 -0.06383200251072328 0.6227549860337422
577812500 -0.05700336745651854 0.6221634349376487
578125000 -0.049489423522230985 0.6211332952186217
578437500 -0.04235229529476348 0.6203361680453577
578750000 -0.03494458510303853 0.6190582790489706
579062500 -0.02818119017895702 0.617971931157761
579375000 -0.021052633724830985 0.6172667340663615
579687500 -0.013564838488234783 0.6159564463572907
580000000 -0.007129408238642124 0.6143445015160252
580312500 0.00039882571197969824 0.6127762891629787
580625000 0.008098916619099632 0.6115866523508466
580937500 0.015827330523658492 0.6096857530822695
581250000 0.02278835338291581 0.6080329188698594
581562500 0.029404809497351435 0.6056909546777464
581875000 0.0367783611658332 0.603794068973444
582187500 0.04357061178313593 0.6019921531109635
582500000 0.05114353037631748 0.599755977864455
582812500 0.05775387113660964 0.5979764607255782
583125000 0.06480709687653044 0.5953999766541991
583437500 0.07227082050368469 0.5933372186447702
583750000 0.07881279514101548 0.5911895829759083
584062500 0.08646606889321518 0.588623460027634
584375000 0.09298514635991863 0.5856634592451823
584687500 0.10004947027447439 0.5834646333144631
585000000 0.1071518804858189 0.5804179554571627
585312500 0.11363034844187105 0.5773461299425523
585625000 0.12090142734052178 0.5744090642040086
585937500 0.12817050702516808 0.5717385836396603
586250000 0.13486170594915187 0.5687367042196365
586562500 0.14133704139325814 0.5656255508712641
586875000 0.147742612278656 0.5627271172920069
587187500 0.15499475685890357 0.5592939966551032
587500000 0.16229247913612782 0.5556050259217706
587812500 0.16812362313189264 0.5519185028944655
588125000 0.17477572856333845 0.548845814774719
588437500 0.18178905594799002 0.5448254991912981
588750000 0.1892308098580384 0.5408241831772242
589062500 0.1952804157895504 0.5370721208512301
589375000 0.20211782786098695 0.5333566497053782
589687500 0.20866963980381525 0.5291242608860666
590000000 0.21435077433536817 0.5253412248121198
590312500 0.22113648397393082 0.5209217997387032
590625000 0.22761700934123774 0.5168737666609426
590937500 0.23427439137390743 0.5127765765028425
591250000 0.24040333102717337 0.5082615085874242
591562500 0.2467599660567771 0.503636378109944
591875000 0.2527296917518609 0.49886037800861704
592187500 0.25918430252329494 0.4941168429420598
592500000 0.2646605012742177 0.48963946087467275
592812500 0.27068268089236264 0.4847340738158647
593125000 0.276538979862547 0.4800543364286678
593437500 0.2826967075240591 0.4750507363900316
593750000 0.2886958143827839 0.4698771320429406
594062500 0.2943265925968982 0.4650778553785396
594375000 0.29992349824141606 0.4595956855618883
594687500 0.3053936456226197 0.4546260703674321
595000000 0.31109528873355924 0.44926243333621463
595312500 0.3169857426875243 0.4440276783451412
595625000 0.3224094133254589 0.4385821779716919
595937500 0.3275161435573225 0.433340330440567
596250000 0.33323761260495793 0.4275366607929764
596562500 0.33842030168757264 0.42221979281214866
596875000 0.3437798163760969 0.4163493173002029
597187500 0.3485832599586883 0.41064250906814576
597500000 0.35411504938708355 0.40459305415842306
597812500 0.3586181783421664 0.39917178434890377
598125000 0.36377822127845166 0.3934303152884024
598437500 0.36883022205273036 0.38770487792127456
598750000 0.3733254832612458 0.3813715340569425
599062500 0.37848663110029485 0.3755585350983234
599375000 0.38324409510609225 0.3693966782504488
599687500 0.3874295640349935 0.36317019488698304
600000000 0.3919600328025625 0.35698461550416555
600312500 0.3963832746385648 0.3508083210583874
600625000 0.40023171092273135 0.3452871338704353
600937500 0.40452928910881525 0.33823934744624296
601250000 0.408887337142987 0.331863251649835
601562500 0.4130696657681384 0.3254964897882441
601875000 0.4170778891443963 0.3189173840632916
602187500 0.42083131522218503 0.3135095041585387
602500000 0.42480925194874086 0.3060794215183133
602812500 0.4288384918809302 0.29940544677598474
603125000 0.43222303098527426 0.29340817992953316
603437500 0.43572425531239806 0.28705038963616636
603750000 0.4394060725473851 0.2806220554797116
604062500 0.4431534097047087 0.27346084017224226
604375000 0.44660167749652896 0.2673117980424486
604687500 0.4499316660954739 0.260723640014781
605000000 0.4529578549692256 0.2543879806508487
605312500 0.45585426606573415 0.2477741621876634
605625000 0.45908016589850104 0.24099765645008664
605937500 0.4628051376352892 0.23421132581298756
606250000 0.4657542935068162 0.227212687211529
606562500 0.468825072199635 0.22045386988293003
606875000 0.4713440220522985 0.2135768711725669
607187500 0.4740985892834576 0.20698606787364432
607500000 0.4771381436144627 0.19970468406062325
607812500 0.47900892203875733 0.19256814442493808
608125000 0.48171613353179676 0.18578647566472076
608437500 0.4843740985313813 0.1788975243997499
608750000 0.4864569763832089 0.17254369789491567
609062500 0.4889682308230189 0.16425130588611075
609375000 0.49129721485362726 0.1588138488563531
609687500 0.49345734621571147 0.150552170379494
610000000 0.4957730969334405 0.14480041402768226
610312500 0.4976163947208035 0.13652755448789228
610625000 0.4995210840404604 0.129995172163054
610937500 0.5010518474533288 0.12268331521843769
611250000 0.5027508038977141 0.11571891963672841
611562500 0.5046764576968495 0.10857094607584694
611875000 0.5062012258454474 0.10138545786981064
612187500 0.5075100644347651 0.09459707597050278
612500000 0.5088285642289457 0.08740376751112497
612812500 0.5098666907153492 0.07968547919684436
613125000 0.5108749950082065 0.07230651089862662
613437500 0.5121869184520483 0.06552343015625287
613750000 0.5129555791908562 0.058670700852029835
614062500 0.5138540546986622 0.050968356189244814
614375000 0.5145759225196154 0.04407081151928198
614687500 0.5153469220524227 0.03641452763008053
615000000 0.5158545003369127 0.030301893886062102
615312500 0.5166038725335076 0.02328283906505717
615625000 0.5169000069935569 0.01645963070847146
615937500 0.5174813928879511 0.009101077802219134
616250000 0.5178248476589057 0.0021400286952258417
616562500 0.518230574076518 -0.004626386451757098
616875000 0.5178104627006164 -0.011957410833080185
617187500 0.5177666947187111 -0.018980131792235427
617500000 0.5185159303668652 -0.025299659360633577
617812500 0.5179141510694246 -0.03245138542653881
618125000 0.5176917371510531 -0.040086266431335046
618437500 0.517668874293104 -0.046512601633123346
618750000 0.5172050324627406 -0.052902081700978876
619062500 0.5171066824619496 -0.05951636266973733
619375000 0.5167382602005532 -0.06613594980177785
619687500 0.515794639836022 -0.07313839094708406
620000000 0.5151941726668094 -0.07993686083351327
620312500 0.5143345160759089 -0.08678424223953045
620625000 0.5141705362587523 -0.0926051701302975
620937500 0.5131661133130917 -0.09927330077798606
621250000 0.5123365646871841 -0.10679903809208915
621562500 0.5112446607071798 -0.11281379702775932
621875000 0.5102000320872608 -0.11863567645450539
622187500 0.5099030898773451 -0.12489115370329049
622500000 0.5088596872860885 -0.13106280032490136
622812500 0.5075718778101507 -0.1380399937111411
623125000 0.505787667213264 -0.14371319443861677
623437500 0.5051764348449752 -0.1500849656100461
623750000 0.5037146270010185 -0.15683050482732114
624062500 0.502125541612859 -0.16308611994859526
624375000 0.5012582092653035 -0.16860058265520073
624687500 0.49952387631339606 -0.17487224125045697
625000000 0.4982448247377073 -0.18072346134124626
625312500 0.4964825321085512 -0.18638971338521026
625625000 0.4952204945982105 -0.19185639565357487
625937500 0.4939238562760666 -0.19809739207863658
