# HZ S RI R 50
700000000 0.07917430370896131 -0.5456194554808319
700244379 0.07809509635091816 -0.5457481865310558
700488758 0.07708722260131194 -0.5452092220259395
700733137 0.07683516907152961 -0.544478293584775
700977517 0.07579583915919097 -0.5435500644668073
701221896 0.07473917392309742 -0.5428748242562348
701466275 0.0739595831588305 -0.5420110044110471
701710654 0.0724801283387994 -0.541211868108006
701955034 0.07240836593254797 -0.5411513983241355
702199413 0.07166495289628548 -0.5399076811470217
702443792 0.069497314782534 -0.5391117686053395
702688172 0.06875824283353976 -0.5383680466880862
702932551 0.06858531708725818 -0.5372219614331872
703176930 0.06677105682700316 -0.5364733490490053
703421309 0.06471453275861729 -0.5359352359066625
703665689 0.06504930108585928 -0.5346192124541005
703910068 0.0636514308324937 -0.5343572566146123
704154447 0.06210669299735511 -0.533189269546284
704398826 0.06213696792788019 -0.5314170736313354
704643206 0.060638179151982316 -0.5307248980888265
704887585 0.05952761255305769 -0.5298547127847534
705131964 0.05872527580012989 -0.5290585345493166
705376344 0.05700893436206325 -0.5280212372843569
705620723 0.05640614335436918 -0.5261140229024596
705865102 0.056120213128401625 -0.5252392215118639
706109481 0.05473154076347473 -0.5241704342902158
706353861 0.053054958491419224 -0.522278596481353
706598240 0.05286130473551527 -0.5215593637138229
706842619 0.051667464028990875 -0.5204383423043254
707086999 0.051313835552155254 -0.5184614560659786
707331378 0.05152282880858782 -0.5171222830682961
707575757 0.04998491521066087 -0.5159285144103858
707820136 0.04819465748443287 -0.5144558637037374
708064516 0.04843398287360495 -0.5131010397149359
708308895 0.047546908815312205 -0.5116875724597892
708553274 0.04602930953372461 -0.5100252420736341
708797653 0.04641862308265707 -0.5090122445728392
709042033 0.0458735758041557 -0.5071123049048714
709286412 0.04505089300183099 -0.5059740950537983
709530791 0.04436126682485546 -0.5045982591069142
709775171 0.04432375740627237 -0.5029190161012005
710019550 0.04437189830035073 -0.5016820463839002
710263929 0.04470618269791185 -0.5011265100995228
710508308 0.04281296114281138 -0.4994255457552352
710752688 0.042378212879794534 -0.498047457643162
710997067 0.04252488042254443 -0.4964726060643293
711241446 0.04251444231545308 -0.49549009102155667
711485826 0.04187334371142842 -0.49441643870376084
711730205 0.041509950368441705 -0.4929609963294792
711974584 0.04169331357681596 -0.4913969211267055
712218963 0.041037107488510825 -0.4905378084427307
712463343 0.040101950213775626 -0.48948719466968216
712707722 0.0408632784314288 -0.4874672901565242
712952101 0.0404909161557616 -0.48683344107775184
713196480 0.040371724343602595 -0.48547641464376085
713440860 0.03993414966190592 -0.48434595377774603
713685239 0.0397844262895649 -0.4834995884796536
713929618 0.03983579713298306 -0.482206469827345
714173998 0.039633498376352494 -0.48060309623377834
714418377 0.038981721844732684 -0.4795373476308182
714662756 0.03878693155509495 -0.4790115843280905
714907135 0.038758972100213854 -0.4777759459465995
715151515 0.03901374511516009 -0.4764416612439464
715395894 0.03862730670867477 -0.4752551088160678
715640273 0.0379985985233548 -0.47441599862181383
715884652 0.037503321127137446 -0.473384343574078
716129032 0.03801530710937158 -0.4726993217274531
716373411 0.03668190244490424 -0.47184523511399873
716617790 0.03661563445957092 -0.4704569213926098
716862170 0.036386098208780554 -0.4695048338746219
717106549 0.036601670233665465 -0.46858018751140107
717350928 0.036043856607884575 -0.4673377165083003
717595307 0.036384229189371856 -0.4664573948252073
717839687 0.03566111633686868 -0.46500258575938624
718084066 0.03533567364473651 -0.46446851022091423
718328445 0.03503773696682416 -0.4634531812044208
718572825 0.03477172542669742 -0.46302291739514023
718817204 0.03465284097822821 -0.4611320645069809
719061583 0.03433675167344652 -0.46051208003398975
719305962 0.03326648724456756 -0.4597671315232992
719550342 0.03277818521539738 -0.45896418681861023
719794721 0.03291461308029918 -0.4578879036226485
720039100 0.03238751326964315 -0.45685642664991566
720283479 0.031197241975359155 -0.4556152280920949
720527859 0.030961807349625586 -0.4552786163467867
720772238 0.0303539173092707 -0.45382660619953824
721016617 0.02987791643763814 -0.45261989557988686
721260997 0.029849191256832316 -0.45228323360188466
721505376 0.02958627719849305 -0.45046475872204755
721749755 0.028314383593031206 -0.4494077848557622
721994134 0.027949348321542777 -0.44890392257565076
722238514 0.02738996023241122 -0.4481129383019997
722482893 0.026445713232367996 -0.4467944015747453
722727272 0.026741519693207927 -0.44632061752348623
722971652 0.026756259968518298 -0.4443363148978583
723216031 0.024545623788378462 -0.4437236234895916
723460410 0.024474623219794572 -0.44281994492234605
723704789 0.023710959892108197 -0.44142203942271924
723949169 0.023135469772790573 -0.4398704081240204
724193548 0.022428610404973848 -0.43925403846399064
724437927 0.02194640674421941 -0.4385028238566981
724682306 0.021531250873454227 -0.4369138639824949
724926686 0.020706758394159974 -0.4362419149848884
725171065 0.02044436712693176 -0.4347730723475852
725415444 0.019189394301236617 -0.43364168137661674
725659824 0.019536660555078383 -0.4325071273166325
725904203 0.01851328181313011 -0.43131982547065706
726148582 0.017875172425075192 -0.43106320136626525
726392961 0.016400414475116448 -0.4298943606882889
726637341 0.01659145952559757 -0.4289090705317587
726881720 0.015828818398548716 -0.4273365730371038
727126099 0.014361542894324675 -0.4260092855524802
727370478 0.013900501422464545 -0.42525562156927554
727614858 0.013557379957111398 -0.42365676562149407
727859237 0.012350817655436747 -0.4222165264843148
728103616 0.011887680888055502 -0.4211772753037383
728347996 0.011154488526190304 -0.41946760235140323
728592375 0.00941391924062035 -0.4191014385359907
728836754 0.008799194278123812 -0.4174564369001562
729081133 0.007987901673733921 -0.41653035046688486
729325513 0.006521928588337084 -0.4153209350983875
729569892 0.005683848180732559 -0.4140006299249946
729814271 0.005421834834701794 -0.41184073824901635
730058651 0.0038762585037704356 -0.41046942418165766
730303030 0.002330281025913372 -0.4093685520752294
730547409 0.0018054572913952793 -0.4078039288159802
730791788 0.00047547824735372224 -0.4064265897641334
731036168 -0.00039789974228413016 -0.4043265617514561
731280547 -0.001494532705417606 -0.4028264353123542
731524926 -0.002535758725982079 -0.4014752514501511
731769305 -0.0032612742058100164 -0.39932742809103233
732013685 -0.004745555249760253 -0.39835449646218707
732258064 -0.0059768269810664965 -0.3964949058529457
732502443 -0.00630196602918856 -0.3940694011631186
732746823 -0.007691328114950519 -0.3927806144281575
732991202 -0.008868774928347423 -0.3908118638989347
733235581 -0.009930561023517276 -0.3884194583883684
733479960 -0.010571893503077051 -0.38722935717901646
733724340 -0.011647917757082099 -0.38496144072396077
733968719 -0.012236730610942076 -0.3829786378425167
734213098 -0.013323727338479446 -0.3807586537087241
734457478 -0.0143293632159254 -0.3788191942657443
734701857 -0.015735251450455068 -0.37746000394018303
734946236 -0.016151918248882846 -0.37478672835616755
735190615 -0.017220540192038197 -0.37338671078776275
735434995 -0.017841824214719304 -0.3708481745816849
735679374 -0.019139972702494373 -0.3692126964996669
735923753 -0.019079459964976286 -0.36665844624212973
736168132 -0.020157951908607558 -0.3645427205423405
736412512 -0.020988703620280907 -0.3627702887263913
736656891 -0.02176943650256502 -0.3603025237883658
736901270 -0.02307294909459634 -0.3582857418985616
737145650 -0.024126048119603588 -0.3561723413972634
737390029 -0.02485306790697986 -0.3536888529308084
737634408 -0.02502219523932614 -0.3507350426962108
737878787 -0.02621547960911852 -0.3490998361837938
738123167 -0.02704907240681409 -0.34671464508428773
738367546 -0.02786781567034463 -0.34411572325473827
738611925 -0.02807160625738242 -0.34189579059365044
738856304 -0.029247391777342924 -0.3402506948904126
739100684 -0.030110008812270384 -0.3369497874327104
739345063 -0.03090639483695387 -0.3351371947482422
739589442 -0.03178057440428636 -0.3323977011513979
739833822 -0.03219786209816583 -0.3297081894129932
740078201 -0.032905564085480316 -0.32762796218697915
740322580 -0.03321498238063983 -0.3253338572322431
740566959 -0.03454216180725425 -0.3227138121661164
740811339 -0.035134986430503695 -0.3202828425207783
741055718 -0.035666710188354545 -0.3177378584584254
741300097 -0.03653242798201109 -0.3150129098458499
741544477 -0.03774060711440083 -0.31243807617315594
741788856 -0.03812355603187284 -0.3098166306383364
742033235 -0.038297621529938514 -0.3070801951820867
742277614 -0.03902740364925836 -0.3043802557547741
742521994 -0.040235358551897665 -0.30258252810648945
742766373 -0.04014275666198691 -0.2984574446890432
743010752 -0.04136695589595735 -0.29576937699808903
743255131 -0.041403219126272026 -0.29336413958277846
743499511 -0.04243911025500452 -0.29012648743931596
743743890 -0.0434078525850176 -0.28720742781969366
743988269 -0.043053414594680775 -0.2847326105569863
744232649 -0.04445456457530611 -0.28173077530044377
744477028 -0.04471384644265079 -0.27834437832675585
744721407 -0.045526834892104615 -0.2757121001527198
744965786 -0.045949608919465104 -0.2724490712017424
745210166 -0.0467439794509297 -0.2688675754082904
745454545 -0.046681266701909946 -0.26581260239910864
745698924 -0.04709121809339463 -0.2624909953053861
745943304 -0.04735409701239421 -0.25935640279554684
746187683 -0.04804632648527009 -0.2559041441072678
746432062 -0.04799934424683819 -0.2523687588428152
746676441 -0.04838187254990184 -0.2485417122062075
746920821 -0.048204588604207635 -0.2454250329608386
747165200 -0.04884505578662607 -0.24206716554215546
747409579 -0.04818595204694068 -0.23874028287680796
747653958 -0.04870845632646101 -0.2360716133966973
747898338 -0.04802633337063829 -0.23214323389476343
748142717 -0.048663248359455305 -0.22827239487047496
748387096 -0.04821020323015798 -0.22511547333458456
748631476 -0.0478716071151359 -0.22128952424035467
748875855 -0.0474534430367468 -0.21796946198914993
749120234 -0.04777171768677489 -0.21468179401827744
749364613 -0.04768649291749717 -0.21090423941811265
749608993 -0.04724676617140425 -0.20721924167061023
749853372 -0.04687058903809446 -0.20366683695181906
750097751 -0.04716855611758555 -0.20039660270686435
750342130 -0.0458724142067001 -0.19707820354227637
750586510 -0.04623182766950628 -0.19293070818154678
750830889 -0.045507070829815074 -0.18962905889840487
751075268 -0.04515369137344934 -0.18613037208631583
751319648 -0.04445853032925001 -0.18213164889986577
751564027 -0.04404629655764794 -0.17802701473596272
751808406 -0.04350282128601355 -0.17456713831869217
752052785 -0.0434792048751157 -0.17072514369857805
752297165 -0.04226190325759941 -0.16666472104443275
752541544 -0.04134913359997923 -0.1629770606745966
752785923 -0.04108792200277222 -0.1587584134789118
753030303 -0.04014071126950412 -0.15462083125790324
753274682 -0.03937085436553218 -0.15110517813458466
753519061 -0.038668514698508245 -0.14733263867021326
753763440 -0.03762237097013645 -0.14338820765655008
754007820 -0.03607262912768129 -0.13901054111280745
754252199 -0.035283878045711925 -0.13533649508766127
754496578 -0.03366685811743402 -0.13064187779491135
754740957 -0.03244371766238761 -0.1273654795255281
754985337 -0.031546389784570715 -0.12304520711702942
755229716 -0.029882046650698598 -0.11901188409050502
755474095 -0.028458523479180244 -0.11497013372056009
755718475 -0.02631791098153618 -0.11069357425797188
755962854 -0.02507309329275845 -0.10626422392086919
756207233 -0.02324616299759478 -0.1028628598408543
756451612 -0.02146998963793596 -0.0986323575225261
756695992 -0.01952627369455089 -0.0945709191300527
756940371 -0.017526076440773346 -0.09098395660901837
757184750 -0.01526398595488394 -0.08652703780766859
757429130 -0.0129576906374534 -0.08284753942402522
757673509 -0.011224607210493676 -0.07934101551882895
757917888 -0.008278972852599004 -0.07492974135870119
758162267 -0.006657732919549946 -0.07114559547137575
758406647 -0.0040859440557784 -0.06785898446729677
758651026 -0.0014467494952180686 -0.0641009232002659
758895405 0.0011733743065645771 -0.060546881301575504
759139784 0.003620995106933509 -0.05728370348863935
759384164 0.006232725683215409 -0.05332956739651201
759628543 0.00860748742042123 -0.04958320203898274
759872922 0.011372280540938987 -0.04687837999708536
760117302 0.014997994528178052 -0.04282740448892285
760361681 0.017496468028909425 -0.03983290249896074
760606060 0.020087708172764784 -0.037171416325187244
760850439 0.02329821869887269 -0.034097371343728214
761094819 0.026095166863968924 -0.03059101862575162
761339198 0.029045453351611406 -0.02789119598607176
761583577 0.03242668415704729 -0.024663648794138147
761827956 0.03527634911112327 -0.022131776360373404
762072336 0.037951564573361914 -0.018883785752609992
762316715 0.0409658022526836 -0.015679650873071303
762561094 0.043704320958733126 -0.012908112020954366
762805474 0.04711229514946341 -0.009910221734893268
763049853 0.05013257222016449 -0.006992238248373977
763294232 0.05356903126802764 -0.003935071910707326
763538611 0.056662023264434286 -0.0010689869826668655
763782991 0.060048222380714195 0.0018020387209548086
764027370 0.06302458331963771 0.004245175033703023
764271749 0.06673785448052873 0.0074371464484724314
764516129 0.07001029565499665 0.009497284941990727
764760508 0.0738855307263451 0.012834594588951934
765004887 0.0772764267844768 0.015159081977397383
765249266 0.08085489202833322 0.017790833648934534
765493646 0.08429751300642374 0.01992509984179701
765738025 0.08794881507139266 0.022144235299139333
765982404 0.09164692026515055 0.024224985148246836
766226783 0.09550911504923315 0.026810675362587934
766471163 0.09920526941148229 0.028569173644526605
766715542 0.10309036816762439 0.03036101392024931
766959921 0.1062413007756821 0.032468620314485094
767204301 0.10989669339349534 0.034750412416922546
767448680 0.11341406012820844 0.03636244905477027
767693059 0.11724811758135115 0.03825062308389238
767937438 0.12069091992853345 0.04003966275073607
768181818 0.12441843894789753 0.04175737632031108
768426197 0.12783479167651282 0.04319926192118961
768670576 0.1315968049086694 0.045457728580345406
768914956 0.13468978641011062 0.04654694813123561
769159335 0.13901041417268467 0.04794163659163358
769403714 0.14234747739539177 0.04924672188390034
769648093 0.14552243764133493 0.051175959122614766
769892473 0.14895695469477194 0.052230725048473536
770136852 0.15276443265630263 0.05369758223856303
770381231 0.15646226746788303 0.05499793831272791
770625610 0.15970092129845367 0.05602697377058995
770869990 0.16292044484411358 0.05700095697027452
771114369 0.16620627208925837 0.05872842870711166
771358748 0.16975890189692797 0.05978536094463516
771603128 0.17308301757659006 0.06071388648846897
771847507 0.17620525210091043 0.061882150301137806
772091886 0.1796599201956189 0.0634318798990138
772336265 0.18269112229571183 0.06420257742975578
772580645 0.18590942593190335 0.0660058692871798
772825024 0.1897731224325775 0.06679318917257965
773069403 0.19315356470716255 0.06861547108797038
773313782 0.19598198119907023 0.06960889060685119
773558162 0.19971849008494869 0.07069019278860947
773802541 0.20336438125000336 0.07174659772390567
774046920 0.20644058886752198 0.0735073282223522
774291300 0.20990781187108068 0.07386449458380048
774535679 0.213072582854094 0.0752988520381335
774780058 0.21665276213498116 0.07644196257585473
775024437 0.22015642979430108 0.0778067589819604
775268817 0.2237129030841058 0.07895550635206616
775513196 0.22780955352459478 0.0797258833492306
775757575 0.23064431772964772 0.08041255442267915
776001955 0.23421712196269076 0.08140592277017988
776246334 0.23801608909431382 0.0830795199742952
776490713 0.24143359899174485 0.08371716314809285
776735092 0.24566891802257018 0.08436134421928278
776979472 0.24939076954796402 0.0855422862541628
777223851 0.2527334367932578 0.08591577599710344
777468230 0.2566305269345352 0.08723242231851758
777712609 0.2603848925530477 0.0880588824768227
777956989 0.26416859087666994 0.08867526531770469
778201368 0.2684203761027205 0.08936043385189313
778445747 0.27164896640300396 0.08991054232512405
778690127 0.27595275425131255 0.09157139139184056
778934506 0.27979794847579875 0.0920912550879862
779178885 0.2839337153410353 0.0916860869309655
779423264 0.28788232200677577 0.09256628810763584
779667644 0.2923315014710149 0.09246140050513997
779912023 0.2958172707550261 0.09223544700131267
780156402 0.29998841478472943 0.09319513759813956
780400782 0.30463228278680304 0.093507332203948
780645161 0.3084871753702374 0.09319432407177952
780889540 0.3128319087259214 0.0942678587026404
781133919 0.3166074232173829 0.09392062509591685
781378299 0.3210495637444086 0.09281838598072517
781622678 0.3252634793072106 0.09289069637938766
781867057 0.3287626598282082 0.09264424268812715
782111436 0.3326721656856458 0.0919928017377207
782355816 0.33699249017412264 0.09215024650412558
782600195 0.34108405728588576 0.09140344238007352
782844574 0.3453956554614192 0.09062203206994363
783088954 0.34801573235377553 0.09080348498070426
783333333 0.3532452072867537 0.09059606149531925
783577712 0.35670219955968085 0.08872287892531962
783822091 0.35989182514912327 0.0880492802968598
784066471 0.3641661404203629 0.08799079604463608
784310850 0.3679520059485461 0.08706506962011032
784555229 0.37154373805589963 0.08639423376312151
784799608 0.3761848612757798 0.08606077420934632
785043988 0.37808341194581524 0.08641306155083357
785288367 0.38320564912568167 0.08369573742206554
785532746 0.3874043020149033 0.0823757695911109
785777126 0.39026409405733664 0.08239540707012062
786021505 0.39417007392664377 0.08139717492434322
786265884 0.39837046621416233 0.08037275583574036
786510263 0.4016514792010531 0.07949034478143475
786754643 0.4056348275288181 0.07723928966197341
786999022 0.409362817464564 0.07657702530312795
787243401 0.4129462568797834 0.07528987145553687
787487781 0.41666379573477413 0.0742144063169345
787732160 0.4207613315400949 0.07240654815547162
787976539 0.42445400795505267 0.07155576065198391
788220918 0.4276707408572295 0.07034040982140848
788465298 0.43147896749835796 0.06786304191211513
788709677 0.43517110917316687 0.06675989007459904
788954056 0.4387709897975904 0.06520451664316236
789198435 0.44232832726420723 0.06372846043768375
789442815 0.44586350769777 0.062217430716399
789687194 0.4491421025498338 0.06012231664564712
789931573 0.4531664628873636 0.058183501943052204
790175953 0.4561300332529866 0.05614339668547825
790420332 0.45954385085992017 0.05483776127138133
790664711 0.4625932698207269 0.05268643540298907
790909090 0.4658535652185314 0.050515833126097226
791153470 0.46945644692402033 0.04873059980379819
791397849 0.47241791485427104 0.04673922045970772
791642228 0.47534420317146325 0.04467371641240637
791886608 0.47877261493020373 0.04212853772308758
792130987 0.4818473798749922 0.039813755007172255
792375366 0.48458529409713125 0.03798953360592422
792619745 0.4879961878221439 0.035974022757490134
792864125 0.4905190941400536 0.0332723221731613
793108504 0.49329430394578805 0.03120591401169963
793352883 0.4963136437256636 0.028901556650827956
793597262 0.4999329380834629 0.026346160703671434
793841642 0.5030990322866651 0.024858767247889435
794086021 0.5049625036275834 0.022123367037094846
794330400 0.507603702809417 0.01910013195003192
794574780 0.5107924839111693 0.016865403311535646
794819159 0.5135705242631121 0.014120895493941299
795063538 0.5162203816500263 0.011459795043384513
795307917 0.519901346062131 0.009437027852343405
795552297 0.5221637049442379 0.006561294226479608
795796676 0.523819822149289 0.0030953715227089174
