# HZ S RI R 50
700000000 0.5270015411462843 -0.5244370259861275
700293255 0.525548304395608 -0.5270306203949233
700586510 0.5250578398673108 -0.5298428335406085
700879765 0.5227147976914892 -0.5321861453874598
701173020 0.5224067614833662 -0.533676699963192
701466275 0.5210917728579857 -0.5358694356040261
701759530 0.5191144098810154 -0.5385642843782557
702052785 0.5181237611623507 -0.5411771895902137
702346040 0.5183724810629796 -0.5415756008664724
702639295 0.5163569307551908 -0.5438762441581779
702932550 0.5156796674102105 -0.5462037237785968
703225805 0.5138446040712742 -0.5488501987111856
703519060 0.5140942172567187 -0.5498807721806194
703812315 0.5110464847097655 -0.5527680874390298
704105570 0.5106965463280253 -0.553535486296388
704398825 0.5085915319900385 -0.5567475390555228
704692080 0.5079345288314384 -0.5583377062038937
704985335 0.5074093949103547 -0.5614794277778931
705278590 0.5048254325447747 -0.5625661857886706
705571845 0.5028323693936739 -0.5645960636882159
705865100 0.5016087023025164 -0.5663296482989844
706158355 0.49978426517663943 -0.5680292209625567
706451610 0.49856787915912526 -0.5694009237654745
706744865 0.496887351816792 -0.5719434673111152
707038120 0.4954398791629906 -0.5739936686175847
707331375 0.49402884458762275 -0.5758498236898453
707624630 0.49234292825157916 -0.5774460914760251
707917885 0.49105732630161614 -0.5790920703457054
708211140 0.4904933806490451 -0.5804214780682794
708504395 0.4882605841692916 -0.5825955387867972
708797650 0.4873467531104481 -0.5840888118816329
709090905 0.48638672681189593 -0.5857284498263271
709384160 0.48434912274213754 -0.5871151471115469
709677415 0.48194831754577466 -0.5896150501215583
709970670 0.4809589604155879 -0.590817774858053
710263925 0.4805007244766472 -0.5909664497453991
710557180 0.4784310232074515 -0.5948390095778825
710850435 0.47700086593401675 -0.5951550026406461
711143690 0.47531262229806465 -0.5966316532069992
711436945 0.47369151164635964 -0.598978798145294
711730200 0.47177030081544225 -0.6011217617516623
712023455 0.47041507125351084 -0.6016034877966682
712316710 0.4682509288262383 -0.6038868507052317
712609965 0.46765413826319435 -0.6056516021541973
712903220 0.46652603697036604 -0.6074751165499652
713196475 0.4643903929440343 -0.6087314184240611
713489730 0.46271628351885347 -0.6103981522535756
713782985 0.46154073561851794 -0.6123500122971627
714076240 0.45983548946186964 -0.6131645751491732
714369495 0.4575815597751103 -0.6147518176676335
714662750 0.45683238654156544 -0.6162800333248668
714956005 0.4562934854339917 -0.6175723790549549
715249260 0.45335372433746385 -0.6197409247034872
715542515 0.45213672869044086 -0.6209733689632996
715835770 0.4502736403773928 -0.6225749004907629
716129025 0.44823760055052536 -0.6246501218509919
716422280 0.446352015368038 -0.6255863985046877
716715535 0.44585540975593496 -0.6267360854871968
717008790 0.44313248300518454 -0.6288705322233198
717302045 0.4429294449314241 -0.6292454348357841
717595300 0.4399719666462338 -0.6321374664320888
717888555 0.4392966897706901 -0.6317921708224078
718181810 0.43763246382942456 -0.6340467137268412
718475065 0.43594763345618276 -0.6344851406727592
718768320 0.434332035620172 -0.6373066748321808
719061575 0.4329419672155634 -0.6375497575969947
719354830 0.4306820876658408 -0.6390785942334852
719648085 0.42903853768701206 -0.6401728094234092
719941340 0.427242313169683 -0.6424821415755798
720234595 0.4254154837057271 -0.6433543143196936
720527850 0.4240672990614397 -0.644445480830018
720821105 0.42188554186601807 -0.6444879053247784
721114360 0.42007802383949305 -0.6468418601309012
721407615 0.4192190929980492 -0.6477070061598751
721700870 0.4167936429760931 -0.6484860314789133
721994125 0.41558990251655514 -0.6500466358440024
722287380 0.41384225123575946 -0.6511318305292204
722580635 0.4124145818554314 -0.6516846231761733
722873890 0.4104100084895423 -0.6523301633569989
723167145 0.40887575755339006 -0.6539559449974623
723460400 0.4073875358095302 -0.6547905185494809
723753655 0.40580554504087424 -0.6553349936243704
724046910 0.40350413535431257 -0.6572825723673067
724340165 0.40235287697536753 -0.6575992289485579
724633420 0.401159246421296 -0.6587541114933138
724926675 0.3984557676561426 -0.660214247135601
725219930 0.3971599784165176 -0.6611573643542918
725513185 0.39614383198837333 -0.6619598206442889
725806440 0.39217466474352713 -0.6635112290150584
726099695 0.3929308722931208 -0.6644319200866106
726392950 0.3908368203625868 -0.6654763681821331
726686205 0.3886799900960843 -0.6669107091447277
726979460 0.3865507274000201 -0.6682168766226433
727272715 0.38667936438370226 -0.6693876814860046
727565970 0.38495549272011875 -0.6687197755646358
727859225 0.38255013931481213 -0.6703142706821664
728152480 0.3808872640337755 -0.6722644402343686
728445735 0.3790460826525495 -0.6735936108629955
728738990 0.37737922381995626 -0.6743392316188049
729032245 0.3758622758460655 -0.6758789881601239
729325500 0.3743340288698217 -0.6763893596055572
729618755 0.3723760998796964 -0.677508936332967
729912010 0.37116490386293205 -0.678129868055089
730205265 0.36876318143168485 -0.6790369679075299
730498520 0.3660294844162849 -0.6808016532182207
730791775 0.365801914249221 -0.6804597070156143
731085030 0.36375285536456664 -0.6810958917139809
731378285 0.36213703605944203 -0.6819115503067246
731671540 0.35996572099293245 -0.6828197610139112
731964795 0.3589872136659315 -0.6832876015319925
732258050 0.3560803521044235 -0.6846196407201456
732551305 0.35362742889643256 -0.6859506576450749
732844560 0.3521357920928197 -0.6859847137456399
733137815 0.3509792326800854 -0.6860040109460099
733431070 0.348661937258959 -0.6874581811022906
733724325 0.3482338159266412 -0.6876621402463288
734017580 0.3446803184552435 -0.6895978602943911
734310835 0.3436227004353647 -0.689008761420178
734604090 0.34156210183506885 -0.6894865337731453
734897345 0.3386053676912764 -0.6911609709898096
735190600 0.33695563781967885 -0.6913830140935192
735483855 0.3366646509236958 -0.6914372269693595
735777110 0.3335553288035279 -0.6913695734240312
736070365 0.3324425813675171 -0.6919470633044069
736363620 0.33065644347277673 -0.6921190412788996
736656875 0.32954557477998386 -0.6930081375269902
736950130 0.32711585014877487 -0.6918798539364858
737243385 0.3258407835468751 -0.6916705314558318
737536640 0.32423737690135246 -0.6912506273594891
737829895 0.3232366737810703 -0.6907511782723755
738123150 0.321051838149371 -0.6927955274205829
738416405 0.31999319551979677 -0.6918564273690534
738709660 0.3187585702013241 -0.6928011124785859
739002915 0.316905894949048 -0.6924964823702905
739296170 0.3158710065851177 -0.6927194513658272
739589425 0.31406416787024005 -0.6927586550909747
739882680 0.31129737855180706 -0.6929092060735488
740175935 0.30901410580119626 -0.6953830259481802
740469190 0.30890277200496746 -0.6942967639513681
740762445 0.30745239930416474 -0.693850394703757
741055700 0.3048925682213302 -0.6957950634305078
741348955 0.30339534253090056 -0.6965390652240397
741642210 0.3019624203405948 -0.6981220544353879
741935465 0.3000831451067495 -0.6989541926043795
742228720 0.29904412939470937 -0.6974145324997777
742521975 0.29785411693727437 -0.6980234487509684
742815230 0.2956927065909093 -0.7007951664230366
743108485 0.2944387740177486 -0.7005115541095208
743401740 0.29234721181183754 -0.7012506494218823
743694995 0.29053688613878714 -0.702161599046849
743988250 0.2894388647332615 -0.7023092673336057
744281505 0.28819244834378904 -0.7031839034182197
744574760 0.287660630657968 -0.7029788465517739
744868015 0.28487615704343255 -0.7033974714386383
745161270 0.28487084614904723 -0.7036079067793808
745454525 0.28154772955707025 -0.7045720811475654
745747780 0.28025547106981846 -0.7043371510461048
746041035 0.27938358271736735 -0.7038503909853341
746334290 0.27795064285837195 -0.7044796072270236
746627545 0.2766254496826396 -0.7042764384801734
746920800 0.2744906852982364 -0.7051542516058094
747214055 0.2734885826698208 -0.7052356563900926
747507310 0.2725349705870242 -0.7056654056116707
747800565 0.27061138421042674 -0.7058835219882934
748093820 0.26833756524458025 -0.7059862144924618
748387075 0.26703623038457386 -0.7074085031386934
748680330 0.2654981695243271 -0.7077641494070734
748973585 0.26454859244610285 -0.7070629293916141
749266840 0.26380503159786517 -0.7069591112718779
749560095 0.2630747944003022 -0.7072601719953195
749853350 0.26031271390977756 -0.7074058330554267
750146605 0.25776624317347285 -0.7077412732768356
750439860 0.2584212189988445 -0.7077448923048605
750733115 0.25527312369556854 -0.7083292395311425
751026370 0.2538229685408975 -0.7083041988710874
751319625 0.2520711815416498 -0.7090584217467875
751612880 0.250922593703824 -0.7087410573032296
751906135 0.24840050144776613 -0.7097541731500363
752199390 0.2468091837666557 -0.7093920248373664
752492645 0.24476869623188505 -0.7113258804782014
752785900 0.2425523728102972 -0.7112652006401132
753079155 0.24183985699851956 -0.7118198108350785
753372410 0.23804790482681606 -0.7122327853734538
753665665 0.23687535664493484 -0.7126428548858884
753958920 0.23611220471152936 -0.7127547256351022
754252175 0.23526690305173903 -0.7128996582533018
754545430 0.2318268603003888 -0.7126499400363498
754838685 0.23115388522983393 -0.7133385679925248
755131940 0.22936635893934496 -0.7126609084207313
755425195 0.22819107903382255 -0.7124680465206823
755718450 0.22668844471441674 -0.7127379273078145
756011705 0.22535585310164682 -0.7125365839975341
756304960 0.22291770529930788 -0.7126379972065734
756598215 0.22105503360032602 -0.7131550451781019
756891470 0.2205452037871998 -0.7127452357731052
757184725 0.21880475535087532 -0.7123623492562204
757477980 0.2167189012563459 -0.7133081688907082
757771235 0.2143529467894666 -0.7144331707827998
758064490 0.21255988446959195 -0.7144695589384236
758357745 0.21191373831888954 -0.7135692017028727
758651000 0.2113842786617842 -0.713609757785697
758944255 0.2095500071507468 -0.7142123767393684
759237510 0.20689016449348727 -0.7142750954300179
759530765 0.20503426017165644 -0.7149934153258133
759824020 0.20441133408297296 -0.7143417871803365
760117275 0.20114523593453557 -0.7155876152334194
760410530 0.20085416956359475 -0.715163677371872
760703785 0.19981457868780472 -0.7137314384996442
760997040 0.19770214458135027 -0.7142475576047507
761290295 0.19640983135168 -0.7143532173095095
761583550 0.19481641925012316 -0.7142015131434044
761876805 0.19417379454077208 -0.7145639373498232
762170060 0.19253877582364357 -0.714480044863267
762463315 0.1901970890199486 -0.7140455810006339
762756570 0.1890965236743409 -0.7141671346165971
763049825 0.1884234627474977 -0.7146086814210861
763343080 0.18577588839931647 -0.7144724886262659
763636335 0.1843458348643172 -0.7149956994856509
763929590 0.18166697341447807 -0.715664764783889
764222845 0.18056642507413448 -0.7154682427560387
764516100 0.17902898722535326 -0.7152570973148009
764809355 0.1767467321763871 -0.71521819123642
765102610 0.1764594538194174 -0.7151375059970573
765395865 0.1752181426950824 -0.7151312024347248
765689120 0.1723618436191756 -0.7154170705011456
765982375 0.17167721534574057 -0.7151879022898413
766275630 0.16992252634434962 -0.7150314814691946
766568885 0.16822451437683777 -0.7155551510190145
766862140 0.16652720070572805 -0.7159731682941145
767155395 0.16518276050758454 -0.7155064317859796
767448650 0.16311078426475922 -0.7150494389313544
767741905 0.16152926771648213 -0.7146533577681355
768035160 0.1603499933851179 -0.7151563447802324
768328415 0.15809495637858173 -0.7150202301558772
768621670 0.1562483838890493 -0.7138655698166674
768914925 0.15385269770872595 -0.7145951486986074
769208180 0.15298548534721024 -0.7136140928833217
769501435 0.15025067317603552 -0.7134371586622952
769794690 0.149957033702037 -0.7130464291580356
770087945 0.14819524336656767 -0.712976988040031
770381200 0.146087072582697 -0.7129483400464887
770674455 0.14452753286950012 -0.7120948431469998
770967710 0.14240156669722803 -0.7123242164888748
771260965 0.14172353481864874 -0.7120199060571677
771554220 0.14000495880756214 -0.7118162796875035
771847475 0.13793727466913794 -0.7109694700319398
772140730 0.13633565458310748 -0.7116851932417246
772433985 0.13389387066516995 -0.7109091616785764
772727240 0.13228086982078063 -0.7118223878804913
773020495 0.13027424745853639 -0.7104788851140978
773313750 0.12743791150835126 -0.711199581839364
773607005 0.12628632268710946 -0.7111914620086686
773900260 0.12546783360273428 -0.710116151263285
774193515 0.12368574655012285 -0.7090023890968996
774486770 0.12159399931589553 -0.7087668276591226
774780025 0.11951804378329235 -0.7103944662154591
775073280 0.11799038423223115 -0.709925046600412
775366535 0.11509485291288891 -0.7092975163748921
775659790 0.113197601586628 -0.7089861332626434
775953045 0.1121575427666194 -0.7084768148272786
776246300 0.1106344944369286 -0.7080143592037201
776539555 0.1088518685651848 -0.7086506965461946
776832810 0.10694864023398262 -0.7072111521090054
777126065 0.1061471877704062 -0.7069188421653163
777419320 0.10296963412924429 -0.7067118156604232
777712575 0.10231136303066293 -0.7058262417913116
778005830 0.10049937422130718 -0.7045204414532864
778299085 0.10031250606605355 -0.7034885120621326
778592340 0.09695933619234291 -0.7026431131049202
778885595 0.09685040312300786 -0.7015823667045256
779178850 0.09508495875558601 -0.7003866679849355
779472105 0.09436297245112424 -0.7006515227065807
779765360 0.09256843461489284 -0.6996859718451307
780058615 0.09157287318880761 -0.7003650882370405
780351870 0.08857929555859427 -0.6991493420764584
780645125 0.08860033770147249 -0.6988335520027549
780938380 0.08688983611095985 -0.6984650423725083
781231635 0.08514896864328036 -0.6978632574035813
781524890 0.08366231124078563 -0.6977569827928929
781818145 0.08207535212472533 -0.6971002347116728
782111400 0.0809477814201484 -0.6968866148996824
782404655 0.079928736776634 -0.6962369338614415
782697910 0.07812194255516125 -0.6951286216598791
782991165 0.076854398690554 -0.6953022566666112
783284420 0.07608052894288425 -0.6940880663192377
783577675 0.0744463879188396 -0.6932824954814418
783870930 0.07187262705357483 -0.6925991429897057
784164185 0.07165910527632237 -0.6925555374590512
784457440 0.06980847738029707 -0.6915139008861477
784750695 0.06837110690250005 -0.6909176202956816
785043950 0.06639946672460413 -0.6896688421094924
785337205 0.06512529276029402 -0.6893593044242611
785630460 0.06386671271885211 -0.6885447459127573
785923715 0.06115856190928935 -0.6877332875915457
786216970 0.0603262582730723 -0.6869494652640707
786510225 0.05889769015939014 -0.6864279617572882
786803480 0.05832192186591734 -0.6852800197724818
787096735 0.05637389718783527 -0.6849435154033136
787389990 0.05372371049549104 -0.6837791522842341
787683245 0.053250127058443696 -0.6828990972604558
787976500 0.05132728196782002 -0.682023933552069
788269755 0.05128936561272257 -0.681098334489955
788563010 0.04901090868143004 -0.6795968310024447
788856265 0.04735202274291627 -0.6796864060336563
789149520 0.04649611792581499 -0.6790066390732412
789442775 0.0444965895857444 -0.6776484620185983
789736030 0.042071190158514155 -0.6766745416465706
790029285 0.04277263071357503 -0.6755378024038092
790322540 0.04033832875985123 -0.6746979741520984
790615795 0.03888054643221794 -0.6736930439406511
790909050 0.037562057208313786 -0.6725818053624224
791202305 0.03627473777574501 -0.6710548421314428
791495560 0.0354141734073928 -0.6707526208241188
791788815 0.0335806163743827 -0.6690715731182583
792082070 0.03269000016360247 -0.6672500858574505
792375325 0.030557518815359012 -0.6672267398030779
792668580 0.030168685988912373 -0.6658905049450272
792961835 0.028645652614053177 -0.6648020981101692
793255090 0.02682665288161476 -0.663324993574511
793548345 0.025912333959867334 -0.6630086446408907
793841600 0.02550167241874541 -0.6616140299467046
794134855 0.02360907605507273 -0.6605386455818518
794428110 0.02228730012540738 -0.6596163878592387
794721365 0.021661310160347173 -0.659069816512142
795014620 0.02011984458664269 -0.6577029594983959
795307875 0.01860000816276828 -0.6564800769097912
795601130 0.017704878650694353 -0.6556025227843784
795894385 0.01625828623554761 -0.6548367510310878
796187640 0.0156276490384854 -0.6541136768881702
796480895 0.013873397064915007 -0.6524336206663838
796774150 0.012363028845518612 -0.6521135540214069
797067405 0.010700679640912267 -0.6509618586232477
797360660 0.009588484348019389 -0.6492790136914796
797653915 0.009286606483068649 -0.6481225079832829
797947170 0.006365290764093051 -0.6471602543876269
798240425 0.006054875198093857 -0.6459767945229709
798533680 0.004998401158597985 -0.6452103842053435
798826935 0.003297847590568433 -0.6442499026034274
799120190 0.002598575835926308 -0.6425382480853278
799413445 0.0002726184161992715 -0.6415148831083933
799706700 -0.0005574666265286139 -0.6403714689190992
799999955 -0.0008622603984843495 -0.6386746876695484
800293210 -0.0026161987650632343 -0.6380600677117421
800586465 -0.004404790174688797 -0.6362010408012289
800879720 -0.0056520109299189845 -0.6361672929639248
801172975 -0.006513012025294972 -0.633903095679768
801466230 -0.007978479124574289 -0.6333096553177412
801759485 -0.009384624873344929 -0.6310056014183965
802052740 -0.01123996825497028 -0.6304911617266677
802345995 -0.013570187021717056 -0.6289689017222705
802639250 -0.014269388302956163 -0.6278839053436569
802932505 -0.015366321102346928 -0.6260383438746538
803225760 -0.016907794174802173 -0.6251042163653708
803519015 -0.017427770037547325 -0.6231709513116775
803812270 -0.01831102132604615 -0.6220411006428571
804105525 -0.020482273037459996 -0.6201116504704278
804398780 -0.021871574556829268 -0.6189225651377077
804692035 -0.02309874831221391 -0.6179568407623937
804985290 -0.024277152564419164 -0.6158970810132159
805278545 -0.026182325036526205 -0.6135831585353099
805571800 -0.026958700257019495 -0.6124429652368921
805865055 -0.027649475561436175 -0.6104076767296145
806158310 -0.02913140994784065 -0.6086907120921868
806451565 -0.03070068911314555 -0.6073675238674976
806744820 -0.031402024581522185 -0.6051721876034575
807038075 -0.03253168926334013 -0.6028243795718539
807331330 -0.03362122960623343 -0.6012403775760142
807624585 -0.03482222302057391 -0.600395084192783
807917840 -0.03614308546497998 -0.5983119123577068
808211095 -0.03699343257693214 -0.5963481501613414
808504350 -0.036877011010064145 -0.5944613205376451
808797605 -0.039377847835053964 -0.5920257648973297
809090860 -0.0402518382992284 -0.5896782272218057
809384115 -0.04093411426758197 -0.5887084714078157
809677370 -0.041801005882522904 -0.5860672503945223
809970625 -0.042903446084515566 -0.5842986853833749
810263880 -0.04263372631611434 -0.5829932201671857
810557135 -0.04439779635663289 -0.5804019317833549
810850390 -0.04523756395087758 -0.5780975074517755
811143645 -0.045400242668254244 -0.5760673904470461
811436900 -0.04666445907930717 -0.5742090127189575
811730155 -0.04707783156656817 -0.5723808426951192
812023410 -0.04756650450604693 -0.570435269686827
812316665 -0.04746731974166991 -0.5678503014414293
812609920 -0.04859123009477848 -0.5661371569723918
812903175 -0.04956718982361977 -0.564333363233487
813196430 -0.049386497087372624 -0.5628141119064612
813489685 -0.05097921109529135 -0.5603652196652482
813782940 -0.05091517062386511 -0.5580814223934288
814076195 -0.051532492446009624 -0.5568512938260989
814369450 -0.05204692979629971 -0.5544335811271466
814662705 -0.052400119837490156 -0.5525294329377493
814955960 -0.05300240843354198 -0.5500829218171122
815249215 -0.05320075928128543 -0.5490912026858069
815542470 -0.05494604853850062 -0.546846456399756
815835725 -0.05388315290090277 -0.5451292363465748
816128980 -0.053817159722306857 -0.5437529691862533
816422235 -0.05453656028561341 -0.5414069911521727
816715490 -0.05603509833671627 -0.5401373925327696
817008745 -0.05555059341913942 -0.5380486647995918
817302000 -0.05685247922766947 -0.5357631003990193
