# HZ S RI R 50
500000000 0.26708810440411873 -0.8956825527351563
500312500 0.264017140838289 -0.8966126921332815
500625000 0.2611998751231942 -0.8972733896533861
500937500 0.25849572729050396 -0.8977843579819101
501250000 0.25604370553245404 -0.8980910096930061
501562500 0.25386701756343344 -0.8988165733334518
501875000 0.25061796491547456 -0.8991703151189355
502187500 0.2485547893757917 -0.8998876913445459
502500000 0.24549107864277506 -0.9006212453505448
502812500 0.2432032958914614 -0.9006913391932938
503125000 0.2400210076845606 -0.9017496110236473
503437500 0.23680089936810403 -0.9024402313431384
503750000 0.23477908198315556 -0.9031072765494119
504062500 0.23173377202579878 -0.9035313497261372
504375000 0.22836605153103445 -0.9038853864509494
504687500 0.22649290694012555 -0.9045951916311926
505000000 0.22383229658415493 -0.9049368154201851
505312500 0.22120917304574964 -0.9056430395661658
505625000 0.21804821512238565 -0.9055595129328448
505937500 0.21651291332186196 -0.9060402219627838
506250000 0.21314689832080733 -0.9066751501811577
506562500 0.2096980396137392 -0.906920613722712
506875000 0.20744318370793804 -0.9065323910735258
507187500 0.20394086278343238 -0.9078177432123042
507500000 0.20227768522815873 -0.9076854645600916
507812500 0.19866042121707533 -0.9081378656513038
508125000 0.19589565561391695 -0.9086750940348908
508437500 0.193708060694386 -0.9089238279411099
508750000 0.19051349214628197 -0.9092544830059985
509062500 0.18808017852700876 -0.9092345393367726
509375000 0.185204816808476 -0.9096600447064996
509687500 0.1830274401239386 -0.9101959179946141
510000000 0.18018158176764262 -0.9104173254783412
510312500 0.17788599658767032 -0.9102805314354164
510625000 0.1750962139277184 -0.9103172334425916
510937500 0.172120778382365 -0.9105418826175379
511250000 0.16902444202871145 -0.9108566085382154
511562500 0.16618124812046048 -0.9107116118336065
511875000 0.16393034387943045 -0.9104448082853224
512187500 0.16024103627680297 -0.9112978604928478
512500000 0.15888600839743 -0.9110473825426696
512812500 0.15604676418374752 -0.9109068534156958
513125000 0.15413047062943364 -0.9111744068864822
513437500 0.1510210155414754 -0.9109479662641131
513750000 0.1483605777990859 -0.9110254310425376
514062500 0.14640790324091776 -0.9105659559869941
514375000 0.14296269551009497 -0.9104759129246399
514687500 0.1402216700340676 -0.9101602378970425
515000000 0.1382618607928677 -0.910789605693476
515312500 0.13571733579197068 -0.9107078236045707
515625000 0.13337350268638704 -0.9102374674049386
515937500 0.13110903491304216 -0.9107402178783356
516250000 0.12917021041081997 -0.910906069318751
516562500 0.12602468659653634 -0.9111889715570337
516875000 0.12370224043579463 -0.9106460266369875
517187500 0.12175828689352085 -0.9103844672997714
517500000 0.1196267022787412 -0.9098258247369497
517812500 0.11712325147541691 -0.9104110957995245
518125000 0.11564409336212106 -0.9102052707166983
518437500 0.11269995193288945 -0.9097379330295765
518750000 0.10959758379849678 -0.9103147112045062
519062500 0.10795238684155355 -0.9099902642924919
519375000 0.10615800200128939 -0.9096544229131595
519687500 0.1012762737002648 -0.9098344334347648
520000000 0.10073714105329384 -0.9097694431717148
520312500 0.09849121741318458 -0.9101086628925282
520625000 0.09565026463393421 -0.9095396573551452
520937500 0.09334901946663783 -0.9093824894744096
521250000 0.0910337786890159 -0.9093094535143929
521562500 0.08973744397975779 -0.9092439586440745
521875000 0.08670710257629455 -0.9098936406777404
522187500 0.08495245383408036 -0.9098998091542805
522500000 0.08298249707023649 -0.9098763706265126
522812500 0.08069233802206431 -0.9097234362745422
523125000 0.07866174771850121 -0.909531302065023
523437500 0.07695517953473556 -0.9095792927123075
523750000 0.07380355659231004 -0.9093673778366759
524062500 0.07161865342549342 -0.9093778049540018
524375000 0.0694230715640184 -0.9092104127495856
524687500 0.06806599928369918 -0.9095043105660939
525000000 0.06589921201411884 -0.9092259375087198
525312500 0.06319455386623757 -0.90929954251476
525625000 0.06147916686600643 -0.9093296291955446
525937500 0.05938759053284122 -0.9093277508201818
526250000 0.0558506125971462 -0.9097087380183845
526562500 0.054304998144477534 -0.9096020103911158
526875000 0.05241261588218913 -0.9097454045469374
527187500 0.050303439296225175 -0.9097376435953883
527500000 0.04824291155666467 -0.91015934331598
527812500 0.045879113824024625 -0.9099331342782648
528125000 0.043972970120276025 -0.9095049635434528
528437500 0.042302987238220444 -0.909913470257471
528750000 0.0382617105985124 -0.9096367582361069
529062500 0.037098173347003174 -0.9105807634729964
529375000 0.033770544147480666 -0.9106316694128115
529687500 0.03226306775185776 -0.9103939723011564
530000000 0.029084291835986743 -0.9105867254788924
530312500 0.027134463081124077 -0.9103147672566876
530625000 0.024969922201008004 -0.9109176951836743
530937500 0.022766570684337212 -0.9102570882039861
531250000 0.01958574062813189 -0.910580749969714
531562500 0.017927883864432163 -0.9107938485460737
531875000 0.01594519595951495 -0.9102746706085414
532187500 0.013517513294480052 -0.9105600790976333
532500000 0.011507260673510438 -0.9101292532916029
532812500 0.008938320881716843 -0.910137424174863
533125000 0.00636528247523105 -0.9107088441216163
533437500 0.004045125086751046 -0.911097075988013
533750000 0.0017361482614851383 -0.9102694331443958
534062500 -0.0014862022434769776 -0.9102609984273629
534375000 -0.00280407741839745 -0.9101264156457893
534687500 -0.004705880521354052 -0.9099862474252428
535000000 -0.007436004771570863 -0.9098419342641576
535312500 -0.010079652616861287 -0.9093459681187465
535625000 -0.013135151651891873 -0.9093296481907127
535937500 -0.015167902990094243 -0.9087997912176875
536250000 -0.018930127235761787 -0.908599511611904
536562500 -0.02016237184741027 -0.9081364421139926
536875000 -0.02178620449528428 -0.9082433126954272
537187500 -0.023340980131042507 -0.9082454492914033
537500000 -0.026744143163971203 -0.9078341538424264
537812500 -0.02909366386930232 -0.9081500551722194
538125000 -0.03140606141728214 -0.9074726994754558
538437500 -0.033973342814945344 -0.9071129964119196
538750000 -0.03518086226428043 -0.9067093867489714
539062500 -0.037304635453966645 -0.9057098785561452
539375000 -0.040025355860585365 -0.9064686939053914
539687500 -0.041716777243260006 -0.906292003728285
540000000 -0.04410296204449575 -0.9063371076929947
540312500 -0.04641249995900168 -0.9057771192147707
540625000 -0.048517575747000545 -0.9052295008166243
540937500 -0.05054717544100011 -0.9053680459353652
541250000 -0.05230755266880594 -0.90572536659127
541562500 -0.05531240797340144 -0.9045961378625288
541875000 -0.05764406708639696 -0.9047185280088513
542187500 -0.06016447384922535 -0.9049468741896175
542500000 -0.0608012653925332 -0.9047291537733501
542812500 -0.06384113237005051 -0.9044565273657793
543125000 -0.06599845963371777 -0.904334446222572
543437500 -0.06744744563994363 -0.9036577017252342
543750000 -0.06995083808702429 -0.9033470551059651
544062500 -0.07301375745620264 -0.9026682746082486
544375000 -0.07524035924903909 -0.9023743214794467
544687500 -0.07771893122385566 -0.9021564251004324
545000000 -0.07913553421129225 -0.9020188944923879
545312500 -0.08170832279333136 -0.9021376000464458
545625000 -0.08349151546979305 -0.9016889453885072
545937500 -0.08671580070208182 -0.90145710125377
546250000 -0.08789525215987905 -0.9013837896075614
546562500 -0.09057436126774002 -0.9009304285158227
546875000 -0.09261874600051963 -0.9006011621569218
547187500 -0.0951116147675299 -0.9003904626526615
547500000 -0.09797020418013146 -0.8999654956375492
547812500 -0.10027984669356158 -0.8994138584630628
548125000 -0.10250050980992675 -0.8994313292963592
548437500 -0.10425070987909826 -0.8991696521077295
548750000 -0.10654532141734355 -0.8990696764445884
549062500 -0.10930261713442199 -0.8984308581113367
549375000 -0.11124154202105332 -0.8981221906541402
549687500 -0.11390453231211481 -0.8973520242892994
550000000 -0.11597588047561457 -0.8970643725508696
550312500 -0.11835844563017597 -0.8968255949384543
550625000 -0.11976320695710986 -0.8965321343068539
550937500 -0.12233841740680083 -0.8959371515518844
551250000 -0.12504218567377376 -0.8953448680703717
551562500 -0.12734959373237692 -0.8948366352196823
551875000 -0.12981375906071638 -0.8939422790865204
552187500 -0.13162927429569238 -0.893203636852104
552500000 -0.13431267117334889 -0.8928003384694744
552812500 -0.13579580017560486 -0.8921314668440238
553125000 -0.13827080587800572 -0.8919775635605717
553437500 -0.1407900082708054 -0.8915443131120802
553750000 -0.1421486517401234 -0.8908018280233174
554062500 -0.14517964676309936 -0.8903002822294552
554375000 -0.14722914630678327 -0.8896268466482081
554687500 -0.14880310261161311 -0.8893051129252192
555000000 -0.15233508260259365 -0.8881002525066204
555312500 -0.15313847649414072 -0.8881413967535322
555625000 -0.15589160255689438 -0.8874756890719647
555937500 -0.15758364978147046 -0.8863079833124745
556250000 -0.16010105362577415 -0.8866946494302081
556562500 -0.1615879536997443 -0.885561023481604
556875000 -0.1643736309970227 -0.8851402562207507
557187500 -0.166844655634867 -0.8848523178832882
557500000 -0.168677163978864 -0.8845811957957895
557812500 -0.1708100630274382 -0.8837860819271208
558125000 -0.17268280721094298 -0.8830399441900717
558437500 -0.17448832598862093 -0.8821268486836177
558750000 -0.17648740755750122 -0.8815717416836777
559062500 -0.1784026879944766 -0.8808735058382704
559375000 -0.18062671999141036 -0.8805906783740506
559687500 -0.18251338575760997 -0.8800839811722355
560000000 -0.1842560070265755 -0.8790804629146172
560312500 -0.1866337771112246 -0.8783100160471129
560625000 -0.18919349953479614 -0.8767550364419393
560937500 -0.18972420049413866 -0.8766827069715355
561250000 -0.19249635234312912 -0.8760700071025622
561562500 -0.19419404611354615 -0.8755275238926556
561875000 -0.19773039101653794 -0.8749696031504902
562187500 -0.19823086756970343 -0.8751094852636673
562500000 -0.20127773368448806 -0.8740606184543547
562812500 -0.20268237672594291 -0.8741654724757013
563125000 -0.205018198438292 -0.8728464696301141
563437500 -0.2074971084442005 -0.8717370588671198
563750000 -0.20918129358265217 -0.8710467558571967
564062500 -0.21041600199539476 -0.8705938538766733
564375000 -0.21339815168820545 -0.869857006776528
564687500 -0.21499544898156103 -0.8690873734362778
565000000 -0.21706201637139413 -0.8687248821232841
565312500 -0.21906595600212728 -0.868172391992445
565625000 -0.22168285130875706 -0.8675757217968457
565937500 -0.22237528656006847 -0.8667879611609902
566250000 -0.22457869880235162 -0.8657884932625042
566562500 -0.2254420065837871 -0.8653371202839956
566875000 -0.22826373502229882 -0.8642676674902268
567187500 -0.22994772428598742 -0.8637453697912446
567500000 -0.2315922082898544 -0.8633739972334806
567812500 -0.23417407904666415 -0.8625527802348083
568125000 -0.23518549603989128 -0.8626520080448263
568437500 -0.2373815966779162 -0.8621981966109461
568750000 -0.2388716926975931 -0.8611593186003308
569062500 -0.24121275329300626 -0.8607042976968194
569375000 -0.2428125559760257 -0.8598850845968211
569687500 -0.2443635042209243 -0.8592765316156159
570000000 -0.24710460179505597 -0.8579235335766441
570312500 -0.24888917677198297 -0.8576507402473693
570625000 -0.2506318064800538 -0.8570841169818909
570937500 -0.2524922297633924 -0.8564584948154352
571250000 -0.25376007364204667 -0.8559789868285974
571562500 -0.2564246608241909 -0.8558063756588564
571875000 -0.25874657842495524 -0.8550116386232535
572187500 -0.26076949328529253 -0.8545637196293794
572500000 -0.2627871545073206 -0.8537320166416362
572812500 -0.2648396606979527 -0.8525950273898133
573125000 -0.26652027841022946 -0.8520749510442619
573437500 -0.26824941082379056 -0.8517625434837044
573750000 -0.271035178270894 -0.850565072153471
574062500 -0.2726767941948722 -0.8500357072986341
574375000 -0.27352566292186015 -0.8500959379034189
574687500 -0.2763496282759518 -0.8486193047839303
575000000 -0.27834211921093127 -0.8483960960429926
575312500 -0.2800961496407066 -0.8475366606833679
575625000 -0.2821150702155287 -0.8466628431723026
575937500 -0.2849327566816842 -0.845628761186206
576250000 -0.2862554629696654 -0.8453629550212992
576562500 -0.28803096937759437 -0.8444822292339514
576875000 -0.289395499336781 -0.8439751419994534
577187500 -0.2918356190246021 -0.8428227250416414
577500000 -0.2935129656455456 -0.8422581384685218
577812500 -0.29420530935334 -0.8415759248436124
578125000 -0.29744774708926863 -0.8406537569523681
578437500 -0.2985666267877342 -0.8409884124727114
578750000 -0.3009249920107199 -0.8395440451914105
579062500 -0.3033804145512774 -0.8388202532172185
579375000 -0.3049910881654442 -0.8379462817668181
579687500 -0.3070427343764275 -0.8374503137815568
580000000 -0.30982271992028165 -0.8362946648637221
580312500 -0.3107653155974023 -0.836286707329602
580625000 -0.3134795105302956 -0.8348516153688836
580937500 -0.31630771496999 -0.8340042448457776
581250000 -0.31916358027791886 -0.8329679983731687
581562500 -0.3194142998037009 -0.8327094366777984
581875000 -0.3216011388356478 -0.8320969693174722
582187500 -0.32396431638502177 -0.8310489665073745
582500000 -0.32580375237168946 -0.8301870768373799
582812500 -0.32686299695806725 -0.8293705790908162
583125000 -0.32938734954217347 -0.828697854461902
583437500 -0.33131259437581595 -0.8277491616168793
583750000 -0.33305193980288506 -0.8272480958849736
584062500 -0.3353385956039873 -0.8263369835420615
584375000 -0.33661346015822785 -0.8254867161636099
584687500 -0.33901420067975163 -0.8244079735326197
585000000 -0.34093900260989923 -0.8233668729825335
585312500 -0.34220970948948076 -0.8227581506873093
585625000 -0.3444554700493719 -0.8217453344085347
585937500 -0.34557901451837936 -0.820812874192338
586250000 -0.34784328628261296 -0.8194423224058721
586562500 -0.34984532768354665 -0.8181311796869478
586875000 -0.3515283588060329 -0.8174415688604442
587187500 -0.3534859391024454 -0.8163758691647949
587500000 -0.3555234540750624 -0.8155410663706562
587812500 -0.3579383705388222 -0.8149578062526335
588125000 -0.3599027996343706 -0.8140497498788021
588437500 -0.36232523847458037 -0.8132899044144154
588750000 -0.36465186373269487 -0.8121360244008216
589062500 -0.3662722279247007 -0.810746590500746
589375000 -0.36802384875794897 -0.809860843591595
589687500 -0.3694979038050588 -0.8085854927971198
590000000 -0.3717309698809882 -0.8076057384979237
590312500 -0.3724627569566289 -0.8072062220475255
590625000 -0.37531342049003624 -0.8054236280871717
590937500 -0.3767095389391714 -0.8050753631442522
591250000 -0.37839540177296993 -0.8035493380180663
591562500 -0.3812336491584535 -0.8023159907596198
591875000 -0.38303011187770675 -0.8016054169545428
592187500 -0.38423062268484315 -0.8002299239964076
592500000 -0.38629109606592776 -0.7993688822994554
592812500 -0.38855328694038205 -0.7981818594464984
593125000 -0.3903138042203524 -0.7969328070040508
593437500 -0.39218432113083185 -0.7957632805771069
593750000 -0.39379940087475446 -0.7946413910713652
594062500 -0.39618381331851577 -0.7934723313916219
594375000 -0.3982237184188659 -0.7920814056197141
594687500 -0.3987987920211103 -0.7918992668575763
595000000 -0.4009226961797804 -0.7905748929197267
595312500 -0.4029277220841701 -0.7889981162267447
595625000 -0.40480804296420725 -0.7879933465453178
595937500 -0.40684999710881814 -0.7862553211053874
596250000 -0.4083395816346739 -0.7857246112073659
596562500 -0.4104749736822003 -0.7840797282561544
596875000 -0.4120670249982926 -0.782676305014478
597187500 -0.4134290927393559 -0.7814351589832405
597500000 -0.41490411858326204 -0.7807549642321634
597812500 -0.4180041285560786 -0.7785650021013356
598125000 -0.4189179584192389 -0.7774390570975861
598437500 -0.42063686258189115 -0.7761086231817529
598750000 -0.4224791861897565 -0.7747587509991309
599062500 -0.4251136958962169 -0.7729388847898147
599375000 -0.42589789977780235 -0.7722714587217833
599687500 -0.42758313275731613 -0.7705727184939609
600000000 -0.42843414368139093 -0.7683925375331786
600312500 -0.4308781915216438 -0.7679679003778522
600625000 -0.4336167036644168 -0.7658504243834361
600937500 -0.43396300151573 -0.7649133006292156
601250000 -0.4364385851154637 -0.7634453101841997
601562500 -0.4380026468640524 -0.7615657135265766
601875000 -0.43848355796974675 -0.7598115218635385
602187500 -0.4406059690178872 -0.7583208523510886
602500000 -0.4411000573309644 -0.7572426378428075
602812500 -0.44355482862377055 -0.7551677084905025
603125000 -0.44528391771779285 -0.7533951989089444
603437500 -0.44652624192040935 -0.7515415415460854
603750000 -0.4477645636795896 -0.7501997715742186
604062500 -0.4494517751061303 -0.7483876450585261
604375000 -0.45135104541778864 -0.7460593366581297
604687500 -0.45184418353406464 -0.7449684735526818
605000000 -0.45319858575585437 -0.7431683365589323
605312500 -0.45389974999762844 -0.7422307810825938
605625000 -0.45500639162034834 -0.7410044570116108
605937500 -0.4563618668199285 -0.7384376453717783
606250000 -0.45709592459220777 -0.7365653339440911
606562500 -0.45744720742241823 -0.7350245403555711
606875000 -0.4586589019632065 -0.7336518774509562
607187500 -0.459527633250219 -0.7321139366515304
607500000 -0.4607030171711776 -0.7306347330087233
607812500 -0.46206815785627975 -0.7280996092572641
608125000 -0.4616094208629815 -0.7268402852799961
608437500 -0.46222492587576514 -0.7253449715004681
608750000 -0.46278886759523125 -0.7238700057304545
609062500 -0.4632641858323643 -0.7223293362913255
609375000 -0.4650263317439179 -0.7200698453297996
609687500 -0.46430112716697847 -0.7192090878945115
610000000 -0.46343344261072433 -0.7189263618589183
610312500 -0.46548416197895276 -0.7167164649094222
610625000 -0.4652989539289818 -0.7154310594471681
610937500 -0.4652280832768503 -0.7152590532911121
611250000 -0.4656191278194721 -0.7137297964658357
611562500 -0.46612945683456647 -0.7130164462073032
611875000 -0.4656838045833544 -0.7125859494377235
612187500 -0.46523950920082646 -0.7120293041187961
612500000 -0.46575692663057244 -0.7113421711252369
612812500 -0.46575429784812994 -0.7115225713928152
613125000 -0.4669199498115144 -0.7100596786618572
613437500 -0.46627685063121455 -0.7104469409906585
613750000 -0.4666116225432065 -0.7097003020102204
614062500 -0.4668297817446933 -0.7103426673310324
614375000 -0.46734212654274304 -0.7092665307717085
614687500 -0.46857301656306743 -0.7096117439682638
615000000 -0.46839270551627993 -0.7100665407212055
615312500 -0.46937444194283373 -0.7099067828665736
615625000 -0.47047884033110543 -0.7100729035556486
615937500 -0.4709563926583961 -0.7103479240250671
616250000 -0.47166537848173434 -0.7107516693608423
616562500 -0.4731866683806285 -0.7106926117657707
616875000 -0.4741701738717802 -0.7108183569676253
617187500 -0.4744343231958553 -0.7115131932489799
617500000 -0.4768143247633735 -0.7111779390916176
617812500 -0.47863391558311164 -0.7110804636056566
618125000 -0.47944837723524475 -0.7117631352881416
618437500 -0.48203449983961316 -0.7110378096549771
618750000 -0.4827998557349728 -0.7118038645352949
619062500 -0.48383856403570386 -0.7121978509462232
619375000 -0.4853426890256173 -0.7123635347943756
619687500 -0.48675842600026287 -0.7118022513500506
620000000 -0.48828653650184195 -0.7115822763516559
620312500 -0.48994807234386856 -0.7112624221186244
620625000 -0.49281421851314217 -0.7107300695398262
620937500 -0.49369844760651166 -0.710804027411382
621250000 -0.4956239375985004 -0.7112587270750867
621562500 -0.49797822236355954 -0.7106714352757425
621875000 -0.4990557453385092 -0.7105149234792479
622187500 -0.5009121278225217 -0.7100330422195346
622500000 -0.5022142582041385 -0.7099112144536754
622812500 -0.5046901360647646 -0.7097727744745934
623125000 -0.5065168688755518 -0.7091362330341665
623437500 -0.5074296768313838 -0.7097988421808102
