# HZ S RI R 50
700000000 -0.26876412542756695 -0.7177743615183892
700293255 -0.2717659632644589 -0.7174680433619811
700586510 -0.27484022739777725 -0.7171457056386116
700879765 -0.27691918756805883 -0.716630755587224
701173020 -0.2805034900369089 -0.7150206604366315
701466275 -0.28233148020903537 -0.7151036701180552
701759530 -0.28607580635376667 -0.7146161076270937
702052785 -0.28917437373676386 -0.7134244214786626
702346040 -0.291283293653723 -0.7128335356878537
702639295 -0.29444922856434175 -0.7130839927192704
702932550 -0.29649332989572147 -0.7119930553683537
703225805 -0.29771015175528137 -0.7119010008843747
703519060 -0.3021775787039549 -0.7111620537132584
703812315 -0.3055296748311783 -0.7106997592918842
704105570 -0.30683468167825073 -0.7098426679383188
704398825 -0.31023882408271375 -0.7085955118453894
704692080 -0.31253036495743153 -0.7082776904906793
704985335 -0.3151612550017012 -0.7067446453550348
705278590 -0.31794549649581905 -0.7065799879237444
705571845 -0.3200775049371462 -0.7061622768474036
705865100 -0.3241237006229559 -0.7056475965346478
706158355 -0.32607463161702793 -0.7043466776350987
706451610 -0.32829250393323595 -0.7037717036848761
706744865 -0.33068110119965444 -0.7033821649824628
707038120 -0.3343243270656609 -0.7018535581526167
707331375 -0.33648827133455383 -0.7010619982841035
707624630 -0.338339746844221 -0.7002352258175417
707917885 -0.3406586022521852 -0.6998098906887192
708211140 -0.34445480206980666 -0.6988384562054033
708504395 -0.34674623689430517 -0.6986367056178888
708797650 -0.3486338902562933 -0.6973638392234079
709090905 -0.3502828831209193 -0.6971720309660374
709384160 -0.3535417630141577 -0.6955760457026405
709677415 -0.35673739246775404 -0.6940654638917357
709970670 -0.3584663779943381 -0.6943854417757985
710263925 -0.35996092382126577 -0.6926652073847305
710557180 -0.3641781511008448 -0.6929408676009987
710850435 -0.36630519568949216 -0.6911709661908321
711143690 -0.36783195604732877 -0.6909410867271987
711436945 -0.3698210890542121 -0.6902377176556161
711730200 -0.37292781310099204 -0.6890156567131301
712023455 -0.37646228954996025 -0.6879056242147034
712316710 -0.37829737472935754 -0.6870253744131637
712609965 -0.38137831123108723 -0.686424421055718
712903220 -0.3823698343972813 -0.6854093391583322
713196475 -0.38647161798386165 -0.6840305405289292
713489730 -0.3877353375213751 -0.6833488048131775
713782985 -0.3900797727379674 -0.6829888187054428
714076240 -0.39284681285999434 -0.6822626834721264
714369495 -0.39493337228266306 -0.6806450347253499
714662750 -0.39761687827718467 -0.6799304634811918
714956005 -0.3994498694721108 -0.6787321039750654
715249260 -0.4015225700299541 -0.6779404422338221
715542515 -0.40429685630322143 -0.6767645467629604
715835770 -0.4072084954534462 -0.6757322066742474
716129025 -0.4095923090452081 -0.6746965961233309
716422280 -0.4101532384788317 -0.6740121813496045
716715535 -0.41489937346913686 -0.6727770659243592
717008790 -0.4161567378280803 -0.6718780603950145
717302045 -0.4183475802180581 -0.6709793284183156
717595300 -0.4205158466900739 -0.6700118862888705
717888555 -0.4224880659316737 -0.6691511267536676
718181810 -0.42612894992394035 -0.6672212882376135
718475065 -0.42747799610695336 -0.6669934392090227
718768320 -0.4282709640783511 -0.6658243677122155
719061575 -0.4315706498957375 -0.6657365536200752
719354830 -0.4334310117650772 -0.6637512791881879
719648085 -0.4354108393613404 -0.6627472925719797
719941340 -0.4394015699398254 -0.6622862599901205
720234595 -0.4410625930125306 -0.6610196827119857
720527850 -0.4429983349823647 -0.6596692688964585
720821105 -0.44499258127359426 -0.6585160016409519
721114360 -0.4473018796890102 -0.6578658437227225
721407615 -0.4496894764971163 -0.6566071907940835
721700870 -0.45180488160449606 -0.6554540453895792
721994125 -0.453753317867039 -0.6546581169059299
722287380 -0.4565131939933305 -0.6535739171917884
722580635 -0.45986850329312395 -0.6524711150880995
722873890 -0.46121743070662763 -0.6515362981607596
723167145 -0.4629300374086526 -0.6515076772712043
723460400 -0.4653723478749208 -0.6496869478999254
723753655 -0.4676768594423536 -0.6485939150724502
724046910 -0.4691054419289316 -0.6474867459702215
724340165 -0.4730266313125833 -0.6461455317534334
724633420 -0.47396157184741383 -0.6458716380456345
724926675 -0.477216606423721 -0.6448024784360701
725219930 -0.4790106052365106 -0.6431806259668849
725513185 -0.4803146336652998 -0.6428040889458274
725806440 -0.4829220616673216 -0.6416724470336465
726099695 -0.48589763569701866 -0.6404155684023549
726392950 -0.4878422605774647 -0.6393210174367265
726686205 -0.49035002780842224 -0.6380951262751056
726979460 -0.4947607844145228 -0.6362631894114866
727272715 -0.49435537162592696 -0.6363738726482219
727565970 -0.49666789932738437 -0.6346590268531888
727859225 -0.5004964943664832 -0.6331907973887965
728152480 -0.5011439308719655 -0.6326417225365527
728445735 -0.5035687810837254 -0.6312168373415336
728738990 -0.5063292959388378 -0.6301599113592249
729032245 -0.5095107094035776 -0.6290718614084065
729325500 -0.5103390530213405 -0.6279744707276295
729618755 -0.5136325433960398 -0.6263318484260798
729912010 -0.5153479823844972 -0.6257222406623406
730205265 -0.5177914071713283 -0.623923766982379
730498520 -0.5207050881916068 -0.6220322985468274
730791775 -0.5233333921315502 -0.621467493018191
731085030 -0.5255262106801543 -0.6205504555937975
731378285 -0.5277093333950368 -0.6188027546052697
731671540 -0.5301067405219755 -0.6173537172496738
731964795 -0.5317378659006144 -0.6161137059604955
732258050 -0.5343942888906099 -0.6149843576350482
732551305 -0.5360016965700766 -0.6132887868313024
732844560 -0.5383876029334909 -0.6121454409009639
733137815 -0.5422350211731093 -0.6104295431531447
733431070 -0.5442647546495861 -0.6094228999014202
733724325 -0.5462440789442253 -0.6073911996731012
734017580 -0.5482698604467243 -0.6074302355077678
734310835 -0.5501903574908446 -0.6049968180806116
734604090 -0.5541802142413838 -0.6026440115373103
734897345 -0.5543353119902877 -0.6020617575289271
735190600 -0.5579657521386472 -0.5998696422794899
735483855 -0.5597563240759051 -0.5994004128417577
735777110 -0.5626958885391475 -0.5968128018367426
736070365 -0.5652773602760844 -0.5947819381943692
736363620 -0.5661620234601829 -0.5940706734516028
736656875 -0.5684642834697653 -0.5924178952483238
736950130 -0.571417996388777 -0.590341687588405
737243385 -0.5735488126286045 -0.5877569024143755
737536640 -0.5754794083213549 -0.587488186808857
737829895 -0.5775321775141662 -0.5851534390839191
738123150 -0.5802834763365233 -0.5830674263426466
738416405 -0.5818056303829537 -0.5814964906742348
738709660 -0.5836849176253446 -0.5806351657916542
739002915 -0.5857723166997679 -0.5781134206699515
739296170 -0.587645607393334 -0.5761795149650152
739589425 -0.5904543609072155 -0.5745560111000806
739882680 -0.5928818727348344 -0.573377137138056
740175935 -0.5946290073272231 -0.5713668276706438
740469190 -0.5961962845955737 -0.5702081742646756
740762445 -0.5985878297669862 -0.5678691573103233
741055700 -0.6012311755024786 -0.5657612254565302
741348955 -0.6021002322855743 -0.5643759939300804
741642210 -0.6050209470594454 -0.561754389907312
741935465 -0.6071519676870464 -0.559698293687822
742228720 -0.6090742128026125 -0.5573875187070573
742521975 -0.6101189302233986 -0.5567493204760513
742815230 -0.6136706690880236 -0.553053168834419
743108485 -0.6138718863659061 -0.5534807166111937
743401740 -0.6169038974747704 -0.5500756819365794
743694995 -0.6193278589317586 -0.5467722967312303
743988250 -0.6224078096905341 -0.545804772246229
744281505 -0.6220309508879347 -0.5446284270832898
744574760 -0.6245789803839016 -0.5427137545475403
744868015 -0.6264667677223913 -0.5402919037111231
745161270 -0.6282069094097041 -0.5376599520427862
745454525 -0.6294788743112941 -0.5355662385474995
745747780 -0.6316536306488856 -0.5331111699206332
746041035 -0.6345277997705748 -0.5316466251816662
746334290 -0.6354292159113577 -0.5295785923847024
746627545 -0.6375408075501489 -0.5268453406735802
746920800 -0.6397064016118355 -0.524285673153282
747214055 -0.6412651342204453 -0.5232721271477321
747507310 -0.6421836048819045 -0.5214609958358658
747800565 -0.6445412723656385 -0.517642212580832
748093820 -0.6461758406002671 -0.5157366154917327
748387075 -0.6476936936366062 -0.513873901562349
748680330 -0.6494864810099056 -0.5118604945186456
748973585 -0.6511794043264149 -0.50883941081713
749266840 -0.6534572781015657 -0.5061013707359118
749560095 -0.6536715137082555 -0.5050312369448932
749853350 -0.654805124882243 -0.5033213337291133
750146605 -0.6572050732773128 -0.5009660733939751
750439860 -0.6584623223136544 -0.497781572724637
750733115 -0.6606157175894035 -0.49598987309761833
751026370 -0.6614487255683247 -0.49434001158534496
751319625 -0.6612805591740182 -0.49204619930587223
751612880 -0.6648244466789953 -0.48875083594122326
751906135 -0.6652818566990013 -0.4875910769247354
752199390 -0.6674466660437934 -0.4848458447007264
752492645 -0.669450788516174 -0.4815254701456703
752785900 -0.6698789659407576 -0.480034607796826
753079155 -0.6717769607542348 -0.4785683506694982
753372410 -0.6725806702256943 -0.47665409542280957
753665665 -0.6739463331191134 -0.4735094923120926
753958920 -0.6756236102368005 -0.4713316008522283
754252175 -0.676942833629246 -0.46888368705315403
754545430 -0.6781811762656685 -0.4665823601386765
754838685 -0.6791782951255694 -0.464016736167699
755131940 -0.6808236131970503 -0.4613347995758758
755425195 -0.6803570712567036 -0.4610989300087884
755718450 -0.6825970022735357 -0.45759702431082544
756011705 -0.6847108331192256 -0.45513039832452645
756304960 -0.6850344617361511 -0.45296071648639713
756598215 -0.6866910749992305 -0.451173478012596
756891470 -0.6872787722787788 -0.4492081770927384
757184725 -0.6883078017768516 -0.4463006464621537
757477980 -0.6901176276453656 -0.4444322832978
757771235 -0.690794673552292 -0.4423733927592207
758064490 -0.6919621950240433 -0.4397168996877916
758357745 -0.693405286863122 -0.43691588686751964
758651000 -0.6943729943578092 -0.43536112633950136
758944255 -0.6956366821156151 -0.4327521725554651
759237510 -0.6971235914074329 -0.43000954794344715
759530765 -0.6976165414292503 -0.42886196658867787
759824020 -0.6987576891082488 -0.42654192800951823
760117275 -0.7002978203379326 -0.4230671486170145
760410530 -0.7012442168557148 -0.4213157502893363
760703785 -0.7027498435922571 -0.4194747897007945
760997040 -0.7030473059223856 -0.4168417406763997
761290295 -0.7044909844291535 -0.4147929004237986
761583550 -0.7058614798397977 -0.4126657352491496
761876805 -0.7057453598006872 -0.4108178767472416
762170060 -0.7077671952909091 -0.4080093867163793
762463315 -0.7092266164723637 -0.4044594875821598
762756570 -0.7087490899704583 -0.4026954986462151
763049825 -0.710508362801794 -0.3995667746375324
763343080 -0.7113791130588084 -0.3983006135913822
763636335 -0.7119236441082462 -0.39611096395481016
763929590 -0.713099402304325 -0.3929500826921445
764222845 -0.7145136726875508 -0.390053872305548
764516100 -0.7150268940211781 -0.3879020961789098
764809355 -0.7163319297809466 -0.38537275208363236
765102610 -0.7165797542564132 -0.38359364600294255
765395865 -0.7181406496500591 -0.38060274660426474
765689120 -0.7184729342967642 -0.37908029059735376
765982375 -0.7188134228106386 -0.37693117897090106
766275630 -0.7191456922478934 -0.37543010588114895
766568885 -0.7200614223119081 -0.37173271238073813
766862140 -0.7208278780838224 -0.3690641777632883
767155395 -0.721814532792026 -0.3676758459368621
767448650 -0.7226272501616136 -0.36453354640749513
767741905 -0.7232918529508416 -0.362477638596332
768035160 -0.7242626435430324 -0.3593263611797543
768328415 -0.7255403352373901 -0.357854448598667
768621670 -0.7259132444354213 -0.35563140054213244
768914925 -0.7262249617322217 -0.35304306483761244
769208180 -0.7270666346888234 -0.35009605158032425
769501435 -0.7281222452754461 -0.3477216148004266
769794690 -0.7284843704106498 -0.3469995208690439
770087945 -0.7294847788913349 -0.34368952157200017
770381200 -0.7297426383692481 -0.3417416917771313
770674455 -0.7303261643684037 -0.3386854130289097
770967710 -0.7307636407354974 -0.3376396910440323
771260965 -0.732110396097863 -0.33421682723209195
771554220 -0.7326108289856963 -0.3307529835690602
771847475 -0.7330483159130383 -0.32930138992254
772140730 -0.7339667297620842 -0.32700858263248117
772433985 -0.7351899748675472 -0.3246705888553743
772727240 -0.7352066691905836 -0.3218614004062876
773020495 -0.7356797517448984 -0.3200250851034802
773313750 -0.7368125320848452 -0.3162661199537512
773607005 -0.73679619724051 -0.3132957948311855
773900260 -0.7375434583771349 -0.31151444445811877
774193515 -0.7381539700987861 -0.3094814889193119
774486770 -0.7385734292828545 -0.30646108371495007
774780025 -0.7387520522467323 -0.30465022822366516
775073280 -0.739801168619642 -0.30171773203274954
775366535 -0.7402867807295739 -0.2991913580887948
775659790 -0.7406723835324909 -0.2970743156012531
775953045 -0.7404837745639945 -0.2946391616293233
776246300 -0.7411033321925696 -0.2921208297181735
776539555 -0.741690581131419 -0.28906659059863843
776832810 -0.7417170481262776 -0.2870661250739779
777126065 -0.7420373652088466 -0.28494577506627244
777419320 -0.7431968613655295 -0.2808660973252355
777712575 -0.7437274530714424 -0.27843585155511585
778005830 -0.7438986348884684 -0.27579770116829283
778299085 -0.743525992591414 -0.2743965613988024
778592340 -0.7438514586371923 -0.27153391946217975
778885595 -0.7439424537261083 -0.2685125480976326
779178850 -0.7446858291711249 -0.26637590602716754
779472105 -0.7446458348467384 -0.26347619658475374
779765360 -0.7450464328093398 -0.26049181481491934
780058615 -0.7455796998233416 -0.258450861790519
780351870 -0.7452445866745994 -0.25678068170405766
780645125 -0.7455910220419921 -0.2531987945006941
780938380 -0.7455260244614558 -0.25083246129804593
781231635 -0.7456906776285814 -0.2484988834825147
781524890 -0.74606390012011 -0.24514951790363015
781818145 -0.7456125173791424 -0.24263417973120388
782111400 -0.7461358238061612 -0.240314979321917
782404655 -0.7464954959632684 -0.2378168103178599
782697910 -0.7460115293960448 -0.23481391153714085
782991165 -0.7459903268200225 -0.2322487943649859
783284420 -0.7461712012468935 -0.23039873629459595
783577675 -0.7465769030548273 -0.22635415483166282
783870930 -0.7457953560306037 -0.22493204952543808
784164185 -0.7459128442442065 -0.22119125942466858
784457440 -0.7465517192718865 -0.21991832656209032
784750695 -0.746195204986074 -0.21622847028480247
785043950 -0.745652425772712 -0.21528999691505266
785337205 -0.7462184602149804 -0.21101406745040133
785630460 -0.7461723198536093 -0.20899060498641633
785923715 -0.7457003924789523 -0.20499545599461905
786216970 -0.7452056788834182 -0.205894592616314
786510225 -0.7453848708051334 -0.2007549589378501
786803480 -0.7448671660632451 -0.198896916865042
787096735 -0.7451557843765263 -0.19606706354264772
787389990 -0.7447654408423977 -0.19331143120272665
787683245 -0.7445163960439445 -0.1908519164662162
787976500 -0.7439391610943968 -0.18872728619068055
788269755 -0.7439796597183435 -0.1848314495003077
788563010 -0.743978940001155 -0.1821900977396823
788856265 -0.7435286855982518 -0.18078268261803726
789149520 -0.743431359712168 -0.17808293726639712
789442775 -0.7425970172373607 -0.17545122969041246
789736030 -0.7422522691832593 -0.1726055649435335
790029285 -0.7423729101405856 -0.16992316901061338
790322540 -0.7418738106777047 -0.1678316625032671
790615795 -0.741603249196168 -0.16414641608730038
790909050 -0.7414767585368723 -0.16250388663678245
791202305 -0.7404597749922927 -0.16078955519309301
791495560 -0.7402297046126057 -0.15707804812235193
791788815 -0.7397480318111872 -0.1536862032076775
792082070 -0.7388664629305801 -0.15169124213700247
792375325 -0.7385368642268365 -0.14956200909663436
792668580 -0.7384286110148363 -0.1473469992099025
792961835 -0.738489893104302 -0.14421327518058735
793255090 -0.7379336576084332 -0.14225280778478858
793548345 -0.737310880187958 -0.1398986651494979
793841600 -0.7366264590843151 -0.1369477994433645
794134855 -0.7362815334057197 -0.13336598863349597
794428110 -0.7356212794824951 -0.13108879559267317
794721365 -0.7355505444281528 -0.12913288422086963
795014620 -0.7352130657383011 -0.12699488273648363
795307875 -0.7345498070674624 -0.12404320190070743
795601130 -0.7333452853857478 -0.12035009387153969
795894385 -0.7326635969955517 -0.11868979647263861
796187640 -0.7318155094985122 -0.11643368121179805
796480895 -0.7316709724928556 -0.11305869106252717
796774150 -0.7309570231331136 -0.10939540390793268
797067405 -0.7304413304909915 -0.10718062541247114
797360660 -0.729487551128256 -0.10473379795006135
797653915 -0.7286181654562583 -0.1011214097519671
797947170 -0.7280374553919317 -0.09891151650581802
798240425 -0.7266467674373425 -0.0971465681278314
798533680 -0.7262648792859934 -0.09325773288811315
798826935 -0.725561002414533 -0.09100823108347941
799120190 -0.7243109816536547 -0.08857822065273026
799413445 -0.7234711957466263 -0.08412049245763806
799706700 -0.7219536779006298 -0.08200430753961832
799999955 -0.7208433616628583 -0.0796479032243533
800293210 -0.720186883859954 -0.07673078001043428
800586465 -0.7194291226351011 -0.0737638599959399
800879720 -0.7183402447599352 -0.07114499523253712
801172975 -0.7164194024030265 -0.06834350935627483
801466230 -0.7153565944646257 -0.06642170478000924
801759485 -0.7149036151756782 -0.06298053415550191
802052740 -0.7135614051010141 -0.05938087085063589
802345995 -0.7120786283817236 -0.05775674774236792
802639250 -0.7111033042057849 -0.05450452769866157
802932505 -0.7092719512727963 -0.05174368007354385
803225760 -0.7085017749979136 -0.0494457097864456
803519015 -0.7060997624255301 -0.047387821892900306
803812270 -0.7056562163840046 -0.044160855420249806
804105525 -0.7038857523901803 -0.041001057863310965
804398780 -0.7025280935093392 -0.0386673226991382
804692035 -0.7007506321164472 -0.0363021918461384
804985290 -0.6982744774391518 -0.033633256175888845
805278545 -0.6971382676057291 -0.03103584283112927
805571800 -0.69593769488515 -0.0286977155662808
805865055 -0.6945629918635448 -0.025801115447312586
806158310 -0.6923075165684905 -0.02421557121071229
806451565 -0.6910307952665761 -0.02097678624862057
806744820 -0.6885057313613341 -0.01962472234911487
807038075 -0.6871925172154335 -0.017290059185490828
807331330 -0.6853398658345807 -0.01467945056782135
807624585 -0.6839310554916621 -0.011911053349547616
807917840 -0.6824205292035322 -0.01019291875562433
808211095 -0.6803390948416008 -0.008328539804697773
808504350 -0.6782306023091901 -0.005247672482078328
808797605 -0.677008707130967 -0.0032898675415094095
809090860 -0.6749689445569307 -0.001121636165014919
809384115 -0.6735169642370085 0.0012875452576246913
809677370 -0.6710480671414447 0.004042550278553125
809970625 -0.6682731358313886 0.005967539299578377
810263880 -0.6674503722531269 0.0077892221488681185
810557135 -0.665226732749303 0.010572836774627215
810850390 -0.664098442017791 0.011829580428319575
811143645 -0.6618585383915639 0.013643470113156905
811436900 -0.6596442090381265 0.015474527293342385
811730155 -0.6579816572410339 0.0183189713744653
812023410 -0.6549981369525573 0.02035229018822986
812316665 -0.6531993478995558 0.02234998336865918
812609920 -0.65126331512769 0.025327072494520396
812903175 -0.6486739305072433 0.02695922831666277
813196430 -0.6471102718086544 0.02902220214488795
813489685 -0.6445424100503 0.03142230950070501
813782940 -0.6424568521247419 0.033794921325640444
814076195 -0.6410102417549952 0.03758698451909937
814369450 -0.6381389883314237 0.03880482785211895
814662705 -0.6356568623399845 0.042386291607432416
814955960 -0.6331260653751656 0.04266101509637576
815249215 -0.6307973504567911 0.04514592764487026
815542470 -0.6280770968426689 0.04612031632137403
815835725 -0.6251768400407657 0.05004783086430225
816128980 -0.6228881486651858 0.049656825803209965
