# HZ S RI R 50
700000000 -0.8332899855227821 0.28072273768413725
700293255 -0.8323542964955449 0.2810513142247206
700586510 -0.831494891072255 0.2823596809210128
700879765 -0.8302958578609761 0.28359538256777517
701173020 -0.8292744624544579 0.28543970881433645
701466275 -0.8287134312498662 0.28561616398265494
701759530 -0.8283912449636647 0.2861610341788502
702052785 -0.8273365993400282 0.2882300342145615
702346040 -0.8268528832249953 0.28741051420549496
702639295 -0.8258462813943791 0.29035092150235686
702932550 -0.8249266827344774 0.29137317567113924
703225805 -0.8238981338955479 0.2925962397456866
703519060 -0.8228334746166162 0.2945736605638754
703812315 -0.8221373613526504 0.2953190863755868
704105570 -0.8218756662971922 0.2946642054684893
704398825 -0.8208920654733958 0.2968770605603128
704692080 -0.8200437420235603 0.2975324562901597
704985335 -0.818385247711417 0.297232904009876
705278590 -0.8186718439442348 0.2989062170134759
705571845 -0.817429286006361 0.30124083409195285
705865100 -0.8163646631289915 0.301658826264809
706158355 -0.8157760282517176 0.30259079668594263
706451610 -0.8147588246236737 0.30398105309163936
706744865 -0.814193818220219 0.3042848528834742
707038120 -0.8133313720192322 0.30526643487471267
707331375 -0.8126507883756285 0.30630036182382914
707624630 -0.8115983136028609 0.3080942504427039
707917885 -0.8108708988351173 0.30886352583530813
708211140 -0.8099810664750403 0.3097881241550382
708504395 -0.80916692316729 0.31091764709071124
708797650 -0.8085291376564088 0.31172372669321763
709090905 -0.807634039431937 0.3125438287892215
709384160 -0.8072110828177087 0.31361043743134503
709677415 -0.8057133844383276 0.3156973617557528
709970670 -0.805906224500802 0.31349266761081096
710263925 -0.804100088303863 0.31685189586962353
710557180 -0.802801633583277 0.317426645464839
710850435 -0.8025597926507102 0.316848333068673
711143690 -0.8009404073408688 0.31902762694727704
711436945 -0.8001341880666146 0.32010232170405006
711730200 -0.7987533907235498 0.3213057282437449
712023455 -0.7976796109656795 0.3226624784257511
712316710 -0.7966096466021696 0.3234264662134421
712609965 -0.7962117494005986 0.3245956551819162
712903220 -0.7955079148580853 0.32574382191003626
713196475 -0.7940736300745104 0.3262411303877146
713489730 -0.7933053828723203 0.327020172003871
713782985 -0.7927322847724019 0.32677804972618313
714076240 -0.7912258372072984 0.32865776588816586
714369495 -0.7904317743628511 0.329174126521418
714662750 -0.7900533908521573 0.3298540197198697
714956005 -0.7891239025519651 0.3303318199188739
715249260 -0.7879330152862973 0.331266168604982
715542515 -0.7869865883340693 0.3329539940192808
715835770 -0.7855257988307073 0.3337300235794819
716129025 -0.7846340549543029 0.3353357536026915
716422280 -0.783458892285394 0.3365158939666128
716715535 -0.7820993968676839 0.33718674059449827
717008790 -0.7813493772241562 0.3375520682875343
717302045 -0.7807347151626767 0.33807087467760133
717595300 -0.7791857776402998 0.3404991513706995
717888555 -0.7784393098344521 0.3406717764131757
718181810 -0.7779687681696961 0.33968685670707743
718475065 -0.776477549674686 0.34281074190835853
718768320 -0.7761210053761496 0.34227289989428006
719061575 -0.7742728005069341 0.34414535759315906
719354830 -0.7738247418694739 0.34494620988541536
719648085 -0.7734106914695817 0.3456417595732493
719941340 -0.7724460802657436 0.34736017447536455
720234595 -0.7705291842359892 0.3473515074669431
720527850 -0.7691796684271904 0.34817969061673887
720821105 -0.7681458628622394 0.3482309229127921
721114360 -0.766365729192225 0.34974361566542145
721407615 -0.7663071566652667 0.3497982997055516
721700870 -0.7650561666837374 0.35091769606624534
721994125 -0.7644098542073994 0.3512464380950472
722287380 -0.7637397878367157 0.35210018825477746
722580635 -0.7624744125739455 0.35254260672304627
722873890 -0.7615185756507351 0.35331116492418824
723167145 -0.7604440705271007 0.35346338094323154
723460400 -0.7587823262274369 0.35460931835433046
723753655 -0.758170746102304 0.3558381656604007
724046910 -0.7570955396981901 0.35595356141076445
724340165 -0.7565000790887899 0.35655149427178556
724633420 -0.7550199124327449 0.35662913795289497
724926675 -0.7533655584430872 0.35798900939573053
725219930 -0.7524281020920269 0.3581353861089849
725513185 -0.7516740449040316 0.3592414661450085
725806440 -0.749685314527439 0.3597381012621445
726099695 -0.7494634838615215 0.3599569714848011
726392950 -0.7484145384326172 0.3612334188537823
726686205 -0.7474089886668637 0.36138914484196305
726979460 -0.7459207816467529 0.3637111512403795
727272715 -0.7458174380083151 0.36322579653175546
727565970 -0.7449956044621349 0.36421302872935307
727859225 -0.7433940165858326 0.3652264781538039
728152480 -0.7422328892021315 0.36513653555273856
728445735 -0.7408144898323079 0.36535664303773263
728738990 -0.7397385523313823 0.3659231355095421
729032245 -0.738759371243019 0.3661248746352592
729325500 -0.7375708002569127 0.3672820344474998
729618755 -0.7365562436128162 0.3680677716239554
729912010 -0.735464977928253 0.3684948525038297
730205265 -0.7342035308376575 0.36964239393685705
730498520 -0.7332294528929385 0.369592254633384
730791775 -0.7325305906975079 0.36924371918244525
731085030 -0.7316829879759497 0.36985823700182313
731378285 -0.7302470055082204 0.3701510753737416
731671540 -0.7293013206356125 0.3710099438179608
731964795 -0.7282391024595235 0.3721922515777835
732258050 -0.7271915630183643 0.3712850594774957
732551305 -0.7261779882666463 0.3717484716270284
732844560 -0.7254278679606304 0.37222183167130635
733137815 -0.7245279574181268 0.37268111344248783
733431070 -0.7232896733371702 0.37275309826929476
733724325 -0.722504993223986 0.3726101094398962
734017580 -0.721042188255583 0.37336320454345673
734310835 -0.7199759419525339 0.3740096818964233
734604090 -0.7188222824332142 0.37427144748870783
734897345 -0.7180644972923241 0.37412564111356955
735190600 -0.7168936082233746 0.37480982455387696
735483855 -0.7167626004597446 0.3747900705921066
735777110 -0.7161786970831799 0.3734489670045019
736070365 -0.7149880424648871 0.37516022150532585
736363620 -0.7133774977545778 0.375611581195448
736656875 -0.7122571164321908 0.37677705256895366
736950130 -0.7114015276736663 0.3765667825894828
737243385 -0.7108929043377079 0.37587059681928975
737536640 -0.7098104132882719 0.3756254662530174
737829895 -0.7091316598861034 0.3758906038154591
738123150 -0.7082338714980054 0.3756171173581159
738416405 -0.7077743611635547 0.3749472775763499
738709660 -0.7066218125184845 0.37631879375978183
739002915 -0.7061633462431027 0.3760841112232796
739296170 -0.7050663175489581 0.3768974005031987
739589425 -0.7043425205961275 0.3766310151180067
739882680 -0.7035397007721834 0.37709098107836003
740175935 -0.70229566129993 0.37683360961837065
740469190 -0.7022454753685999 0.3760139830153153
740762445 -0.7006036316324631 0.3766486797846532
741055700 -0.6998506782077428 0.376684495709799
741348955 -0.6982808740385494 0.3771209336760619
741642210 -0.6979317884806717 0.3769345631210525
741935465 -0.6976909162894204 0.3762254489130609
742228720 -0.6970695885295057 0.3770596596768157
742521975 -0.6967231656820364 0.3764363043756135
742815230 -0.6960774574943952 0.3757985778172625
743108485 -0.6956765924158976 0.37563991393291857
743401740 -0.695065907525059 0.3755088974886367
743694995 -0.694441842868515 0.37614837318295935
743988250 -0.693616893520102 0.375785774918734
744281505 -0.6927407374095171 0.37596777421165645
744574760 -0.6926669208811513 0.375804112840531
744868015 -0.6923887000648346 0.3756861080176773
745161270 -0.6916677729434992 0.37646545810220505
745454525 -0.6917750067403795 0.3757853198257373
745747780 -0.6915384213550703 0.3749900670507489
746041035 -0.6912466808455912 0.3755074337899016
746334290 -0.6913520157332358 0.3745673066930645
746627545 -0.6904390744152633 0.37486322971158265
746920800 -0.6900722431879065 0.37551371730810323
747214055 -0.6901366821078435 0.3744158655127985
747507310 -0.689497575846489 0.3751145602761108
747800565 -0.6893052043434843 0.3756545651973353
748093820 -0.688965374064864 0.37601896196826184
748387075 -0.6890295874052872 0.37514308030756766
748680330 -0.6888017870317565 0.374924819909058
748973585 -0.6885330617926909 0.3749324947859336
749266840 -0.6884078131969716 0.37418451672268466
749560095 -0.6887062774672682 0.37405340361416506
749853350 -0.6885054034690264 0.37399657605787706
750146605 -0.688602804796823 0.3746626136868446
750439860 -0.6880345926901683 0.37340948035359434
750733115 -0.6876557593361035 0.3747433119676618
751026370 -0.6874522511253842 0.3741691526134819
751319625 -0.6882590205007056 0.3731469000171455
751612880 -0.6873321562601129 0.37563938461127666
751906135 -0.6879911127510647 0.3753634657837231
752199390 -0.6879250436524394 0.37502604800220246
752492645 -0.6883983324347258 0.374808951415847
752785900 -0.6890966202227801 0.37394637596797425
753079155 -0.6895867543700086 0.3745844926119672
753372410 -0.6896535833612738 0.3736773993798988
753665665 -0.6896314566204869 0.3747089760994282
753958920 -0.6897448932353261 0.3746913009719419
754252175 -0.6895478085185698 0.377089969242634
754545430 -0.6899682262007055 0.37625573121905914
754838685 -0.6899063482740154 0.37666068695252325
755131940 -0.6900271556650669 0.37727481265771873
755425195 -0.6899461559309432 0.37834337137315666
755718450 -0.6915763684824702 0.3780452307186348
756011705 -0.6915038166403515 0.3784323092831715
756304960 -0.6923840789070232 0.37881019029929824
756598215 -0.6921427745055017 0.37994721508235596
756891470 -0.6924979787591685 0.38093326416182816
757184725 -0.6923980274047276 0.38256918862969025
757477980 -0.6927017679451944 0.382832168652215
757771235 -0.6931562290597008 0.3833430376243922
758064490 -0.693104782872343 0.38448946879692275
758357745 -0.6932249694064103 0.38511773009384925
758651000 -0.6938342516170929 0.38515547412131496
758944255 -0.6933959357861014 0.3862029390485614
759237510 -0.6938423061958408 0.3866952421720032
759530765 -0.6942248594455184 0.38751290045772274
759824020 -0.6938136457203816 0.38838118940069977
760117275 -0.6937989803599264 0.38958079192371864
760410530 -0.6938069830501477 0.389441821050327
760703785 -0.6930883207596908 0.39137358656883986
760997040 -0.6932448149614534 0.39245612515292866
761290295 -0.6935195252637938 0.39197332436262877
761583550 -0.693619241929284 0.39351303730607096
761876805 -0.6939040308886917 0.3948233547132863
762170060 -0.6933777642375277 0.39522518025054054
762463315 -0.69356490759263 0.3964102271856264
762756570 -0.6926650015779878 0.39935730153243243
763049825 -0.6925424553723256 0.3989754705644961
763343080 -0.6929413008691085 0.39897007510828325
763636335 -0.6916971614421382 0.4008096033793106
763929590 -0.6923618617133716 0.40099603160539343
764222845 -0.6927997682610171 0.40211205928749694
764516100 -0.6918471861174637 0.4027627170041663
764809355 -0.6910550683555629 0.40398809871938407
765102610 -0.6918527366980461 0.4042063576788241
765395865 -0.6913221139203566 0.4056181788911339
765689120 -0.691322690802732 0.40688400315348683
765982375 -0.6911541605374156 0.406834859263536
766275630 -0.6906719073750901 0.4079319100325021
766568885 -0.6914235737208667 0.4094532906586514
766862140 -0.6906029651674496 0.409945617734371
767155395 -0.6902840736792583 0.41132284865479435
767448650 -0.6902748877348066 0.4120980427081491
767741905 -0.6903839959204512 0.4125105952952319
768035160 -0.6900110020542676 0.41273491140570345
768328415 -0.6890294575936549 0.41413070201602953
768621670 -0.6892868936821734 0.4138107367318386
768914925 -0.6890224390561549 0.4154309625853146
769208180 -0.6881670246999051 0.4163430493196261
769501435 -0.6873026667173032 0.41784223686884253
769794690 -0.6869836591300842 0.41888952525937784
770087945 -0.6871386952401227 0.42033644885912846
770381200 -0.686695420526941 0.4210130653513569
770674455 -0.6867643365450677 0.4216496988452794
770967710 -0.6863954708320631 0.4227703285379144
771260965 -0.686113194936084 0.4235062168254959
771554220 -0.6864374722186025 0.4247998695250929
771847475 -0.6863216150396512 0.42596426830196776
772140730 -0.685932730918217 0.4267673524026968
772433985 -0.685604620458822 0.4272902360091226
772727240 -0.6851667039488193 0.4278562112077188
773020495 -0.6855726190960435 0.4292958864837098
773313750 -0.6855189923655062 0.4313524831021554
773607005 -0.6854294333666333 0.4310758096786007
773900260 -0.68503244184369 0.4319996947610174
774193515 -0.6856148571496546 0.43201211177131504
774486770 -0.6841713304102679 0.43346502126725006
774780025 -0.6847937073498115 0.4338590491837546
775073280 -0.6834661711851645 0.43594235712726237
775366535 -0.6842374050171561 0.4364691821277554
775659790 -0.6826552426536224 0.4382366417174525
775953045 -0.6829570268797006 0.4388702110473949
776246300 -0.6830459191952087 0.43968128099769366
776539555 -0.682952893874935 0.43980844797874014
776832810 -0.6831472966679052 0.44083767800563534
777126065 -0.6827452481246081 0.44147231449106833
777419320 -0.6810312530112358 0.4425216859534876
777712575 -0.6810437320479452 0.4438154249184265
778005830 -0.6807861078228534 0.44518450310180996
778299085 -0.681370805912418 0.44583245545103045
778592340 -0.6821439978082419 0.44692073987749603
778885595 -0.6820365272010419 0.44779310210976103
779178850 -0.6800526086117952 0.4499128026386691
779472105 -0.6801468197316388 0.4510568323735122
779765360 -0.678850102555505 0.45278774498367536
780058615 -0.6787341114135775 0.45345245091557984
780351870 -0.6775342794247676 0.45449516800628237
780645125 -0.6780295652935038 0.4552883305971151
780938380 -0.6764869663110916 0.455765614156287
781231635 -0.6765989719415824 0.45784030778125073
781524890 -0.6754561471524003 0.4592756824201614
781818145 -0.6750519874972838 0.4604274595195937
782111400 -0.6745011277809697 0.46115152822785765
782404655 -0.6744125658326686 0.46204488789925263
782697910 -0.6735498766451601 0.46334429768540936
782991165 -0.6723932493503405 0.46502350558644384
783284420 -0.6720302606734668 0.46509703346499054
783577675 -0.6723015611073911 0.4655391005761061
783870930 -0.6710424884332963 0.46806121186118005
784164185 -0.6700495396204913 0.4680515034113904
784457440 -0.6695851045581844 0.4697499385964814
784750695 -0.6697508546711751 0.4696500358006355
785043950 -0.6686703166735442 0.4724336153346989
785337205 -0.66841630717522 0.47223030378326103
785630460 -0.6681222893296059 0.47247700429576234
785923715 -0.6670745151570223 0.4743409513533204
786216970 -0.6672478729611397 0.47614815076979344
786510225 -0.6669574690247997 0.4755060814368022
786803480 -0.6661414784285568 0.47717825924361534
787096735 -0.6656963241676926 0.47789199475056815
787389990 -0.6651862728485323 0.47894926516828534
787683245 -0.6645758490939279 0.4808030399042113
787976500 -0.6635822813268659 0.4803456127348992
788269755 -0.6633558001180919 0.48083976693824865
788563010 -0.6629816093742358 0.48317547066623834
788856265 -0.6631119613482669 0.48421402555426957
789149520 -0.6621504950457282 0.48550064568262724
789442775 -0.6615285287941723 0.4859096671618351
789736030 -0.6615883758764202 0.4870480386595862
790029285 -0.6608570755806993 0.48802587105016915
790322540 -0.6610122956336836 0.4890849518050395
790615795 -0.6594149444456889 0.48968938895911096
790909050 -0.6584718406493406 0.4905143548942077
791202305 -0.6574649666916031 0.49140359232026876
791495560 -0.6564959325324595 0.4924840686635361
791788815 -0.6569004928716117 0.49382048171334436
792082070 -0.6560268223213287 0.49496761982479964
792375325 -0.6550593018074613 0.4956196947818139
792668580 -0.6535253476804999 0.4972393054523561
792961835 -0.6531310582381887 0.49817075567808666
793255090 -0.6516887154191028 0.49946751922427357
793548345 -0.6517049071619867 0.49949677208754234
793841600 -0.6512256085931801 0.5006685545167363
794134855 -0.6509358637172654 0.5021083524662313
794428110 -0.6495805988630649 0.5034861534249627
794721365 -0.6496088690131655 0.5048350855764342
795014620 -0.6493675870077924 0.505922495189555
795307875 -0.6482989108056272 0.506680318579481
795601130 -0.6473604972922545 0.5071750464105863
795894385 -0.6465665690116702 0.5092361362364973
796187640 -0.6461141029238668 0.509402791329221
796480895 -0.6454065392256698 0.5104821325859046
796774150 -0.6454980733290296 0.5107281343957832
797067405 -0.6445046451007345 0.5126233378995035
797360660 -0.6441192156399772 0.5132437400588743
797653915 -0.6443948875679419 0.5132617469303294
797947170 -0.6421623023487087 0.5153412863829404
798240425 -0.6431137505383592 0.5162610070959556
798533680 -0.6415718149121828 0.5169760386618825
798826935 -0.641128102191502 0.5184532804490815
799120190 -0.6390332537138178 0.520269976643082
799413445 -0.6397048663722377 0.5203860991172518
799706700 -0.6393052871781438 0.5221657747850674
799999955 -0.6380353614464823 0.5238595794169912
800293210 -0.6387597701244241 0.5237595285389248
800586465 -0.6383880166575262 0.525305262640426
800879720 -0.6365610590749248 0.5271625929999483
801172975 -0.6368492805730502 0.5268950591539998
801466230 -0.6359292548216459 0.5279932108807412
801759485 -0.6350409147522118 0.5288173477577275
802052740 -0.6339195677628716 0.5307029034417349
802345995 -0.6333322679521974 0.5307631902563511
802639250 -0.6321434188473491 0.5326074663924549
802932505 -0.6309595473772184 0.5337242455724285
803225760 -0.6305378895624171 0.5346603479107714
803519015 -0.6301641948185686 0.5361755139199402
803812270 -0.6289465341918827 0.5378867739643003
804105525 -0.6290393032413795 0.5384164526098915
804398780 -0.6279039021644843 0.5400609721294333
804692035 -0.6274746664484554 0.5411988005882222
804985290 -0.6266265140119205 0.5419509231067003
805278545 -0.6248675036198821 0.5422603787597408
805571800 -0.6240335946278529 0.5431557241185769
805865055 -0.6226680979143834 0.5442039916990422
806158310 -0.6211340347398219 0.5455717952811622
806451565 -0.6199416223272658 0.5467648667416082
806744820 -0.6189917206809026 0.547465857187446
807038075 -0.6185517921170467 0.5487557239840581
807331330 -0.6177990538612195 0.5499339543223662
807624585 -0.617114457951744 0.5500550850479738
807917840 -0.6167078550295358 0.5509430828827608
808211095 -0.6147751407708527 0.5523606738349497
808504350 -0.6144223446644549 0.5529730991066498
808797605 -0.6133854649409981 0.5536986561783571
809090860 -0.6113070263046629 0.5548712798048303
809384115 -0.6110071085809659 0.5554445936130783
809677370 -0.6108355920513515 0.5562301582664451
809970625 -0.6078589571288093 0.5557647394999075
810263880 -0.6089479894177662 0.5580939039969413
810557135 -0.6082115247015952 0.5582187476602208
810850390 -0.606623686556644 0.5596676003728209
811143645 -0.6063281089438864 0.5606095755496465
811436900 -0.6054874028877095 0.5611832042053755
811730155 -0.6042159755799745 0.5625403758745603
812023410 -0.6040837053343404 0.5623051754655355
812316665 -0.6038113828964796 0.5639094338079061
812609920 -0.6023510795768652 0.5638498521589373
812903175 -0.6010746882885636 0.5653846453176098
813196430 -0.6016949230031725 0.5653301594529561
813489685 -0.6007535348856253 0.5662345985435467
813782940 -0.5987301425377155 0.5684088247786544
814076195 -0.5999073982696367 0.5675369619182675
814369450 -0.5974584526464554 0.5704684226386608
814662705 -0.5958242782585308 0.5711721493287694
814955960 -0.5970012179154461 0.5707239275100943
815249215 -0.5963443104000657 0.5717533824389686
815542470 -0.59591738314429 0.5731170803684982
815835725 -0.5953813455683334 0.5739213212652762
816128980 -0.5939813582408877 0.5757332366277631
816422235 -0.5924742748252334 0.5752783452356098
816715490 -0.5909679074387653 0.5770334230142579
817008745 -0.5906658594947972 0.5780195065941507
817302000 -0.5898612014889519 0.5783666402735812
817595255 -0.5886766987464235 0.5802211020337167
817888510 -0.5889641405955249 0.5801811938749833
818181765 -0.5875305686415297 0.581423049509072
818475020 -0.5870174311296776 0.5820192761772989
818768275 -0.5855441024627016 0.5832493323368056
