# HZ S RI R 50
500000000 -0.08366802334785461 -0.03535447642207146 -0.16698859632015228 -1.0867384672164917 0 0 0 0
500312500 -0.08380050957202911 -0.03539419546723366 -0.17249496281147003 -1.086459755897522 0 0 0 0
500625000 -0.08391473442316055 -0.03543558344244957 -0.17790451645851135 -1.0858814716339111 0 0 0 0
500937500 -0.08399789035320282 -0.03535179793834686 -0.18393433094024658 -1.0856261253356934 0 0 0 0
501250000 -0.08386155962944031 -0.03535812348127365 -0.1893952339887619 -1.0842381715774536 0 0 0 0
501562500 -0.08407110720872879 -0.03553388640284538 -0.19447210431098938 -1.0833271741867065 0 0 0 0
501875000 -0.08415768295526505 -0.03549366444349289 -0.20018121600151062 -1.0824435949325562 0 0 0 0
502187500 -0.08418940752744675 -0.03550281003117561 -0.20495876669883728 -1.0817784070968628 0 0 0 0
502500000 -0.08436021953821182 -0.03554095700383186 -0.21093802154064178 -1.081238865852356 0 0 0 0
502812500 -0.08452437072992325 -0.03543837368488312 -0.21751341223716736 -1.0795750617980957 0 0 0 0
503125000 -0.08445000648498535 -0.03546545282006264 -0.2220001071691513 -1.0784332752227783 0 0 0 0
503437500 -0.08460026979446411 -0.03544232249259949 -0.22781676054000854 -1.0774325132369995 0 0 0 0
503750000 -0.08458787202835083 -0.03546081483364105 -0.23257805407047272 -1.075722575187683 0 0 0 0
504062500 -0.08483154326677322 -0.035493556410074234 -0.23816260695457458 -1.0751440525054932 0 0 0 0
504375000 -0.08483655005693436 -0.03568588197231293 -0.2430150806903839 -1.0744503736495972 0 0 0 0
504687500 -0.08496962487697601 -0.03546931967139244 -0.24934406578540802 -1.072155475616455 0 0 0 0
505000000 -0.08502057194709778 -0.035482924431562424 -0.25570032000541687 -1.0707677602767944 0 0 0 0
505312500 -0.08507200330495834 -0.035434141755104065 -0.2598404288291931 -1.0707608461380005 0 0 0 0
505625000 -0.0852174162864685 -0.035390615463256836 -0.2661191523075104 -1.068743109703064 0 0 0 0
505937500 -0.08534536510705948 -0.03541315719485283 -0.2716773748397827 -1.0672967433929443 0 0 0 0
506250000 -0.08537129312753677 -0.03550870716571808 -0.27620384097099304 -1.066364049911499 0 0 0 0
506562500 -0.08545859903097153 -0.0355151891708374 -0.281390905380249 -1.0645949840545654 0 0 0 0
506875000 -0.08557268977165222 -0.03552893176674843 -0.28725022077560425 -1.063818097114563 0 0 0 0
507187500 -0.08574549108743668 -0.03545523062348366 -0.2926778793334961 -1.0616141557693481 0 0 0 0
507500000 -0.08576089143753052 -0.0353730134665966 -0.29928332567214966 -1.060206413269043 0 0 0 0
507812500 -0.08589545637369156 -0.035370901226997375 -0.30398404598236084 -1.0594531297683716 0 0 0 0
508125000 -0.08600527793169022 -0.03554951027035713 -0.309034138917923 -1.0575926303863525 0 0 0 0
508437500 -0.08608926832675934 -0.035411346703767776 -0.313987672328949 -1.056203842163086 0 0 0 0
508750000 -0.0860416516661644 -0.035355981439352036 -0.31983333826065063 -1.0539919137954712 0 0 0 0
509062500 -0.08633334934711456 -0.03543677181005478 -0.3244534730911255 -1.0530545711517334 0 0 0 0
509375000 -0.08625335246324539 -0.035388924181461334 -0.3301224112510681 -1.0518558025360107 0 0 0 0
509687500 -0.08642733097076416 -0.035512831062078476 -0.33613264560699463 -1.0499521493911743 0 0 0 0
510000000 -0.08662284910678864 -0.035400040447711945 -0.34115487337112427 -1.0474904775619507 0 0 0 0
510312500 -0.08659965544939041 -0.035334810614585876 -0.34733209013938904 -1.0468032360076904 0 0 0 0
510625000 -0.08667837083339691 -0.03541107848286629 -0.35108068585395813 -1.0447767972946167 0 0 0 0
510937500 -0.0868270993232727 -0.03524398058652878 -0.3571019768714905 -1.042529821395874 0 0 0 0
511250000 -0.08696873486042023 -0.035368163138628006 -0.36274269223213196 -1.0406463146209717 0 0 0 0
511562500 -0.08698362112045288 -0.03530731797218323 -0.3677363991737366 -1.0387368202209473 0 0 0 0
511875000 -0.0871797502040863 -0.035247236490249634 -0.3732088804244995 -1.0370889902114868 0 0 0 0
512187500 -0.08722937107086182 -0.03513365983963013 -0.37853163480758667 -1.0350608825683594 0 0 0 0
512500000 -0.08725030720233917 -0.0353800468146801 -0.3836730718612671 -1.0337674617767334 0 0 0 0
512812500 -0.08745266497135162 -0.0352209210395813 -0.3884962201118469 -1.0319679975509644 0 0 0 0
513125000 -0.08746010065078735 -0.035249263048172 -0.3938908874988556 -1.029977798461914 0 0 0 0
513437500 -0.08753068745136261 -0.03523086756467819 -0.3998717665672302 -1.027672290802002 0 0 0 0
513750000 -0.08764760941267014 -0.035226039588451385 -0.4045107662677765 -1.0259270668029785 0 0 0 0
514062500 -0.08773408830165863 -0.03522687777876854 -0.4101066291332245 -1.0239248275756836 0 0 0 0
514375000 -0.08789220452308655 -0.03508150205016136 -0.4151916801929474 -1.0218596458435059 0 0 0 0
514687500 -0.08797067403793335 -0.03506362810730934 -0.4204931855201721 -1.0197454690933228 0 0 0 0
515000000 -0.0880114957690239 -0.035075023770332336 -0.4253813922405243 -1.017359972000122 0 0 0 0
515312500 -0.08813594281673431 -0.035068340599536896 -0.4311475157737732 -1.0146561861038208 0 0 0 0
515625000 -0.08819596469402313 -0.03490440547466278 -0.4361315965652466 -1.0131804943084717 0 0 0 0
515937500 -0.08832097053527832 -0.03496009111404419 -0.44063258171081543 -1.0115785598754883 0 0 0 0
516250000 -0.08842406421899796 -0.034892041236162186 -0.44620776176452637 -1.0084830522537231 0 0 0 0
516562500 -0.08853890746831894 -0.03489574044942856 -0.4512735605239868 -1.0065677165985107 0 0 0 0
516875000 -0.08867942541837692 -0.0349256806075573 -0.45599207282066345 -1.0046343803405762 0 0 0 0
517187500 -0.0887988731265068 -0.03486103564500809 -0.46136215329170227 -1.001719355583191 0 0 0 0
517500000 -0.08886564522981644 -0.03466768190264702 -0.4669879078865051 -0.9998103976249695 0 0 0 0
517812500 -0.08899406343698502 -0.034899961203336716 -0.4721525311470032 -0.9974851012229919 0 0 0 0
518125000 -0.08907638490200043 -0.03463366627693176 -0.47703662514686584 -0.9948017001152039 0 0 0 0
518437500 -0.0892271175980568 -0.03463985025882721 -0.48279038071632385 -0.9927465319633484 0 0 0 0
518750000 -0.0892755538225174 -0.034699369221925735 -0.4869327247142792 -0.990048885345459 0 0 0 0
519062500 -0.08931691199541092 -0.03449654579162598 -0.4931494891643524 -0.9868993759155273 0 0 0 0
519375000 -0.08952466398477554 -0.03455984964966774 -0.4965287148952484 -0.9851423501968384 0 0 0 0
519687500 -0.08953520655632019 -0.03451159596443176 -0.5015994906425476 -0.9828253984451294 0 0 0 0
520000000 -0.08962342143058777 -0.034400247037410736 -0.5080835223197937 -0.9793894290924072 0 0 0 0
520312500 -0.08974883705377579 -0.03460145741701126 -0.5120827555656433 -0.9773620367050171 0 0 0 0
520625000 -0.08980236202478409 -0.0344521626830101 -0.5171670317649841 -0.9752606749534607 0 0 0 0
520937500 -0.0899571105837822 -0.03442896530032158 -0.5214793682098389 -0.973010778427124 0 0 0 0
521250000 -0.09003663808107376 -0.03436754643917084 -0.5265209078788757 -0.9701056480407715 0 0 0 0
521562500 -0.09024906903505325 -0.034201860427856445 -0.5320277810096741 -0.9670397639274597 0 0 0 0
521875000 -0.09032189100980759 -0.034166548401117325 -0.5371253490447998 -0.9643676280975342 0 0 0 0
522187500 -0.09038273245096207 -0.034181512892246246 -0.5422404408454895 -0.9617102742195129 0 0 0 0
522500000 -0.09050459414720535 -0.03391455486416817 -0.5471597909927368 -0.9590675830841064 0 0 0 0
522812500 -0.09059799462556839 -0.033939607441425323 -0.5519894957542419 -0.956333339214325 0 0 0 0
523125000 -0.09063135087490082 -0.03402932733297348 -0.5563294291496277 -0.9534218311309814 0 0 0 0
523437500 -0.09083596616983414 -0.033892612904310226 -0.5612396597862244 -0.9507969617843628 0 0 0 0
523750000 -0.09087539464235306 -0.03379099816083908 -0.5662986040115356 -0.9471955895423889 0 0 0 0
524062500 -0.09092473238706589 -0.03380345180630684 -0.5711193680763245 -0.9447087049484253 0 0 0 0
524375000 -0.09105454385280609 -0.03388269618153572 -0.5764688849449158 -0.9414336085319519 0 0 0 0
524687500 -0.09127820283174515 -0.03373895213007927 -0.5812063813209534 -0.9390865564346313 0 0 0 0
525000000 -0.0913187712430954 -0.033578988164663315 -0.5858798623085022 -0.9365890026092529 0 0 0 0
525312500 -0.09131032973527908 -0.033598367124795914 -0.5900787711143494 -0.9333844780921936 0 0 0 0
525625000 -0.09155480563640594 -0.033512961119413376 -0.5950176119804382 -0.9296101927757263 0 0 0 0
525937500 -0.09162116050720215 -0.03349451348185539 -0.5990492105484009 -0.9270912408828735 0 0 0 0
526250000 -0.09170075505971909 -0.03335009142756462 -0.6047224998474121 -0.9238559603691101 0 0 0 0
526562500 -0.09180589020252228 -0.03322693333029747 -0.6096308827400208 -0.9211257100105286 0 0 0 0
526875000 -0.09200391918420792 -0.03324354439973831 -0.6140433549880981 -0.9178898334503174 0 0 0 0
527187500 -0.09179273992776871 -0.033269207924604416 -0.6183258295059204 -0.9144254326820374 0 0 0 0
527500000 -0.09208625555038452 -0.03290998935699463 -0.624161958694458 -0.9108136296272278 0 0 0 0
527812500 -0.09213899075984955 -0.03291184455156326 -0.6281577348709106 -0.9083038568496704 0 0 0 0
528125000 -0.09235212951898575 -0.03288191929459572 -0.632371187210083 -0.9054402709007263 0 0 0 0
528437500 -0.0924639031291008 -0.03286707028746605 -0.6372883915901184 -0.902032196521759 0 0 0 0
528750000 -0.09254524111747742 -0.03293607011437416 -0.642245352268219 -0.8986156582832336 0 0 0 0
529062500 -0.09264645725488663 -0.03279656171798706 -0.6468514204025269 -0.895415723323822 0 0 0 0
529375000 -0.09272190183401108 -0.03273211792111397 -0.6510149240493774 -0.8925039768218994 0 0 0 0
529687500 -0.09279673546552658 -0.03248365595936775 -0.6558516025543213 -0.8885820508003235 0 0 0 0
530000000 -0.09285861998796463 -0.03252016380429268 -0.6606535315513611 -0.8847470879554749 0 0 0 0
530312500 -0.09300264716148376 -0.032421261072158813 -0.665250301361084 -0.8814600706100464 0 0 0 0
530625000 -0.09300108999013901 -0.03242901712656021 -0.6693601012229919 -0.8787216544151306 0 0 0 0
530937500 -0.09322528541088104 -0.032398007810115814 -0.6733353734016418 -0.8766134977340698 0 0 0 0
531250000 -0.09314621984958649 -0.032126281410455704 -0.6784397959709167 -0.8718171119689941 0 0 0 0
531562500 -0.09336620569229126 -0.03201869875192642 -0.6825582981109619 -0.8679660558700562 0 0 0 0
531875000 -0.09336110204458237 -0.03198128566145897 -0.6872310042381287 -0.8653415441513062 0 0 0 0
532187500 -0.0935961976647377 -0.031908050179481506 -0.6919464468955994 -0.8608123660087585 0 0 0 0
532500000 -0.09371849149465561 -0.03185534477233887 -0.6956944465637207 -0.8585931062698364 0 0 0 0
532812500 -0.09379193931818008 -0.03173534572124481 -0.7000179290771484 -0.8547771573066711 0 0 0 0
533125000 -0.093727245926857 -0.031641677021980286 -0.7043678760528564 -0.8506934642791748 0 0 0 0
533437500 -0.0939071774482727 -0.03157053887844086 -0.7088425755500793 -0.8473497629165649 0 0 0 0
533750000 -0.09412946552038193 -0.031376954168081284 -0.7131975293159485 -0.8436878323554993 0 0 0 0
534062500 -0.09421559423208237 -0.03134782612323761 -0.7187514305114746 -0.8394389152526855 0 0 0 0
534375000 -0.09415926784276962 -0.03131166100502014 -0.7221810817718506 -0.8367630243301392 0 0 0 0
534687500 -0.09438535571098328 -0.031184835359454155 -0.726677417755127 -0.8322107195854187 0 0 0 0
535000000 -0.09440676122903824 -0.031030192971229553 -0.7307543158531189 -0.8292645812034607 0 0 0 0
535312500 -0.09449635446071625 -0.030985360965132713 -0.7346633672714233 -0.8255260586738586 0 0 0 0
535625000 -0.09461145102977753 -0.030820786952972412 -0.7389394640922546 -0.8214964270591736 0 0 0 0
535937500 -0.09469552338123322 -0.030713558197021484 -0.7430341243743896 -0.818413496017456 0 0 0 0
536250000 -0.09491337090730667 -0.03064282052218914 -0.7477113604545593 -0.813696026802063 0 0 0 0
536562500 -0.09481446444988251 -0.03051365539431572 -0.7517060041427612 -0.8102278709411621 0 0 0 0
536875000 -0.09481004625558853 -0.030460810288786888 -0.755603551864624 -0.8067931532859802 0 0 0 0
537187500 -0.09508465975522995 -0.030332067981362343 -0.7596977353096008 -0.8026617169380188 0 0 0 0
537500000 -0.09517009556293488 -0.030206022784113884 -0.7632484436035156 -0.7990073561668396 0 0 0 0
537812500 -0.09506916254758835 -0.030133459717035294 -0.7678461074829102 -0.7948658466339111 0 0 0 0
538125000 -0.09532477706670761 -0.030107242986559868 -0.7715595960617065 -0.7913440465927124 0 0 0 0
538437500 -0.09538377821445465 -0.029775507748126984 -0.7761397361755371 -0.786446750164032 0 0 0 0
538750000 -0.09540708363056183 -0.029833471402525902 -0.7797634601593018 -0.783068060874939 0 0 0 0
539062500 -0.09551180154085159 -0.029599204659461975 -0.7832982540130615 -0.7793727517127991 0 0 0 0
539375000 -0.09558206796646118 -0.02952047996222973 -0.7883048057556152 -0.7747224569320679 0 0 0 0
539687500 -0.09568141400814056 -0.029381541535258293 -0.7926238775253296 -0.7708438634872437 0 0 0 0
540000000 -0.09578611701726913 -0.02935834415256977 -0.795979380607605 -0.7664877772331238 0 0 0 0
540312500 -0.09594083577394485 -0.029226528480648994 -0.7995126247406006 -0.7633582949638367 0 0 0 0
540625000 -0.0958927720785141 -0.029111001640558243 -0.8039737939834595 -0.7590082287788391 0 0 0 0
540937500 -0.09600431472063065 -0.028846783563494682 -0.8070950508117676 -0.7547473907470703 0 0 0 0
541250000 -0.09616128355264664 -0.028802994638681412 -0.8115924000740051 -0.7501091957092285 0 0 0 0
541562500 -0.09622502326965332 -0.028689749538898468 -0.8151687383651733 -0.7465289235115051 0 0 0 0
541875000 -0.09640661627054214 -0.028625808656215668 -0.8189597725868225 -0.7424126267433167 0 0 0 0
542187500 -0.09624587744474411 -0.02845589630305767 -0.8229348659515381 -0.7372879981994629 0 0 0 0
542500000 -0.096298947930336 -0.028310751542448997 -0.826489269733429 -0.7343136668205261 0 0 0 0
542812500 -0.09641187638044357 -0.028151536360383034 -0.830507755279541 -0.7294178009033203 0 0 0 0
543125000 -0.0964864045381546 -0.02806033380329609 -0.8336507081985474 -0.7259896397590637 0 0 0 0
543437500 -0.09662073105573654 -0.027850080281496048 -0.837566614151001 -0.7213951349258423 0 0 0 0
543750000 -0.0966544821858406 -0.02771342359483242 -0.8412229418754578 -0.7166962623596191 0 0 0 0
544062500 -0.09685845673084259 -0.027444181963801384 -0.8450404405593872 -0.7126661539077759 0 0 0 0
544375000 -0.09678878635168076 -0.027576295658946037 -0.8488592505455017 -0.7083573937416077 0 0 0 0
544687500 -0.09690891951322556 -0.027389347553253174 -0.85228031873703 -0.7042895555496216 0 0 0 0
545000000 -0.09694765508174896 -0.027308570221066475 -0.8558915853500366 -0.6999158263206482 0 0 0 0
545312500 -0.0970175638794899 -0.027095844969153404 -0.8592352867126465 -0.6957648992538452 0 0 0 0
545625000 -0.09713209420442581 -0.026997903361916542 -0.8631054162979126 -0.6903951168060303 0 0 0 0
545937500 -0.09716279804706573 -0.026800336316227913 -0.8671362400054932 -0.6859163045883179 0 0 0 0
546250000 -0.0971839502453804 -0.02671824023127556 -0.8704525232315063 -0.6818057894706726 0 0 0 0
546562500 -0.09730719774961472 -0.026568155735731125 -0.8733444809913635 -0.6778732538223267 0 0 0 0
546875000 -0.09733551740646362 -0.026393918320536613 -0.8766390085220337 -0.6735777854919434 0 0 0 0
547187500 -0.09742734581232071 -0.02628197893500328 -0.8801417350769043 -0.6688228249549866 0 0 0 0
547500000 -0.09750533103942871 -0.02616172283887863 -0.8831018209457397 -0.6648709177970886 0 0 0 0
547812500 -0.0976334810256958 -0.025926152244210243 -0.8869673013687134 -0.6595599055290222 0 0 0 0
548125000 -0.0976254940032959 -0.025838693603873253 -0.8915550112724304 -0.6550211310386658 0 0 0 0
548437500 -0.09748172760009766 -0.025765320286154747 -0.8936664462089539 -0.6510845422744751 0 0 0 0
548750000 -0.09766561537981033 -0.02563515119254589 -0.8971171379089355 -0.646750807762146 0 0 0 0
549062500 -0.09779790788888931 -0.025391139090061188 -0.9005998969078064 -0.6415224075317383 0 0 0 0
549375000 -0.09789913147687912 -0.025185419246554375 -0.9037848114967346 -0.6365464925765991 0 0 0 0
549687500 -0.0979306623339653 -0.025057969614863396 -0.9075384140014648 -0.6321622133255005 0 0 0 0
550000000 -0.09789803624153137 -0.02485715225338936 -0.9109413623809814 -0.6271695494651794 0 0 0 0
550312500 -0.09797828644514084 -0.024799911305308342 -0.9133579730987549 -0.6232424974441528 0 0 0 0
550625000 -0.09798271209001541 -0.024585964158177376 -0.9164118766784668 -0.6179834008216858 0 0 0 0
550937500 -0.09813643246889114 -0.024410098791122437 -0.9195576310157776 -0.6132450103759766 0 0 0 0
551250000 -0.09802501648664474 -0.02439669892191887 -0.9228441119194031 -0.6097323894500732 0 0 0 0
551562500 -0.09830211848020554 -0.024115601554512978 -0.9256845712661743 -0.6042304635047913 0 0 0 0
551875000 -0.098136767745018 -0.02406417950987816 -0.9293938279151917 -0.5999715328216553 0 0 0 0
552187500 -0.09816103428602219 -0.023873617872595787 -0.931895911693573 -0.5951182842254639 0 0 0 0
552500000 -0.09825670719146729 -0.023720290511846542 -0.9346528649330139 -0.5910816192626953 0 0 0 0
552812500 -0.09829960018396378 -0.02360541559755802 -0.9380691051483154 -0.5858606100082397 0 0 0 0
553125000 -0.09832238405942917 -0.023264536634087563 -0.9413501024246216 -0.5808162093162537 0 0 0 0
553437500 -0.09833981096744537 -0.02317156456410885 -0.944452166557312 -0.5755841135978699 0 0 0 0
553750000 -0.09840144962072372 -0.023056145757436752 -0.947055459022522 -0.5713463425636292 0 0 0 0
554062500 -0.09832271933555603 -0.022887075319886208 -0.9498730301856995 -0.5663188099861145 0 0 0 0
554375000 -0.098444364964962 -0.022683164104819298 -0.9527108669281006 -0.5613285899162292 0 0 0 0
554687500 -0.09841734170913696 -0.02250148542225361 -0.9553306698799133 -0.5560222268104553 0 0 0 0
555000000 -0.09853295236825943 -0.02244841493666172 -0.9580017328262329 -0.5519802570343018 0 0 0 0
555312500 -0.09872250258922577 -0.022235259413719177 -0.9612903594970703 -0.5463912487030029 0 0 0 0
555625000 -0.09863822162151337 -0.021988335996866226 -0.9646034240722656 -0.5403050184249878 0 0 0 0
555937500 -0.09855304658412933 -0.022111060097813606 -0.9664598703384399 -0.5378690361976624 0 0 0 0
556250000 -0.09872452914714813 -0.021705763414502144 -0.9697444438934326 -0.5323766469955444 0 0 0 0
556562500 -0.09875772893428802 -0.02157723903656006 -0.972263753414154 -0.5274118185043335 0 0 0 0
556875000 -0.09880059212446213 -0.021432315930724144 -0.9749705791473389 -0.5221074223518372 0 0 0 0
557187500 -0.09874920547008514 -0.021119313314557076 -0.9768083691596985 -0.5174845457077026 0 0 0 0
557500000 -0.09876880794763565 -0.02097362093627453 -0.980232834815979 -0.5123671889305115 0 0 0 0
557812500 -0.09871628880500793 -0.020859701558947563 -0.982999861240387 -0.5070660710334778 0 0 0 0
558125000 -0.09883880615234375 -0.02065962925553322 -0.985295832157135 -0.5030033588409424 0 0 0 0
558437500 -0.09893199801445007 -0.02051575295627117 -0.9880759716033936 -0.4977259933948517 0 0 0 0
558750000 -0.09870652854442596 -0.020294085144996643 -0.9901230335235596 -0.49196669459342957 0 0 0 0
559062500 -0.09884630888700485 -0.020159389823675156 -0.9930604696273804 -0.48721593618392944 0 0 0 0
559375000 -0.09894847124814987 -0.019919851794838905 -0.9955050349235535 -0.48217740654945374 0 0 0 0
559687500 -0.09898857772350311 -0.01985093392431736 -0.9981892108917236 -0.47716495394706726 0 0 0 0
560000000 -0.0988873839378357 -0.01957409828901291 -1.0005578994750977 -0.47184762358665466 0 0 0 0
560312500 -0.09897559881210327 -0.019448617473244667 -1.002962589263916 -0.46679311990737915 0 0 0 0
560625000 -0.0989624485373497 -0.01928572729229927 -1.004860281944275 -0.4616737365722656 0 0 0 0
560937500 -0.09887686371803284 -0.01907273195683956 -1.0075289011001587 -0.45604193210601807 0 0 0 0
561250000 -0.09900689125061035 -0.018907660618424416 -1.0102800130844116 -0.4506361782550812 0 0 0 0
561562500 -0.09894882142543793 -0.018749218434095383 -1.0123591423034668 -0.4466876983642578 0 0 0 0
561875000 -0.09895967692136765 -0.01860673353075981 -1.0149366855621338 -0.43984007835388184 0 0 0 0
