# HZ S RI R 50
500000000 -0.030302034070094425 -0.04127175981799761 -0.9218780795733134 0.5586580435434977 0 0 0 0
500977517 -0.03087877792616685 -0.04068600883086522 -0.9176891446113586 0.5669142802556355 0 0 0 0
501955034 -0.031001036365826923 -0.04072043920556704 -0.9136431614557902 0.573230226834615 0 0 0 0
502932551 -0.03131298596660296 -0.040213360140721 -0.9087678988774617 0.5803106029828389 0 0 0 0
503910068 -0.03130391178031762 -0.04002522553006808 -0.9051833152770996 0.5866926511128743 0 0 0 0
504887585 -0.031794335693120956 -0.039698718736569084 -0.9006117781003316 0.5931177934010823 0 0 0 0
505865102 -0.03204879413048426 -0.039261724799871445 -0.8958088954289753 0.6004409988721211 0 0 0 0
506842619 -0.03214281176527341 -0.03898450111349423 -0.8923174341519673 0.6069726149241129 0 0 0 0
507820136 -0.03266118715206782 -0.03860104829072952 -0.8872530857721964 0.6137552261352539 0 0 0 0
508797653 -0.03282196819782257 -0.038165145864089325 -0.8831512133280436 0.6207559506098429 0 0 0 0
509775171 -0.03301735843221346 -0.03798263147473335 -0.8783968885739644 0.6271008849143982 0 0 0 0
510752688 -0.0332937774558862 -0.03757728263735771 -0.873841901620229 0.6340078711509705 0 0 0 0
511730205 -0.03337275609374046 -0.037300166984399155 -0.8693280021349589 0.6409656604131062 0 0 0 0
512707722 -0.03373975430925687 -0.036739575366179146 -0.8639880021413167 0.6476347843805949 0 0 0 0
513685239 -0.03384026139974594 -0.03643026699622472 -0.859669009844462 0.6534302433331807 0 0 0 0
514662756 -0.034016078958908715 -0.0359217735628287 -0.854618767897288 0.660460352897644 0 0 0 0
515640273 -0.03413500264286995 -0.035626206547021866 -0.8494354685147603 0.6667194763819376 0 0 0 0
516617790 -0.034394374738136925 -0.03513555849591891 -0.8446152011553446 0.6733603477478027 0 0 0 0
517595307 -0.03435547277331352 -0.03477717066804568 -0.83945232629776 0.6798250675201416 0 0 0 0
518572825 -0.034544202188650765 -0.03436252226432164 -0.8353589574495951 0.6857791940371195 0 0 0 0
519550342 -0.034736664344867066 -0.03390815481543541 -0.8293536305427551 0.6927195191383362 0 0 0 0
520527859 -0.03481372073292732 -0.033560339361429214 -0.8241629600524902 0.6991647084554036 0 0 0 0
521505376 -0.03498604893684387 -0.033169270803531006 -0.8195592164993286 0.7045981089274088 0 0 0 0
522482893 -0.03510679428776105 -0.032622753332058586 -0.8138955036799113 0.7109995086987813 0 0 0 0
523460410 -0.03511855627099673 -0.032102973510821656 -0.80854332447052 0.7171653111775715 0 0 0 0
524437927 -0.034960631281137466 -0.03170648341377576 -0.8037123878796895 0.7235570152600606 0 0 0 0
525415444 -0.03514555344978968 -0.03112965698043505 -0.7979208827018738 0.7295167644818623 0 0 0 0
526392961 -0.03510541220506032 -0.03071459444860617 -0.7928165594736735 0.7350720365842183 0 0 0 0
527370478 -0.0351218655705452 -0.03024859478076299 -0.7867303689320881 0.7412735025087992 0 0 0 0
528347996 -0.03512317811449368 -0.029841627925634384 -0.7809780438741047 0.7477253278096516 0 0 0 0
529325513 -0.035029567778110504 -0.02920092145601908 -0.7760878403981526 0.7534192800521851 0 0 0 0
530303030 -0.03515211244424184 -0.028757931664586067 -0.7700571616490681 0.7592320044835408 0 0 0 0
531280547 -0.03507822503646214 -0.02829664945602417 -0.7645544211069742 0.7652428150177002 0 0 0 0
532258064 -0.034952056904633835 -0.027904665718475975 -0.7589466373125712 0.7706934014956156 0 0 0 0
533235581 -0.035024795681238174 -0.027397849907477696 -0.7523360053698221 0.7768455545107523 0 0 0 0
534213098 -0.034945569932460785 -0.026831019048889477 -0.7464815775553385 0.7827834884325663 0 0 0 0
535190615 -0.0348723828792572 -0.026234899337093033 -0.740939716498057 0.7880465785662333 0 0 0 0
536168132 -0.034657331804434456 -0.026112928986549377 -0.7357587218284607 0.7936331629753113 0 0 0 0
537145650 -0.03453061481316884 -0.02552815588812033 -0.7294875979423523 0.7994957566261292 0 0 0 0
538123167 -0.034340012818574905 -0.024942350884278614 -0.7232135534286499 0.8048705458641052 0 0 0 0
539100684 -0.03425205623110135 -0.024492228403687477 -0.7177020510037739 0.8100691040356953 0 0 0 0
540078201 -0.03426284591356913 -0.023919232189655304 -0.7108982404073079 0.8159851233164469 0 0 0 0
541055718 -0.03399804855386416 -0.023648390546441078 -0.7050589124361674 0.8212613463401794 0 0 0 0
542033235 -0.0337203045686086 -0.02312531011799971 -0.6992056767145792 0.8264034986495972 0 0 0 0
543010752 -0.03354465713103612 -0.022499114895860352 -0.6928825974464417 0.8321928580602009 0 0 0 0
543988269 -0.033378722767035164 -0.021953659132122993 -0.6860575079917908 0.8371854424476624 0 0 0 0
544965786 -0.033075250685214996 -0.021590576817591984 -0.6802987655003865 0.841991106669108 0 0 0 0
545943304 -0.03281379118561745 -0.021067291498184204 -0.6731924017270405 0.8472632964452107 0 0 0 0
546920821 -0.03246290857593218 -0.020550206303596497 -0.6673227747281392 0.852733035882314 0 0 0 0
547898338 -0.03229101126392682 -0.020125994458794594 -0.6608442862828572 0.8575699925422668 0 0 0 0
548875855 -0.032102615882953 -0.01955881963173548 -0.654491106669108 0.8626436591148376 0 0 0 0
549853372 -0.03171337271730105 -0.019201123466094334 -0.647936224937439 0.8673603137334187 0 0 0 0
550830889 -0.03143454156816006 -0.018632199615240097 -0.6414622664451599 0.8721843560536702 0 0 0 0
551808406 -0.031024164830644924 -0.018193519363800682 -0.6354107856750488 0.8772067626317341 0 0 0 0
552785923 -0.030793999011317887 -0.017801500856876373 -0.6280749042828877 0.8822436134020487 0 0 0 0
553763440 -0.03037559613585472 -0.01724912660817305 -0.6209988792737324 0.8870581388473511 0 0 0 0
554740957 -0.029990417261918385 -0.016734959557652473 -0.6154199242591858 0.8910571734110514 0 0 0 0
555718475 -0.029610993961493172 -0.01655441398421923 -0.609155257542928 0.8959827621777852 0 0 0 0
556695992 -0.029358424246311188 -0.01590586764117082 -0.6015886863072712 0.9009830156962076 0 0 0 0
557673509 -0.028897084295749664 -0.015428365208208561 -0.5949539542198181 0.9048198064168294 0 0 0 0
558651026 -0.02833390422165394 -0.01515198250611623 -0.588103433450063 0.9095848798751831 0 0 0 0
559628543 -0.027889669562379517 -0.014685568399727345 -0.5812076926231384 0.9142960707346598 0 0 0 0
560606060 -0.027421830222010612 -0.014236646083494026 -0.5744133591651917 0.9186014533042908 0 0 0 0
561583577 -0.02704146442313989 -0.013826361236472923 -0.567137877146403 0.9225129087766011 0 0 0 0
562561094 -0.026514857386549313 -0.013348507384459177 -0.5609329541524251 0.9264371593793232 0 0 0 0
563538611 -0.025891590242584545 -0.012874756008386612 -0.5534893870353699 0.9315655827522278 0 0 0 0
564516129 -0.02544579841196537 -0.012596747527519861 -0.5464855035146077 0.9355573058128357 0 0 0 0
565493646 -0.024967117235064507 -0.012024848101039726 -0.539350946744283 0.9395639896392822 0 0 0 0
566471163 -0.024424320086836815 -0.011732869471112886 -0.5324089129765828 0.9432873924573262 0 0 0 0
567448680 -0.023981626455982525 -0.0112912164380153 -0.5254273414611816 0.947157621383667 0 0 0 0
568426197 -0.02337045967578888 -0.011114667480190594 -0.5187965432802836 0.9514350096384684 0 0 0 0
569403714 -0.022832149018843968 -0.010640776716172695 -0.5110465288162231 0.9549242854118347 0 0 0 0
570381231 -0.022103226433197655 -0.010494193683067957 -0.503700852394104 0.9592052896817524 0 0 0 0
571358748 -0.021728246162335076 -0.010040367643038431 -0.49686529239018756 0.9627350767453511 0 0 0 0
572336265 -0.021088351185123123 -0.00965893610070149 -0.4893251558144887 0.9663577874501545 0 0 0 0
573313782 -0.020386042073369026 -0.009335418542226154 -0.4822112421194712 0.9700149297714233 0 0 0 0
574291300 -0.019644570226470627 -0.009052561285595099 -0.4751080274581909 0.9734310309092203 0 0 0 0
575268817 -0.019317911316951115 -0.008773856796324253 -0.46788254380226135 0.9774453838666279 0 0 0 0
576246334 -0.01858257067700227 -0.008530934651692707 -0.4603521426518758 0.9808003902435303 0 0 0 0
577223851 -0.017837664112448692 -0.008132755756378174 -0.45219438274701435 0.9842200875282288 0 0 0 0
578201368 -0.016993816941976547 -0.008012518597145874 -0.44612008333206177 0.9873201449712117 0 0 0 0
579178885 -0.01662709998587767 -0.007609558602174123 -0.4375457763671875 0.990791380405426 0 0 0 0
580156402 -0.015761771239340305 -0.007471369268993536 -0.42964722712834674 0.9944809476534525 0 0 0 0
581133919 -0.015121353790163994 -0.007174638099968433 -0.4236092766125997 0.9969144463539124 0 0 0 0
582111436 -0.014470563270151615 -0.006945100923379262 -0.41525123516718543 1.0005216399828591 0 0 0 0
583088954 -0.013794401971002419 -0.0067022982984781265 -0.408466100692749 1.0034197568893433 0 0 0 0
584066471 -0.01293324523915847 -0.006601469280819098 -0.4003517131010691 1.0063757101694741 0 0 0 0
585043988 -0.012264018257459004 -0.006299962600072225 -0.3925151725610097 1.0093931754430134 0 0 0 0
586021505 -0.011557883272568384 -0.006088185124099255 -0.38549745082855225 1.012000282605489 0 0 0 0
586999022 -0.010785288798312346 -0.006060158833861351 -0.37761548161506653 1.0152317682902017 0 0 0 0
587976539 -0.009939924503366152 -0.005931007365385691 -0.3704661428928375 1.0174972216288247 0 0 0 0
588954056 -0.009287760282556215 -0.005756722142299016 -0.36128150423367816 1.0207720597585042 0 0 0 0
589931573 -0.008416902584334213 -0.005605389053622881 -0.35475030541419983 1.0229867299397786 0 0 0 0
590909090 -0.007593816767136255 -0.0056516677141189575 -0.34726748863855994 1.0255698760350545 0 0 0 0
591886608 -0.006807941943407059 -0.00563671284665664 -0.3391949534416199 1.0283010403315225 0 0 0 0
592864125 -0.005939048094054063 -0.0054991332193215685 -0.3315541048844655 1.0309778849283853 0 0 0 0
593841642 -0.005331200547516346 -0.0053217050929864245 -0.32378729184468585 1.0332682927449544 0 0 0 0
594819159 -0.004353248203794161 -0.005404158805807431 -0.31575003266334534 1.0357587337493896 0 0 0 0
595796676 -0.003658346521357695 -0.005276879916588465 -0.3081410527229309 1.0380181868871052 0 0 0 0
596774193 -0.002797982965906461 -0.00546407513320446 -0.2997188369433085 1.0404051939646402 0 0 0 0
597751710 -0.0019640903919935226 -0.00547795370221138 -0.29194051027297974 1.0420970916748047 0 0 0 0
598729227 -0.0009745297332604725 -0.005383020887772242 -0.2846545378367106 1.0442557334899902 0 0 0 0
599706744 -0.0001702411100268364 -0.005654732386271158 -0.27708984414736426 1.046207308769226 0 0 0 0
600684261 0.0005460403238733609 -0.005620314429203669 -0.2690934042135874 1.0482688744862874 0 0 0 0
601661779 0.0015493401636679967 -0.0058434031282862025 -0.25993092854817706 1.0503295262654622 0 0 0 0
602639296 0.0022910547753175097 -0.005843260325491428 -0.253507524728775 1.051789402961731 0 0 0 0
603616813 0.0033230840538938837 -0.006071936649580796 -0.2449197918176651 1.0540178219477334 0 0 0 0
604594330 0.004045523703098297 -0.006221963092684746 -0.23736991484959918 1.055274208386739 0 0 0 0
605571847 0.004955693148076534 -0.006369266038139661 -0.22904086609681445 1.0569405953089395 0 0 0 0
606549364 0.005826215880612532 -0.006565348555644353 -0.22142960627873737 1.0587769746780396 0 0 0 0
607526881 0.006533759646117687 -0.006639286254843076 -0.21355494360129038 1.060181736946106 0 0 0 0
608504398 0.007437590509653091 -0.006828562977413336 -0.20596008996168771 1.0620537996292114 0 0 0 0
609481915 0.008241237762073675 -0.007046358349422613 -0.1966953823963801 1.0633076826731362 0 0 0 0
610459433 0.009101136277119318 -0.007173091794053713 -0.18951255579789478 1.064314564069112 0 0 0 0
611436950 0.010144356327752272 -0.007451384638746579 -0.18239746491114298 1.0658737023671467 0 0 0 0
612414467 0.011022223780552546 -0.007793152083953221 -0.17378325760364532 1.0669158299763997 0 0 0 0
613391984 0.01189488141487042 -0.007945789334674675 -0.16503959397474924 1.0684977372487385 0 0 0 0
614369501 0.012847460185488064 -0.008219827897846699 -0.15793661773204803 1.0691163142522175 0 0 0 0
615347018 0.013617155763010183 -0.008409578663607437 -0.14907274643580118 1.070419192314148 0 0 0 0
616324535 0.014714449954529602 -0.008752684108912945 -0.14200306435426074 1.070966362953186 0 0 0 0
617302052 0.015483987517654896 -0.00900285318493843 -0.13301181296507517 1.0719225804011026 0 0 0 0
618279569 0.01629454766710599 -0.009480935831864674 -0.12492584188779195 1.0728334188461304 0 0 0 0
619257086 0.017320429906249046 -0.009814593940973282 -0.11642812689145406 1.074303905169169 0 0 0 0
620234604 0.018068054070075352 -0.010102828033268452 -0.10967669387658437 1.07470432917277 0 0 0 0
621212121 0.01884601886073748 -0.010410368752976257 -0.10065264999866486 1.0752984285354614 0 0 0 0
622189638 0.019831000516812004 -0.010828782493869463 -0.09338174015283585 1.0756186246871948 0 0 0 0
623167155 0.020591152211030323 -0.01142777254184087 -0.0846127172311147 1.0763583183288574 0 0 0 0
624144672 0.0215250967691342 -0.011707507073879242 -0.07705973088741302 1.0769583781560261 0 0 0 0
625122189 0.022292652477820713 -0.012107702593008677 -0.06844842433929443 1.077336033185323 0 0 0 0
626099706 0.023220513636867203 -0.012542803461352984 -0.06125010425845782 1.0775895516077676 0 0 0 0
627077223 0.024222179626425106 -0.013008474061886469 -0.0530554490784804 1.0775720278422036 0 0 0 0
628054740 0.024914545317490894 -0.013415818413098652 -0.0443802277247111 1.0777790149052937 0 0 0 0
629032258 0.025957314297556877 -0.013987916832168896 -0.03683760638038317 1.0785335302352905 0 0 0 0
630009775 0.02662374141315619 -0.014453725268443424 -0.029260003939270973 1.0784398317337036 0 0 0 0
630987292 0.027414570872982342 -0.014975572625796 -0.02090117645760377 1.0788628657658894 0 0 0 0
631964809 0.02837246221800645 -0.01557530090212822 -0.012828836217522621 1.0782099167505899 0 0 0 0
632942326 0.02911820262670517 -0.016263024260600407 -0.004054336808621883 1.0783925453821817 0 0 0 0
633919843 0.030026516566673912 -0.016726944595575333 0.0028726020827889442 1.0788973569869995 0 0 0 0
634897360 0.030796460807323456 -0.01739350768427054 0.011156006095310051 1.0783371527989705 0 0 0 0
635874877 0.03173279017210007 -0.017863592132925987 0.018839431305726368 1.0782763957977295 0 0 0 0
636852394 0.0323702556391557 -0.018553759902715683 0.027858546003699303 1.0774309635162354 0 0 0 0
637829912 0.03324303155144055 -0.01926078585286935 0.03573692341645558 1.077166716257731 0 0 0 0
638807429 0.0340084433555603 -0.019826903318365414 0.04324314122398694 1.0767755508422852 0 0 0 0
639784946 0.0346807191769282 -0.020418629050254822 0.05197174474596977 1.0763027667999268 0 0 0 0
640762463 0.035542141646146774 -0.02122902746001879 0.05947255343198776 1.0760409434636433 0 0 0 0
641739980 0.03624816114703814 -0.021907471741239228 0.0665938506523768 1.0749997695287068 0 0 0 0
642717497 0.03713256741563479 -0.0224699762960275 0.07560339570045471 1.0743600130081177 0 0 0 0
643695014 0.03780937815705935 -0.023192591965198517 0.08278755346934 1.0740253527959187 0 0 0 0
644672531 0.038680024445056915 -0.02407730184495449 0.09135578572750092 1.0734475056330361 0 0 0 0
645650048 0.039368126541376114 -0.02472394953171412 0.09845476845900217 1.0722287893295288 0 0 0 0
646627565 0.04008861258625984 -0.02554151912530263 0.10706458240747452 1.0715067783991494 0 0 0 0
647605083 0.040655744572480515 -0.026332886268695194 0.1136650244394938 1.0704816977183023 0 0 0 0
648582600 0.041264368842045464 -0.02727288007736206 0.12258528172969818 1.0696756839752197 0 0 0 0
649560117 0.04209004094203313 -0.027844393625855446 0.130216712752978 1.06879456837972 0 0 0 0
650537634 0.04285598546266556 -0.02872007278104623 0.1389082670211792 1.06721031665802 0 0 0 0
651515151 0.04332778354485829 -0.0295064989477396 0.14659589529037476 1.0656447410583496 0 0 0 0
652492668 0.04408797373374303 -0.0305239117393891 0.153464674949646 1.0649841229120889 0 0 0 0
653470185 0.044687170535326004 -0.031338530903061226 0.16238067547480264 1.0634427070617676 0 0 0 0
654447702 0.04540196557839711 -0.032027528931697205 0.1694456934928894 1.0620917479197183 0 0 0 0
655425219 0.04584770152966181 -0.03294598559538523 0.17807894945144653 1.0606502691904702 0 0 0 0
656402737 0.046781008442242936 -0.033855161319176354 0.18527857959270477 1.0597309668858845 0 0 0 0
657380254 0.04738691945870717 -0.03473043690125147 0.19326938688755035 1.0577507019042969 0 0 0 0
658357771 0.047908343374729156 -0.03546762838959694 0.20050736765066782 1.0562927722930908 0 0 0 0
659335288 0.048438554008801774 -0.036627472688754395 0.20811809599399567 1.0543606678644815 0 0 0 0
660312805 0.049184028059244156 -0.03743856896956761 0.21590135991573334 1.0528147220611572 0 0 0 0
661290322 0.049604071925083794 -0.038501991579929985 0.22379307448863983 1.0510426759719849 0 0 0 0
662267839 0.05013153081138928 -0.03946329280734062 0.23212364812692005 1.048668384552002 0 0 0 0
663245356 0.05065477391084035 -0.04037190849582354 0.23952308297157288 1.0477300484975178 0 0 0 0
664222873 0.05095475415388743 -0.04133653144041697 0.24663092692693073 1.0455756187438965 0 0 0 0
665200391 0.05168278142809868 -0.04246402904391289 0.2547174096107483 1.0434597730636597 0 0 0 0
666177908 0.05218525851766268 -0.04324966172377268 0.2616812686125437 1.041223923365275 0 0 0 0
667155425 0.05259917303919792 -0.04447336867451668 0.2707684636116028 1.0392319361368814 0 0 0 0
668132942 0.05300166457891464 -0.04529833669463793 0.2772342960039774 1.037370999654134 0 0 0 0
669110459 0.05351358776291211 -0.04635440682371457 0.2858527104059855 1.03470512231191 0 0 0 0
670087976 0.053897496312856674 -0.047302549084027604 0.2924392720063527 1.0331926345825195 0 0 0 0
671065493 0.054326269775629044 -0.04834250857432683 0.30051669478416443 1.0305368502934773 0 0 0 0
672043010 0.05468270803491274 -0.04939609517653783 0.3066518505414327 1.0282758474349976 0 0 0 0
673020527 0.05508289113640785 -0.05034554501374562 0.31498328844706214 1.0255709489186604 0 0 0 0
673998044 0.05537578587730725 -0.05164468288421631 0.32280346751213074 1.023719827334086 0 0 0 0
674975562 0.0558337594072024 -0.0525422195593516 0.33068394660949707 1.020412802696228 0 0 0 0
675953079 0.05610861132542292 -0.053612264494101204 0.33734925587972003 1.0179268519083657 0 0 0 0
676930596 0.056368758281071976 -0.05448271334171295 0.3442933162053426 1.0154882669448853 0 0 0 0
677908113 0.056617519507805504 -0.055642664432525635 0.35212673743565875 1.0131547848383584 0 0 0 0
678885630 0.056774914264678955 -0.056765163938204445 0.3591677447160085 1.010218620300293 0 0 0 0
679863147 0.05699833979209264 -0.0579020194709301 0.36739834149678546 1.0071839491526284 0 0 0 0
680840664 0.05722854038079579 -0.05898022651672363 0.37403716643651325 1.0043107668558755 0 0 0 0
681818181 0.05748803044358889 -0.05993853881955147 0.38121776779492694 1.0018607378005981 0 0 0 0
682795698 0.05764707550406456 -0.06110083187619845 0.38906019926071167 0.9984943469365437 0 0 0 0
683773216 0.057912866274515785 -0.06217277298370997 0.39563686649004615 0.9959566990534464 0 0 0 0
684750733 0.058071295420328774 -0.06346663335959116 0.4033540387948354 0.992627461751302 0 0 0 0
685728250 0.0580526739358902 -0.06459690382083257 0.4107506473859151 0.9895849426587422 0 0 0 0
686705767 0.058265478660662964 -0.06549948205550511 0.4173853099346161 0.9863832791646321 0 0 0 0
687683284 0.058478736629088715 -0.0665133645137151 0.424839049577713 0.9832950631777445 0 0 0 0
688660801 0.05843136583765347 -0.06772654503583908 0.4318341016769409 0.980170448621114 0 0 0 0
689638318 0.058768220245838165 -0.06886032223701477 0.43966331084569293 0.9766861796379089 0 0 0 0
690615835 0.05854364484548569 -0.07003420094648996 0.4460863570372263 0.9738964637120564 0 0 0 0
691593352 0.058765457322200135 -0.07091188182433446 0.4532987872759501 0.9698648452758789 0 0 0 0
692570869 0.058653085182110466 -0.07216284424066544 0.4606117606163025 0.9665250182151794 0 0 0 0
693548387 0.058762773871421814 -0.07316185782353082 0.4676937758922577 0.9627218842506409 0 0 0 0
694525904 0.058741841465234756 -0.07421453793843587 0.47487988074620563 0.9594880938529968 0 0 0 0
