# HZ S RI R 50
500000000 -0.0811346098780632 -0.03518695384263992 -1.1088124513626099 0.12756609916687012 0 0 0 0
500977517 -0.08141713589429855 -0.03505402430891991 -1.1082829236984253 0.13498830795288086 0 0 0 0
501955034 -0.08142171800136566 -0.03500456362962723 -1.1077991724014282 0.1427781581878662 0 0 0 0
502932551 -0.08152363449335098 -0.034772731363773346 -1.10696542263031 0.14924459159374237 0 0 0 0
503910068 -0.0817176103591919 -0.034549809992313385 -1.1058470010757446 0.1578669548034668 0 0 0 0
504887585 -0.0818062499165535 -0.03439469635486603 -1.105224609375 0.1650514155626297 0 0 0 0
505865102 -0.08178344368934631 -0.03434014320373535 -1.1040664911270142 0.17200788855552673 0 0 0 0
506842619 -0.08190670609474182 -0.03416711837053299 -1.1028181314468384 0.17944152653217316 0 0 0 0
507820136 -0.08191598206758499 -0.03394947573542595 -1.102492094039917 0.1866966038942337 0 0 0 0
508797653 -0.08190460503101349 -0.033939000219106674 -1.100967526435852 0.1936301290988922 0 0 0 0
509775170 -0.08206066489219666 -0.03367175906896591 -1.0995186567306519 0.20231039822101593 0 0 0 0
510752687 -0.08208022266626358 -0.03351382166147232 -1.0985783338546753 0.20871835947036743 0 0 0 0
511730204 -0.08214438706636429 -0.033470675349235535 -1.0975772142410278 0.21515069901943207 0 0 0 0
512707721 -0.0821385309100151 -0.0332011841237545 -1.0958868265151978 0.2240898609161377 0 0 0 0
513685238 -0.08220656216144562 -0.033180154860019684 -1.094671368598938 0.2304103821516037 0 0 0 0
514662755 -0.08230574429035187 -0.03302186354994774 -1.0931673049926758 0.2380986511707306 0 0 0 0
515640272 -0.08222143352031708 -0.03293455392122269 -1.0919266939163208 0.24524414539337158 0 0 0 0
516617789 -0.08230936527252197 -0.032697152346372604 -1.0901730060577393 0.25276342034339905 0 0 0 0
517595306 -0.08229661732912064 -0.03244156762957573 -1.0887339115142822 0.2596767246723175 0 0 0 0
518572823 -0.08238901942968369 -0.03239661827683449 -1.086983323097229 0.26708176732063293 0 0 0 0
519550340 -0.08241109549999237 -0.032262787222862244 -1.0851037502288818 0.27454227209091187 0 0 0 0
520527857 -0.08239666372537613 -0.0321190170943737 -1.0838128328323364 0.28142595291137695 0 0 0 0
521505374 -0.08238094300031662 -0.03181986138224602 -1.0822256803512573 0.28848016262054443 0 0 0 0
522482891 -0.0823884829878807 -0.03169570863246918 -1.0797932147979736 0.29592305421829224 0 0 0 0
523460408 -0.08250430226325989 -0.03157822787761688 -1.0781216621398926 0.3034007251262665 0 0 0 0
524437925 -0.08242535591125488 -0.031428031623363495 -1.0766913890838623 0.3099278211593628 0 0 0 0
525415442 -0.08244791626930237 -0.031183412298560143 -1.0738236904144287 0.3184031844139099 0 0 0 0
526392959 -0.0823320671916008 -0.030991505831480026 -1.0723955631256104 0.32502487301826477 0 0 0 0
527370476 -0.08230017870664597 -0.030916672199964523 -1.0692334175109863 0.3321472704410553 0 0 0 0
528347993 -0.08234620094299316 -0.030718600377440453 -1.068198561668396 0.33792778849601746 0 0 0 0
529325510 -0.08240970224142075 -0.030546745285391808 -1.065256118774414 0.3475647568702698 0 0 0 0
530303027 -0.08223096281290054 -0.030393751338124275 -1.0635900497436523 0.35381555557250977 0 0 0 0
531280544 -0.08226680010557175 -0.030281566083431244 -1.061341404914856 0.36007168889045715 0 0 0 0
532258061 -0.08238644152879715 -0.0300624817609787 -1.0591987371444702 0.3675827980041504 0 0 0 0
533235578 -0.08221977949142456 -0.02982894331216812 -1.0564359426498413 0.3750612437725067 0 0 0 0
534213095 -0.08210483938455582 -0.029782406985759735 -1.05422842502594 0.3815014958381653 0 0 0 0
535190612 -0.08219437301158905 -0.02963394857943058 -1.0516149997711182 0.3896685540676117 0 0 0 0
536168129 -0.08206182718276978 -0.029410600662231445 -1.0482571125030518 0.3965018689632416 0 0 0 0
537145646 -0.08198879659175873 -0.029143597930669785 -1.0462137460708618 0.4033854603767395 0 0 0 0
538123163 -0.08192659914493561 -0.029127826914191246 -1.0442651510238647 0.40934810042381287 0 0 0 0
539100680 -0.08193541318178177 -0.028926674276590347 -1.0414538383483887 0.41721439361572266 0 0 0 0
540078197 -0.08190837502479553 -0.02884235978126526 -1.0384061336517334 0.42355090379714966 0 0 0 0
541055714 -0.08179891854524612 -0.028500039130449295 -1.0353120565414429 0.4324018359184265 0 0 0 0
542033231 -0.08169625699520111 -0.028536269441246986 -1.0323599576950073 0.4372609555721283 0 0 0 0
543010748 -0.08173557370901108 -0.028355758637189865 -1.0299607515335083 0.4448114335536957 0 0 0 0
543988265 -0.08154250681400299 -0.028160475194454193 -1.0271027088165283 0.45111072063446045 0 0 0 0
544965782 -0.08153441548347473 -0.028031548485159874 -1.0237926244735718 0.45848309993743896 0 0 0 0
545943299 -0.08146317303180695 -0.02781296893954277 -1.020478367805481 0.46568068861961365 0 0 0 0
546920816 -0.08119963854551315 -0.027758607640862465 -1.0178335905075073 0.47192248702049255 0 0 0 0
547898333 -0.08121084421873093 -0.0275634303689003 -1.0149866342544556 0.47860535979270935 0 0 0 0
548875850 -0.0810633972287178 -0.02731781080365181 -1.0113974809646606 0.4857403039932251 0 0 0 0
549853367 -0.0809415727853775 -0.027247825637459755 -1.0082039833068848 0.4924514889717102 0 0 0 0
550830884 -0.08093924075365067 -0.02712240256369114 -1.0048810243606567 0.4993250072002411 0 0 0 0
551808401 -0.08079895377159119 -0.0268937349319458 -1.001930594444275 0.5052485466003418 0 0 0 0
552785918 -0.08057115972042084 -0.02683951146900654 -0.9988976716995239 0.5126222372055054 0 0 0 0
553763435 -0.08052107691764832 -0.026634009554982185 -0.9952341318130493 0.5189065933227539 0 0 0 0
554740952 -0.08038752526044846 -0.02648025006055832 -0.9914019107818604 0.5259528756141663 0 0 0 0
555718469 -0.080209881067276 -0.02649005316197872 -0.9885841012001038 0.5317705273628235 0 0 0 0
556695986 -0.08011878281831741 -0.02617575228214264 -0.9849026799201965 0.5386683940887451 0 0 0 0
557673503 -0.08007540553808212 -0.026090476661920547 -0.9809814691543579 0.5453981161117554 0 0 0 0
558651020 -0.07987726479768753 -0.02596886456012726 -0.9781756401062012 0.5510092973709106 0 0 0 0
559628537 -0.07984558492898941 -0.02587711252272129 -0.9740597009658813 0.558250367641449 0 0 0 0
560606054 -0.0796651765704155 -0.025617048144340515 -0.9700059294700623 0.565868079662323 0 0 0 0
561583571 -0.07936105132102966 -0.02562832273542881 -0.9667951464653015 0.571051299571991 0 0 0 0
562561088 -0.07929013669490814 -0.02542482689023018 -0.9632590413093567 0.5775843262672424 0 0 0 0
563538605 -0.07914546132087708 -0.02537429705262184 -0.9595832824707031 0.5838284492492676 0 0 0 0
564516122 -0.07906021177768707 -0.02520590089261532 -0.954730212688446 0.5909996032714844 0 0 0 0
565493639 -0.07885545492172241 -0.025063225999474525 -0.9514006972312927 0.5970528721809387 0 0 0 0
566471156 -0.07863529026508331 -0.02503948099911213 -0.9479199647903442 0.6027736067771912 0 0 0 0
567448673 -0.07846922427415848 -0.02493109367787838 -0.944208562374115 0.6087724566459656 0 0 0 0
568426190 -0.078367680311203 -0.02472836710512638 -0.9392412900924683 0.6160406470298767 0 0 0 0
569403707 -0.07805372029542923 -0.024793600663542747 -0.9359158873558044 0.621985912322998 0 0 0 0
570381224 -0.07802558690309525 -0.02456379123032093 -0.9311468601226807 0.6291926503181458 0 0 0 0
571358741 -0.0778748169541359 -0.02445049397647381 -0.9269962906837463 0.6347933411598206 0 0 0 0
572336258 -0.0776931494474411 -0.0242924764752388 -0.9226968288421631 0.6411908864974976 0 0 0 0
573313775 -0.07743191719055176 -0.024348653852939606 -0.9187722206115723 0.6471006274223328 0 0 0 0
574291292 -0.07716559618711472 -0.02424461767077446 -0.9152313470840454 0.6522536277770996 0 0 0 0
575268809 -0.07711316645145416 -0.0240322258323431 -0.9097051024436951 0.659761905670166 0 0 0 0
576246326 -0.07673458009958267 -0.024039650335907936 -0.9057304263114929 0.6658204197883606 0 0 0 0
577223843 -0.07648615539073944 -0.02389577031135559 -0.9011089205741882 0.6716203689575195 0 0 0 0
578201360 -0.076370969414711 -0.023840542882680893 -0.8973484635353088 0.677392303943634 0 0 0 0
579178877 -0.07615011185407639 -0.023799920454621315 -0.8930779099464417 0.6830242872238159 0 0 0 0
580156394 -0.07607846707105637 -0.023711856454610825 -0.8876597881317139 0.6898155808448792 0 0 0 0
581133911 -0.07566478103399277 -0.02359364926815033 -0.8835051655769348 0.6950172185897827 0 0 0 0
582111428 -0.07564578205347061 -0.02362917736172676 -0.8789923191070557 0.7010440826416016 0 0 0 0
583088945 -0.07532832771539688 -0.023480786010622978 -0.874567449092865 0.7070991396903992 0 0 0 0
584066462 -0.07508619129657745 -0.0233891773968935 -0.8695843815803528 0.7123481035232544 0 0 0 0
585043979 -0.0749209001660347 -0.023299822583794594 -0.8648224472999573 0.718388020992279 0 0 0 0
586021496 -0.07472950220108032 -0.02324434369802475 -0.8594942092895508 0.7244436740875244 0 0 0 0
586999013 -0.07453145831823349 -0.023147111758589745 -0.8547661900520325 0.7303175926208496 0 0 0 0
587976530 -0.07427473366260529 -0.023188399150967598 -0.851530134677887 0.7348516583442688 0 0 0 0
588954047 -0.07413045316934586 -0.023178914561867714 -0.8451534509658813 0.7414924502372742 0 0 0 0
589931564 -0.07389429956674576 -0.02312697470188141 -0.8410122990608215 0.7465586066246033 0 0 0 0
590909081 -0.07352287322282791 -0.02301027625799179 -0.8353133201599121 0.7527773380279541 0 0 0 0
591886598 -0.07333194464445114 -0.023005058988928795 -0.8306852579116821 0.7581868767738342 0 0 0 0
592864115 -0.07311258465051651 -0.022877082228660583 -0.825905442237854 0.7629416584968567 0 0 0 0
593841632 -0.07285013049840927 -0.022812608629465103 -0.8197490572929382 0.7696088552474976 0 0 0 0
594819149 -0.07268571108579636 -0.023024532943964005 -0.816321849822998 0.7734200954437256 0 0 0 0
595796666 -0.07242421060800552 -0.022801436483860016 -0.8100056052207947 0.7800153493881226 0 0 0 0
596774183 -0.0722573921084404 -0.02277170494198799 -0.8051219582557678 0.7850379347801208 0 0 0 0
597751700 -0.07201334089040756 -0.022847143933176994 -0.7989439368247986 0.791144847869873 0 0 0 0
598729217 -0.07168649137020111 -0.02285054698586464 -0.7946926951408386 0.7960407733917236 0 0 0 0
599706734 -0.07155396789312363 -0.022784583270549774 -0.7896159291267395 0.8011118173599243 0 0 0 0
600684251 -0.07121329754590988 -0.022855378687381744 -0.7846404314041138 0.8053765892982483 0 0 0 0
601661768 -0.07102843374013901 -0.022843556478619576 -0.7773860692977905 0.812210738658905 0 0 0 0
602639285 -0.0706455186009407 -0.02280857227742672 -0.7730231285095215 0.8172410130500793 0 0 0 0
603616802 -0.07049140334129333 -0.02285703271627426 -0.7687281370162964 0.8211736679077148 0 0 0 0
604594319 -0.07026344537734985 -0.02296706847846508 -0.7624044418334961 0.8268209099769592 0 0 0 0
605571836 -0.07000744342803955 -0.0229109488427639 -0.7569770812988281 0.8317208886146545 0 0 0 0
606549353 -0.06991662085056305 -0.02286064252257347 -0.7504832744598389 0.8369024395942688 0 0 0 0
607526870 -0.06952842324972153 -0.0229329913854599 -0.7460016012191772 0.8422825336456299 0 0 0 0
608504387 -0.06938637793064117 -0.02286251075565815 -0.7400904893875122 0.8469069004058838 0 0 0 0
609481904 -0.0689985454082489 -0.022867970168590546 -0.7348681688308716 0.8516231179237366 0 0 0 0
610459421 -0.06877163797616959 -0.022978397086262703 -0.7285709977149963 0.8573363423347473 0 0 0 0
611436938 -0.06851086765527725 -0.023004774004220963 -0.7234295606613159 0.861356258392334 0 0 0 0
612414455 -0.06829484552145004 -0.02294241264462471 -0.7163205146789551 0.8664518594741821 0 0 0 0
613391972 -0.06794422119855881 -0.023100119084119797 -0.7112957835197449 0.8710436820983887 0 0 0 0
614369489 -0.06779580563306808 -0.02309216558933258 -0.7050721049308777 0.8762537837028503 0 0 0 0
615347006 -0.06753144413232803 -0.02313016727566719 -0.6999843716621399 0.8804776072502136 0 0 0 0
616324523 -0.06718813627958298 -0.02319813147187233 -0.6936851143836975 0.8849522471427917 0 0 0 0
617302040 -0.06709707528352737 -0.023293105885386467 -0.6882506012916565 0.8891394138336182 0 0 0 0
618279557 -0.06677281856536865 -0.023272883147001266 -0.6819398999214172 0.8945058584213257 0 0 0 0
619257074 -0.06648525595664978 -0.023493658751249313 -0.676714301109314 0.8983859419822693 0 0 0 0
620234591 -0.06627548485994339 -0.023424556478857994 -0.6702832579612732 0.903171181678772 0 0 0 0
621212108 -0.06590346246957779 -0.023554012179374695 -0.6641138195991516 0.9069059491157532 0 0 0 0
622189625 -0.06573458015918732 -0.023528922349214554 -0.657329261302948 0.9118994474411011 0 0 0 0
623167142 -0.0653931051492691 -0.023726223036646843 -0.651848554611206 0.9159337878227234 0 0 0 0
624144659 -0.06527625024318695 -0.02368076518177986 -0.6457085013389587 0.9207056164741516 0 0 0 0
625122176 -0.06495549529790878 -0.02394135855138302 -0.6397778391838074 0.9247341156005859 0 0 0 0
626099693 -0.06468738615512848 -0.024060124531388283 -0.6336719393730164 0.9287334084510803 0 0 0 0
627077210 -0.06454780697822571 -0.024076733738183975 -0.6276311874389648 0.9328612089157104 0 0 0 0
628054727 -0.0641484186053276 -0.02408134564757347 -0.6202659606933594 0.9377655982971191 0 0 0 0
629032244 -0.06397596001625061 -0.024286553263664246 -0.6136943101882935 0.9419419765472412 0 0 0 0
630009761 -0.06380238384008408 -0.02451951988041401 -0.609218955039978 0.9446886777877808 0 0 0 0
630987278 -0.0634603500366211 -0.0244823656976223 -0.6019434332847595 0.9490505456924438 0 0 0 0
631964795 -0.06326955556869507 -0.024628913030028343 -0.5959246158599854 0.9528107047080994 0 0 0 0
632942312 -0.06293854117393494 -0.024867024272680283 -0.5900402069091797 0.956971287727356 0 0 0 0
633919829 -0.06271388381719589 -0.024774016812443733 -0.583219587802887 0.9608679413795471 0 0 0 0
634897346 -0.06246315315365791 -0.02504107728600502 -0.5773434042930603 0.9650209546089172 0 0 0 0
635874863 -0.0621173195540905 -0.025085948407649994 -0.5702335238456726 0.9682557582855225 0 0 0 0
636852380 -0.062097832560539246 -0.025311555713415146 -0.5639721751213074 0.9716644883155823 0 0 0 0
637829897 -0.06184614077210426 -0.025477539747953415 -0.5582445859909058 0.9755404591560364 0 0 0 0
638807414 -0.06149393320083618 -0.025511156767606735 -0.5511651635169983 0.9792603850364685 0 0 0 0
639784931 -0.06120280548930168 -0.025608686730265617 -0.54402095079422 0.9834854602813721 0 0 0 0
640762448 -0.061071012169122696 -0.025809811428189278 -0.5397260785102844 0.9858468174934387 0 0 0 0
641739965 -0.06072903424501419 -0.025865288451313972 -0.5307480096817017 0.990326464176178 0 0 0 0
642717482 -0.06047870218753815 -0.02595916949212551 -0.5242819786071777 0.9940339922904968 0 0 0 0
643694999 -0.060302261263132095 -0.026325592771172523 -0.5186691284179688 0.9964669346809387 0 0 0 0
644672516 -0.06013302132487297 -0.026432890444993973 -0.5116702318191528 1.0006383657455444 0 0 0 0
645650033 -0.059877242892980576 -0.02655942179262638 -0.505058765411377 1.004106879234314 0 0 0 0
646627550 -0.05967898666858673 -0.02676680125296116 -0.4985426366329193 1.0071797370910645 0 0 0 0
647605067 -0.05948841571807861 -0.02690703421831131 -0.4918447732925415 1.0112732648849487 0 0 0 0
648582584 -0.05920815467834473 -0.027084941044449806 -0.4855557084083557 1.0129114389419556 0 0 0 0
649560101 -0.059055715799331665 -0.027161195874214172 -0.47803059220314026 1.0173968076705933 0 0 0 0
650537618 -0.0587778240442276 -0.02735787443816662 -0.4704677164554596 1.0202380418777466 0 0 0 0
651515135 -0.058513302356004715 -0.027592947706580162 -0.4655168354511261 1.022405982017517 0 0 0 0
652492652 -0.05842079967260361 -0.02773539163172245 -0.4585989713668823 1.025586724281311 0 0 0 0
653470169 -0.058143582195043564 -0.027916140854358673 -0.45186546444892883 1.0286372900009155 0 0 0 0
654447686 -0.05798985809087753 -0.028076374903321266 -0.4441421926021576 1.0321650505065918 0 0 0 0
655425203 -0.05774061381816864 -0.028360454365611076 -0.4373842775821686 1.0349876880645752 0 0 0 0
656402720 -0.05751954764127731 -0.028547002002596855 -0.4306233823299408 1.0369313955307007 0 0 0 0
657380237 -0.05742958188056946 -0.02871808409690857 -0.42345768213272095 1.0406285524368286 0 0 0 0
658357754 -0.057115551084280014 -0.029036957770586014 -0.4174763858318329 1.042942762374878 0 0 0 0
659335271 -0.05702541396021843 -0.029124954715371132 -0.40952348709106445 1.0455940961837769 0 0 0 0
660312788 -0.05674400553107262 -0.029314294457435608 -0.4032287001609802 1.0479645729064941 0 0 0 0
661290305 -0.056510474532842636 -0.02954556979238987 -0.3945564329624176 1.051007866859436 0 0 0 0
662267822 -0.0563967190682888 -0.029787108302116394 -0.38916900753974915 1.0535472631454468 0 0 0 0
663245339 -0.05608081445097923 -0.030007880181074142 -0.3840653896331787 1.0549800395965576 0 0 0 0
664222856 -0.0559975728392601 -0.030268823727965355 -0.3756130635738373 1.0584850311279297 0 0 0 0
665200373 -0.05589982494711876 -0.03034364990890026 -0.36799606680870056 1.0609780550003052 0 0 0 0
666177890 -0.05563885718584061 -0.03064511902630329 -0.3615727424621582 1.0632262229919434 0 0 0 0
667155407 -0.05555010214447975 -0.03073952905833721 -0.3539547324180603 1.0655837059020996 0 0 0 0
668132924 -0.05533698573708534 -0.031005488708615303 -0.34724733233451843 1.0679433345794678 0 0 0 0
669110441 -0.05525233969092369 -0.03129782900214195 -0.3409236669540405 1.0697250366210938 0 0 0 0
670087958 -0.054899219423532486 -0.03145230561494827 -0.3323850929737091 1.0726462602615356 0 0 0 0
671065475 -0.054776739329099655 -0.031787801533937454 -0.32643401622772217 1.0736987590789795 0 0 0 0
672042992 -0.05462122708559036 -0.03202939033508301 -0.31940552592277527 1.07616126537323 0 0 0 0
673020509 -0.05452487990260124 -0.03212402015924454 -0.3122529983520508 1.0781478881835938 0 0 0 0
673998026 -0.054457105696201324 -0.032382283359766006 -0.3043486475944519 1.0797905921936035 0 0 0 0
674975543 -0.05422595143318176 -0.0327870137989521 -0.29874280095100403 1.0817688703536987 0 0 0 0
675953060 -0.054033298045396805 -0.032932255417108536 -0.29064521193504333 1.0840086936950684 0 0 0 0
676930577 -0.053881265223026276 -0.03301181271672249 -0.28377896547317505 1.0858726501464844 0 0 0 0
677908094 -0.05379336699843407 -0.03332516551017761 -0.27582621574401855 1.0877758264541626 0 0 0 0
678885611 -0.053658608347177505 -0.03364231064915657 -0.26862213015556335 1.0890132188796997 0 0 0 0
679863128 -0.05344361066818237 -0.03390703350305557 -0.2621379792690277 1.09095299243927 0 0 0 0
680840645 -0.05344657227396965 -0.03402732312679291 -0.25430986285209656 1.092406988143921 0 0 0 0
681818162 -0.053292836993932724 -0.034319519996643066 -0.24582627415657043 1.094323992729187 0 0 0 0
682795679 -0.05323483422398567 -0.034614551812410355 -0.2409578114748001 1.0953583717346191 0 0 0 0
683773196 -0.05301026627421379 -0.03477180376648903 -0.23261681199073792 1.097126841545105 0 0 0 0
684750713 -0.052985671907663345 -0.03502785414457321 -0.2253907322883606 1.0979669094085693 0 0 0 0
685728230 -0.052891697734594345 -0.03539060056209564 -0.21792802214622498 1.100414514541626 0 0 0 0
686705747 -0.05265665799379349 -0.035563066601753235 -0.21152879297733307 1.1009913682937622 0 0 0 0
687683264 -0.05281028524041176 -0.03574535250663757 -0.20214025676250458 1.1026548147201538 0 0 0 0
688660781 -0.05248130485415459 -0.03607185557484627 -0.19604279100894928 1.1035487651824951 0 0 0 0
689638298 -0.052451856434345245 -0.03632219880819321 -0.18946632742881775 1.1047497987747192 0 0 0 0
690615815 -0.052239418029785156 -0.03659776970744133 -0.18119260668754578 1.106554627418518 0 0 0 0
691593332 -0.05217881500720978 -0.036893416196107864 -0.17569468915462494 1.1067506074905396 0 0 0 0
692570849 -0.052175406366586685 -0.03699004277586937 -0.16669148206710815 1.1081781387329102 0 0 0 0
693548366 -0.05201685428619385 -0.037390634417533875 -0.15972456336021423 1.1089218854904175 0 0 0 0
694525883 -0.051922205835580826 -0.03757508099079132 -0.15235427021980286 1.1100950241088867 0 0 0 0
695503400 -0.051911454647779465 -0.037840090692043304 -0.14578893780708313 1.110723853111267 0 0 0 0
