!    Infineon Technologies AG
!    BGB707L7ESD RU919007 w#7 Sample Build #08493 Teil Nr. 3
!    Vce = 3.0V, Ic = 2.6mA
!    DATUM: 30.06.2009 10:17:48
# GHz   S   MA   R  50
!f                S11                 S21                 S12                 S22
!GHz            Mag  Ang            Mag  Ang            Mag  Ang            Mag  Ang
 0.050000  0.967697    -1.254  8.131300   178.809  0.001729    93.346  0.998680    -1.032
 0.060000  0.973597    -2.500  8.279700   178.562  0.002076    85.619  0.998964    -1.310
 0.070000  0.966002    -2.494  8.181424   178.264  0.002233    86.989  0.999072    -1.580
 0.080000  0.967637    -2.534  8.136549   177.804  0.002580    86.959  0.998804    -1.831
 0.090000  0.970329    -3.040  8.205738   178.194  0.002845    87.195  0.999140    -2.088
 0.100000  0.968726    -3.382  8.164176   177.323  0.003208    88.090  0.998507    -2.319
 0.110000  0.971829    -3.859  8.194515   177.320  0.003753    88.289  0.998112    -2.516
 0.120000  0.969189    -4.017  8.176023   177.048  0.003869    85.116  0.998668    -2.824
 0.130000  0.968427    -4.261  8.206286   176.773  0.004184    86.336  0.998548    -3.052
 0.140000  0.969599    -4.775  8.165854   176.368  0.004543    86.515  0.998074    -3.290
 0.150000  0.969330    -5.080  8.167910   176.220  0.004853    86.277  0.997875    -3.508
 0.200000  0.967833    -6.789  8.190599   175.079  0.006569    86.044  0.997393    -4.708
 0.250000  0.967988    -8.309  8.148574   173.488  0.008072    84.143  0.994795    -5.941
 0.300000  0.966326    -9.988  8.164167   172.364  0.009724    82.885  0.995949    -7.076
 0.350000  0.964788   -11.711  8.163328   170.894  0.011382    82.141  0.993927    -8.211
 0.400000  0.963904   -13.210  8.142519   169.630  0.012950    81.151  0.992151    -9.394
 0.450000  0.961855   -14.981  8.174433   168.066  0.014583    80.157  0.990991   -10.564
 0.500000  0.960991   -16.712  8.159507   166.832  0.016220    78.968  0.988851   -11.727
 0.600000  0.956101   -20.004  8.135365   163.802  0.019311    76.630  0.984703   -14.092
 0.700000  0.952744   -23.274  8.123653   161.073  0.022435    74.441  0.979809   -16.431
 0.800000  0.945563   -26.562  8.064230   158.424  0.025430    72.142  0.974008   -18.727
 0.900000  0.937884   -29.840  8.022820   155.522  0.028407    69.875  0.966987   -21.047
 1.000000  0.931041   -33.061  7.972124   152.829  0.031262    67.643  0.959833   -23.332
 1.100000  0.921933   -36.365  7.926409   150.023  0.034053    65.297  0.951595   -25.622
 1.200000  0.913144   -39.612  7.846496   147.178  0.036656    63.146  0.942942   -27.830
 1.300000  0.903627   -42.848  7.784113   144.588  0.039160    61.004  0.933681   -30.078
 1.400000  0.893901   -45.953  7.699291   141.879  0.041617    58.895  0.924610   -32.289
 1.500000  0.882408   -49.060  7.601261   139.071  0.043914    56.656  0.913761   -34.450
 1.600000  0.870946   -52.174  7.507793   136.418  0.046040    54.630  0.903751   -36.593
 1.700000  0.860535   -55.230  7.411053   133.910  0.048060    52.611  0.893306   -38.684
 1.800000  0.850753   -58.281  7.313060   131.432  0.049884    50.647  0.882343   -40.722
 1.900000  0.839175   -61.162  7.197494   128.798  0.051638    48.748  0.871475   -42.684
 2.000000  0.827668   -64.113  7.081053   126.446  0.053268    46.882  0.860870   -44.715
 2.200000  0.806874   -69.856  6.878606   121.781  0.056140    43.321  0.839649   -48.564
 2.400000  0.786736   -75.421  6.638772   117.188  0.058442    39.981  0.819107   -52.224
 2.600000  0.769295   -80.753  6.417909   112.974  0.060495    36.915  0.799589   -55.792
 2.800000  0.751719   -86.133  6.230213   108.745  0.062040    33.982  0.781672   -59.250
 3.000000  0.734134   -91.086  6.014410   104.727  0.063283    31.294  0.764103   -62.595
 3.500000  0.695609  -103.095  5.544162    94.991  0.064984    25.170  0.724298   -70.495
 4.000000  0.663402  -114.063  5.112696    86.029  0.064912    20.140  0.688547   -77.779
 4.500000  0.638914  -124.410  4.723400    77.518  0.063741    16.209  0.658646   -85.160
 5.000000  0.620531  -134.194  4.391813    69.359  0.061559    13.250  0.633935   -92.816
 5.500000  0.609269  -143.460  4.087373    61.512  0.058707    11.505  0.614709  -100.418
 6.000000  0.602760  -152.130  3.815956    53.797  0.055522    11.180  0.600658  -108.173
 6.500000  0.598329  -160.597  3.568110    45.830  0.052624    12.228  0.592411  -116.195
 7.000000  0.594111  -168.840  3.309247    37.897  0.050066    14.738  0.585350  -124.424
 7.500000  0.592583  -176.659  3.046468    30.540  0.048547    18.903  0.579223  -132.443
 8.000000  0.602517   175.232  2.819711    23.774  0.048803    23.991  0.581112  -140.504
 8.500000  0.621974   166.782  2.617380    16.769  0.050689    28.001  0.590381  -148.733
 9.000000  0.645516   159.124  2.403145     9.701  0.052933    31.582  0.602915  -157.021
 9.500000  0.668040   152.469  2.199958     3.466  0.056386    34.971  0.618284  -164.522
10.000000  0.692164   146.617  2.019269    -2.701  0.061358    37.040  0.641841  -171.327
!
!  f       Fmin   Gammaopt  rn/50 
! GHz       dB    MAG  ANG    -
 0.100      0.40  0.63    2   0.21
 0.450      0.47  0.63    4   0.21
 0.900      0.57  0.65   13   0.20
 1.800      0.64  0.51   35   0.20
 5.000      1.07  0.41   77   0.19
10.000      1.82  0.45 -140   0.13
!
! (c) 2009  Infineon Technologies AG, Munich

