!    Infineon Technologies AG
!    BGB707L7ESD 
!    Vce = 4.0V, Ic = 15.0mA
!    DATUM: 30.06.2009 10:58:35
# GHz   S   MA   R  50
!f                S11                 S21                 S12                 S22
!GHz            Mag  Ang            Mag  Ang            Mag  Ang            Mag  Ang
 0.050000  0.833854    -3.182 29.109718   177.253  0.001495    80.544  0.988789    -1.493
 0.060000  0.833489    -4.699 29.618374   176.750  0.001796    79.949  0.989516    -2.046
 0.070000  0.830976    -4.856 29.267214   176.334  0.002105    76.073  0.989872    -2.527
 0.080000  0.831611    -5.603 29.135708   175.629  0.002389    79.967  0.989964    -3.037
 0.090000  0.834838    -6.393 29.372419   175.785  0.002680    78.996  0.989661    -3.456
 0.100000  0.832604    -7.423 29.208405   174.708  0.002913    82.518  0.989045    -3.901
 0.110000  0.833651    -8.003 29.330034   174.459  0.003313    79.428  0.988221    -4.297
 0.120000  0.832015    -8.672 29.273970   173.967  0.003601    81.255  0.988924    -4.845
 0.130000  0.831378    -9.420 29.379129   173.464  0.003740    79.086  0.987564    -5.257
 0.140000  0.831899   -10.134 29.247938   172.797  0.004150    80.191  0.986605    -5.667
 0.150000  0.831707   -10.807 29.235113   172.419  0.004359    79.632  0.985983    -6.101
 0.200000  0.827734   -14.463 29.243893   170.017  0.005840    79.291  0.982268    -8.210
 0.250000  0.823505   -17.879 28.948481   167.209  0.007415    78.349  0.974140   -10.327
 0.300000  0.819395   -21.485 28.892700   164.842  0.008748    76.287  0.970514   -12.304
 0.350000  0.811163   -25.133 28.690121   162.160  0.010062    75.065  0.961725   -14.299
 0.400000  0.806191   -28.551 28.389254   159.689  0.011406    73.488  0.952896   -16.222
 0.450000  0.796801   -32.126 28.225687   156.975  0.012689    71.819  0.943780   -18.180
 0.500000  0.790102   -35.496 27.896132   154.606  0.013981    70.423  0.932517   -20.061
 0.600000  0.770400   -42.168 27.178701   149.560  0.016315    67.106  0.909603   -23.707
 0.700000  0.749575   -48.734 26.455978   144.791  0.018427    64.197  0.883827   -27.162
 0.800000  0.728931   -54.811 25.527157   140.459  0.020371    61.393  0.857236   -30.343
 0.900000  0.705943   -60.769 24.611971   136.145  0.022127    58.956  0.828846   -33.316
 1.000000  0.684010   -66.429 23.720814   132.177  0.023621    56.571  0.801189   -36.082
 1.100000  0.661222   -72.087 22.831924   128.271  0.025023    54.413  0.773400   -38.679
 1.200000  0.639650   -77.214 21.895838   124.634  0.026238    52.474  0.747151   -41.045
 1.300000  0.619203   -82.334 21.048658   121.320  0.027281    50.811  0.721772   -43.277
 1.400000  0.601049   -86.974 20.188972   118.131  0.028218    49.332  0.697922   -45.324
 1.500000  0.582076   -91.511 19.361847   115.014  0.029048    47.933  0.674426   -47.174
 1.600000  0.565191   -95.961 18.558844   112.143  0.029803    46.795  0.653789   -49.003
 1.700000  0.550656  -100.012 17.830935   109.526  0.030454    45.739  0.633627   -50.601
 1.800000  0.537771  -103.979 17.151848   107.006  0.031034    44.958  0.615474   -52.150
 1.900000  0.524895  -107.821 16.478207   104.506  0.031631    44.188  0.598221   -53.557
 2.000000  0.513458  -111.510 15.846905   102.231  0.032116    43.587  0.582852   -55.007
 2.200000  0.494955  -118.346 14.729809    98.004  0.033067    42.662  0.555421   -57.639
 2.400000  0.480228  -124.435 13.696692    94.079  0.033883    42.144  0.532379   -60.025
 2.600000  0.469530  -130.057 12.809071    90.512  0.034660    41.764  0.513043   -62.375
 2.800000  0.459320  -135.521 12.043111    87.020  0.035404    41.679  0.497024   -64.651
 3.000000  0.452350  -140.142 11.323140    83.867  0.036191    41.778  0.482802   -66.876
 3.500000  0.440090  -150.896  9.862423    76.423  0.038101    42.464  0.456205   -72.257
 4.000000  0.432607  -159.935  8.734694    69.698  0.040246    43.709  0.435590   -77.417
 4.500000  0.432378  -167.715  7.840238    63.360  0.042871    45.073  0.420482   -83.245
 5.000000  0.437043  -174.928  7.124610    57.195  0.045845    46.183  0.409580   -89.953
 5.500000  0.444997   178.431  6.523228    51.203  0.049141    47.062  0.402665   -96.932
 6.000000  0.455003   171.985  6.020580    45.206  0.052806    47.610  0.400357  -104.436
 6.500000  0.466330   165.407  5.573552    38.968  0.056786    47.606  0.402385  -112.559
 7.000000  0.477147   158.727  5.148067    32.746  0.060784    47.231  0.404242  -121.069
 7.500000  0.489618   152.083  4.751994    26.881  0.064940    46.683  0.407211  -129.378
 8.000000  0.510207   146.112  4.415734    21.307  0.069390    45.759  0.417035  -137.842
 8.500000  0.540325   140.321  4.116725    15.445  0.073542    44.078  0.433873  -146.700
 9.000000  0.570371   135.223  3.811155     9.487  0.076978    42.632  0.452635  -155.506
 9.500000  0.595698   130.892  3.525376     4.147  0.080568    41.550  0.474493  -163.211
10.000000  0.621104   127.261  3.275745    -1.247  0.084868    40.137  0.505021  -170.068
!
!                    Infineon Technologies AG
