!    Infineon Technologies AG
!    BGB707L7ESD RU919007 w#7 Sample Build #08493 Teil Nr. 3
!    Vce = 4.0V, Ic = 10.0mA
!    DATUM: 30.06.2009 10:58:28
# GHz   S   MA   R  50
!f                S11                 S21                 S12                 S22
!GHz            Mag  Ang            Mag  Ang            Mag  Ang            Mag  Ang
 0.050000  0.884246    -2.656 22.863689   177.635  0.001575    68.427  0.990983    -1.429
 0.060000  0.884739    -3.896 23.268265   177.214  0.001821    84.804  0.991502    -1.842
 0.070000  0.885867    -4.289 22.990856   176.832  0.002251    76.619  0.991902    -2.286
 0.080000  0.880204    -4.616 22.872334   176.232  0.002475    80.554  0.991540    -2.679
 0.090000  0.885160    -5.341 23.058170   176.446  0.002721    78.020  0.991505    -3.039
 0.100000  0.881860    -6.024 22.930092   175.464  0.003073    79.023  0.990899    -3.439
 0.110000  0.882128    -6.616 23.019846   175.297  0.003272    81.743  0.990429    -3.775
 0.120000  0.881493    -6.944 22.986626   174.886  0.003656    76.564  0.991109    -4.242
 0.130000  0.881737    -7.613 23.065329   174.454  0.003966    78.977  0.990063    -4.578
 0.140000  0.881931    -8.317 22.966845   173.884  0.004229    81.770  0.989431    -4.930
 0.150000  0.881248    -8.893 22.958748   173.581  0.004547    80.287  0.988508    -5.310
 0.200000  0.880842   -11.940 23.000452   171.582  0.006059    80.000  0.986531    -7.145
 0.250000  0.875924   -14.759 22.805243   169.161  0.007555    79.077  0.979915    -8.979
 0.300000  0.873080   -17.795 22.819530   167.181  0.008956    77.861  0.978614   -10.682
 0.350000  0.866512   -20.731 22.713743   164.864  0.010390    76.300  0.972894   -12.471
 0.400000  0.863011   -23.553 22.559294   162.758  0.011803    75.071  0.966931   -14.213
 0.450000  0.856420   -26.583 22.508352   160.364  0.013236    73.514  0.960845   -15.979
 0.500000  0.851078   -29.366 22.330183   158.344  0.014613    72.122  0.952492   -17.622
 0.600000  0.835635   -35.138 21.958307   153.800  0.017152    69.384  0.936221   -20.981
 0.700000  0.819438   -40.702 21.569099   149.582  0.019623    66.489  0.917322   -24.210
 0.800000  0.801712   -46.048 21.031244   145.594  0.021837    63.907  0.896977   -27.245
 0.900000  0.781042   -51.287 20.482773   141.560  0.023908    61.153  0.874988   -30.195
 1.000000  0.762482   -56.342 19.937384   137.810  0.025788    58.757  0.852204   -32.968
 1.100000  0.741298   -61.449 19.379395   134.050  0.027497    56.377  0.829109   -35.663
 1.200000  0.720672   -66.108 18.756058   130.491  0.029019    54.193  0.806531   -38.141
 1.300000  0.700741   -70.859 18.191872   127.228  0.030389    52.264  0.783752   -40.526
 1.400000  0.681359   -75.234 17.585905   124.014  0.031615    50.430  0.761997   -42.797
 1.500000  0.661478   -79.424 16.988855   120.856  0.032687    48.688  0.739686   -44.871
 1.600000  0.642649   -83.678 16.404261   117.891  0.033664    47.157  0.719959   -46.884
 1.700000  0.627654   -87.546 15.856211   115.192  0.034504    45.701  0.700495   -48.745
 1.800000  0.611562   -91.390 15.337226   112.568  0.035271    44.507  0.681808   -50.521
 1.900000  0.596876   -95.051 14.811263   109.939  0.035971    43.373  0.664101   -52.181
 2.000000  0.582502   -98.623 14.315770   107.533  0.036568    42.274  0.647996   -53.854
 2.200000  0.559072  -105.460 13.419877   103.069  0.037618    40.501  0.618507   -56.907
 2.400000  0.538791  -111.677 12.559834    98.846  0.038410    39.125  0.593245   -59.668
 2.600000  0.523662  -117.480 11.812191    95.047  0.039168    38.191  0.570964   -62.337
 2.800000  0.509647  -123.064 11.165432    91.320  0.039770    37.368  0.552360   -64.881
 3.000000  0.497904  -128.027 10.540759    87.931  0.040324    36.956  0.535518   -67.371
 3.500000  0.476696  -139.581  9.255524    79.950  0.041558    36.488  0.502520   -73.169
 4.000000  0.462745  -149.419  8.241463    72.732  0.042750    36.879  0.476898   -78.631
 4.500000  0.456320  -158.025  7.420184    65.989  0.044318    37.969  0.457786   -84.628
 5.000000  0.456110  -166.168  6.762880    59.463  0.046160    39.204  0.443541   -91.308
 5.500000  0.459939  -173.517  6.205746    53.169  0.048420    40.580  0.434085   -98.228
 6.000000  0.467631   179.839  5.732593    46.892  0.051078    41.840  0.429570  -105.587
 6.500000  0.476671   172.644  5.315063    40.383  0.054285    42.652  0.429912  -113.539
 7.000000  0.485309   165.438  4.910786    33.902  0.057627    43.127  0.430458  -121.831
 7.500000  0.495618   158.330  4.532023    27.831  0.061293    43.434  0.431973  -129.955
 8.000000  0.514616   151.815  4.209378    22.015  0.065421    43.265  0.440712  -138.240
 8.500000  0.543185   145.465  3.923478    15.962  0.069428    42.225  0.456351  -146.897
 9.000000  0.572701   139.881  3.627017     9.905  0.072837    41.303  0.474399  -155.544
 9.500000  0.598714   135.180  3.352654     4.382  0.076478    40.657  0.495545  -163.173
10.000000  0.623822   131.096  3.109830    -1.151  0.080855    39.648  0.524960  -169.991
!
!  f       Fmin   Gammaopt  rn/50 
! GHz       dB    MAG  ANG    -
 0.100      0.55  0.46    2   0.18
 0.450      0.69  0.46    4   0.18
 0.900      0.73  0.47   12   0.18
 1.800      0.75  0.40   33   0.17
 5.000      0.97  0.31   70   0.16
10.000	      1.48  0.39 -123   0.14
!
! (c) 2009  Infineon Technologies AG, Munich
