!    Infineon Technologies AG
!    BGB707L7ESD 
!    Vce = 3.5V, Ic = 1.6mA
!    DATUM: 30.06.2009 10:59:31
# GHz   S   MA   R  50
!f                S11                 S21                 S12                 S22
!GHz            Mag  Ang            Mag  Ang            Mag  Ang            Mag  Ang
 0.050000  0.980601    -1.285  5.274374   179.004  0.001838    86.303  0.998173    -0.877
 0.060000  0.988029    -1.622  5.373413   178.824  0.001974    84.925  0.998885    -1.139
 0.070000  0.977430    -1.730  5.310346   178.517  0.002076    84.060  0.998929    -1.364
 0.080000  0.979876    -2.231  5.285863   178.070  0.002521    84.788  0.998606    -1.600
 0.090000  0.982813    -2.629  5.327802   178.508  0.002974    85.807  0.998842    -1.840
 0.100000  0.981420    -2.895  5.301759   177.659  0.003170    87.792  0.998055    -2.027
 0.110000  0.982282    -3.196  5.318850   177.706  0.003525    86.111  0.998188    -2.229
 0.120000  0.977647    -3.334  5.312579   177.431  0.003897    87.059  0.999082    -2.524
 0.130000  0.980388    -3.608  5.330762   177.215  0.004221    86.772  0.997805    -2.664
 0.140000  0.981077    -3.969  5.306926   176.823  0.004507    87.173  0.997510    -2.888
 0.150000  0.981254    -4.175  5.303167   176.740  0.004811    86.888  0.997464    -3.103
 0.200000  0.983480    -5.688  5.319123   175.753  0.006549    84.790  0.997221    -4.153
 0.250000  0.979935    -7.095  5.288741   174.309  0.008109    84.059  0.993779    -5.270
 0.300000  0.980255    -8.518  5.304618   173.372  0.009709    83.629  0.997034    -6.222
 0.350000  0.978829    -9.984  5.305470   172.060  0.011321    82.779  0.995330    -7.273
 0.400000  0.978397   -11.260  5.293658   170.952  0.012913    82.082  0.993737    -8.272
 0.450000  0.977204   -12.735  5.317842   169.584  0.014464    80.894  0.993452    -9.299
 0.500000  0.976167   -14.192  5.308058   168.517  0.016084    79.838  0.991846   -10.336
 0.600000  0.973579   -16.971  5.301905   165.836  0.019293    77.962  0.989657   -12.424
 0.700000  0.970756   -19.858  5.305624   163.430  0.022451    75.917  0.986606   -14.501
 0.800000  0.966657   -22.624  5.276109   161.117  0.025478    73.941  0.982802   -16.556
 0.900000  0.961644   -25.457  5.265563   158.536  0.028562    71.779  0.978642   -18.631
 1.000000  0.957705   -28.284  5.246662   156.155  0.031547    69.737  0.973920   -20.700
 1.100000  0.950771   -31.147  5.238026   153.621  0.034526    67.628  0.968839   -22.775
 1.200000  0.945197   -33.934  5.204628   151.086  0.037290    65.597  0.963082   -24.777
 1.300000  0.938948   -36.796  5.183138   148.746  0.040026    63.540  0.957319   -26.845
 1.400000  0.932595   -39.536  5.144758   146.263  0.042679    61.554  0.950995   -28.894
 1.500000  0.924438   -42.213  5.103179   143.695  0.045209    59.477  0.943876   -30.864
 1.600000  0.916498   -45.071  5.068353   141.220  0.047638    57.481  0.937442   -32.891
 1.700000  0.909636   -47.773  5.025730   138.897  0.049959    55.480  0.930343   -34.867
 1.800000  0.901731   -50.483  4.981239   136.568  0.052163    53.581  0.922593   -36.805
 1.900000  0.893329   -53.123  4.928134   134.113  0.054233    51.630  0.915048   -38.722
 2.000000  0.884785   -55.768  4.876668   131.810  0.056245    49.753  0.907526   -40.641
 2.200000  0.870053   -61.077  4.782166   127.375  0.059805    46.134  0.891964   -44.375
 2.400000  0.854220   -66.159  4.659709   122.913  0.062866    42.597  0.876804   -48.016
 2.600000  0.840325   -71.184  4.543829   118.845  0.065619    39.288  0.861815   -51.604
 2.800000  0.825682   -76.232  4.452887   114.581  0.067871    36.111  0.847840   -55.092
 3.000000  0.811551   -81.000  4.337989   110.558  0.069835    33.041  0.833681   -58.501
 3.500000  0.779171   -92.755  4.079112   100.692  0.072888    25.802  0.800450   -66.690
 4.000000  0.748286  -103.606  3.829031    91.380  0.073812    19.337  0.768228   -74.334
 4.500000  0.722076  -113.998  3.588315    82.379  0.072993    13.742  0.740271   -82.092
 5.000000  0.701528  -124.077  3.375896    73.732  0.070532     8.894  0.715662   -90.104
 5.500000  0.686943  -133.674  3.171897    65.329  0.066712     5.016  0.695281   -98.039
 6.000000  0.676359  -142.680  2.983341    57.080  0.061849     2.605  0.679087  -106.061
 6.500000  0.668734  -151.647  2.806599    48.600  0.056636     1.538  0.668473  -114.297
 7.000000  0.659760  -160.450  2.613860    40.046  0.051221     2.436  0.658646  -122.720
 7.500000  0.653352  -168.825  2.409828    32.141  0.046421     6.386  0.648699  -130.924
 8.000000  0.657768  -176.826  2.228195    24.920  0.043737    13.019  0.646304  -139.098
 8.500000  0.673034   174.578  2.068511    17.545  0.043590    19.929  0.652020  -147.379
 9.000000  0.692960   166.183  1.896773    10.077  0.044741    26.823  0.661488  -155.779
 9.500000  0.712331   158.785  1.729306     3.551  0.047926    33.268  0.672452  -163.422
10.000000  0.734340   152.162  1.579190    -2.834  0.053293    37.446  0.692407  -170.334
!
!                    Infineon Technologies AG
