!    Infineon Technologies AG
!    BGB707L7ESD RU919007 w#7 Sample Build #08493 Teil Nr. 3
!    Vce = 4.0V, Ic = 6.0mA
!    DATUM: 30.06.2009 10:58:20
# GHz   S   MA   R  50
!f                S11                 S21                 S12                 S22
!GHz            Mag  Ang            Mag  Ang            Mag  Ang            Mag  Ang
 0.050000  0.930482    -2.500 15.997581   178.145  0.001435    72.636  0.993405    -1.268
 0.060000  0.930365    -2.807 16.279243   177.792  0.002065    76.526  0.994012    -1.601
 0.070000  0.925742    -3.044 16.080286   177.469  0.002264    80.060  0.994195    -1.940
 0.080000  0.925139    -3.462 15.993879   176.931  0.002583    79.309  0.993890    -2.291
 0.090000  0.928240    -4.393 16.124626   177.218  0.002866    78.371  0.993821    -2.583
 0.100000  0.925368    -4.809 16.042465   176.293  0.003072    78.290  0.993276    -2.878
 0.110000  0.931420    -5.400 16.104362   176.205  0.003451    81.581  0.992902    -3.173
 0.120000  0.925455    -5.597 16.076555   175.878  0.003706    80.699  0.993738    -3.581
 0.130000  0.927294    -6.058 16.129265   175.540  0.004107    79.451  0.992885    -3.846
 0.140000  0.928134    -6.597 16.061726   175.044  0.004383    80.088  0.992190    -4.133
 0.150000  0.928342    -6.878 16.059217   174.822  0.004610    80.949  0.991883    -4.460
 0.200000  0.927454    -9.457 16.101946   173.252  0.006240    80.392  0.990854    -5.980
 0.250000  0.922738   -11.720 15.998943   171.205  0.007727    80.385  0.985970    -7.501
 0.300000  0.922557   -14.126 16.026419   169.647  0.009263    79.272  0.986949    -8.948
 0.350000  0.918084   -16.360 15.998555   167.721  0.010683    78.243  0.982821   -10.424
 0.400000  0.916576   -18.638 15.925170   166.016  0.012242    77.011  0.979014   -11.882
 0.450000  0.912267   -21.011 15.950361   164.005  0.013723    76.036  0.975784   -13.374
 0.500000  0.909018   -23.336 15.876038   162.326  0.015179    74.758  0.970890   -14.840
 0.600000  0.897811   -27.939 15.733425   158.456  0.018003    72.267  0.960950   -17.756
 0.700000  0.888102   -32.448 15.593881   154.860  0.020780    69.642  0.949246   -20.609
 0.800000  0.874715   -36.903 15.347994   151.443  0.023336    67.020  0.936085   -23.364
 0.900000  0.860289   -41.278 15.109136   147.880  0.025756    64.602  0.921438   -26.097
 1.000000  0.846479   -45.584 14.853896   144.536  0.028102    62.094  0.905933   -28.738
 1.100000  0.829774   -49.933 14.600982   141.102  0.030258    59.724  0.889249   -31.323
 1.200000  0.813022   -54.001 14.281465   137.775  0.032248    57.454  0.872765   -33.783
 1.300000  0.796106   -58.150 14.001128   134.682  0.034035    55.207  0.855443   -36.237
 1.400000  0.779933   -62.040 13.674432   131.603  0.035718    53.146  0.838120   -38.555
 1.500000  0.762200   -65.836 13.337401   128.506  0.037265    51.153  0.819999   -40.769
 1.600000  0.744475   -69.692 13.010259   125.562  0.038662    49.293  0.803135   -42.921
 1.700000  0.729094   -73.324 12.684096   122.860  0.039870    47.428  0.786234   -44.967
 1.800000  0.714367   -76.816 12.370379   120.196  0.040970    45.805  0.769489   -46.934
 1.900000  0.698396   -80.286 12.034673   117.489  0.041960    44.187  0.753221   -48.802
 2.000000  0.683501   -83.710 11.715754   115.018  0.042902    42.682  0.738248   -50.733
 2.200000  0.657621   -90.247 11.129199   110.321  0.044341    40.057  0.709249   -54.195
 2.400000  0.633976   -96.269 10.534192   105.843  0.045464    37.686  0.683248   -57.417
 2.600000  0.615256  -102.097 10.006166   101.774  0.046402    35.690  0.659661   -60.524
 2.800000  0.596227  -107.721  9.538004    97.755  0.047074    34.014  0.639219   -63.479
 3.000000  0.581187  -112.794  9.072249    94.054  0.047571    32.602  0.620076   -66.307
 3.500000  0.548809  -124.909  8.088835    85.284  0.048219    29.904  0.580796   -72.900
 4.000000  0.524547  -135.421  7.276670    77.371  0.048386    28.500  0.548914   -78.939
 4.500000  0.510029  -144.945  6.597414    70.011  0.048478    28.300  0.524270   -85.270
 5.000000  0.502608  -153.948  6.046601    62.894  0.048573    28.799  0.505558   -92.166
 5.500000  0.500806  -162.174  5.568014    56.083  0.048943    30.067  0.492172   -99.176
 6.000000  0.503666  -169.762  5.158827    49.324  0.049805    31.937  0.484181  -106.499
 6.500000  0.507981  -177.044  4.791870    42.368  0.051253    33.867  0.481336  -114.317
 7.000000  0.512413   175.311  4.433010    35.424  0.053213    35.658  0.479402  -122.436
 7.500000  0.518939   167.515  4.086889    28.937  0.055771    37.499  0.478558  -130.412
 8.000000  0.534938   160.150  3.792040    22.815  0.059190    38.895  0.485050  -138.532
 8.500000  0.560678   153.107  3.530625    16.518  0.062928    39.083  0.498665  -146.952
 9.000000  0.589668   146.777  3.259537    10.048  0.066225    39.185  0.515079  -155.431
 9.500000  0.614583   141.400  3.002594     4.290  0.069858    39.474  0.534413  -163.003
10.000000  0.640129   136.733  2.777851    -1.465  0.074463    39.224  0.562134  -169.819
!
!  f       Fmin   Gammaopt  rn/50
! GHz       dB    MAG  ANG    -
 0.100      0.45  0.46    2   0.18
 0.450      0.53  0.46    4   0.18
 0.900      0.61  0.47   12   0.18
 1.800      0.63  0.40   33   0.17
 5.000      0.92  0.31   70   0.16
10.000      1.53  0.40 -131   0.13
!
! (c) 2009  Infineon Technologies AG, Munich

