!    Infineon Technologies AG
!    BGB707L7ESD 
!    Vce = 2.5V, Ic = 1.6mA
!    DATUM: 30.06.2009 10:16:15
# GHz   S   MA   R  50
!f                S11                 S21                 S12                 S22
!GHz            Mag  Ang            Mag  Ang            Mag  Ang            Mag  Ang
 0.050000  0.978701    -1.461  5.273481   179.084  0.001775    96.151  0.998579    -0.902
 0.060000  0.983047    -1.727  5.374337   178.858  0.002193    87.095  0.999224    -1.196
 0.070000  0.983188    -1.859  5.312990   178.581  0.002354    89.662  0.999541    -1.430
 0.080000  0.976366    -2.246  5.282100   178.123  0.002644    88.308  0.999098    -1.668
 0.090000  0.982684    -2.787  5.330993   178.511  0.002950    89.734  0.999363    -1.905
 0.100000  0.979644    -2.998  5.303878   177.701  0.003380    87.547  0.998886    -2.091
 0.110000  0.981246    -3.185  5.325244   177.705  0.003619    87.266  0.998758    -2.299
 0.120000  0.979980    -3.475  5.317608   177.454  0.003884    85.958  0.999575    -2.593
 0.130000  0.981528    -3.706  5.337119   177.205  0.004253    87.237  0.998412    -2.742
 0.140000  0.980863    -4.017  5.313632   176.798  0.004625    87.802  0.998480    -2.974
 0.150000  0.979460    -4.194  5.310613   176.706  0.004979    87.132  0.998272    -3.203
 0.200000  0.980362    -5.752  5.328099   175.704  0.006605    86.109  0.998144    -4.251
 0.250000  0.978186    -7.116  5.305244   174.237  0.008284    85.251  0.995789    -5.334
 0.300000  0.979098    -8.563  5.317172   173.295  0.010017    84.412  0.996884    -6.346
 0.350000  0.977439   -10.010  5.315438   171.973  0.011717    83.124  0.995807    -7.411
 0.400000  0.977840   -11.291  5.303211   170.874  0.013292    82.108  0.994464    -8.447
 0.450000  0.976261   -12.829  5.326490   169.479  0.015039    81.370  0.994205    -9.537
 0.500000  0.974938   -14.254  5.320934   168.393  0.016694    80.085  0.992663   -10.595
 0.600000  0.973086   -17.110  5.317391   165.690  0.019905    78.016  0.990196   -12.728
 0.700000  0.969748   -20.002  5.317746   163.232  0.023174    75.939  0.986968   -14.852
 0.800000  0.965626   -22.725  5.289318   160.916  0.026375    73.936  0.983296   -16.960
 0.900000  0.960715   -25.615  5.274270   158.364  0.029494    71.837  0.978762   -19.072
 1.000000  0.957015   -28.421  5.258105   155.944  0.032618    69.655  0.974104   -21.184
 1.100000  0.949941   -31.311  5.245740   153.374  0.035600    67.507  0.968757   -23.310
 1.200000  0.944406   -34.083  5.209255   150.828  0.038502    65.500  0.963167   -25.356
 1.300000  0.937396   -36.963  5.192328   148.472  0.041318    63.334  0.957182   -27.503
 1.400000  0.931043   -39.661  5.154626   145.951  0.044078    61.361  0.950754   -29.559
 1.500000  0.923095   -42.423  5.112115   143.353  0.046684    59.211  0.943537   -31.611
 1.600000  0.914674   -45.256  5.071230   140.882  0.049147    57.216  0.936520   -33.662
 1.700000  0.907638   -47.966  5.027884   138.556  0.051515    55.238  0.928980   -35.677
 1.800000  0.899850   -50.676  4.984861   136.201  0.053800    53.243  0.921178   -37.656
 1.900000  0.891940   -53.357  4.928158   133.704  0.055923    51.341  0.913356   -39.584
 2.000000  0.882659   -56.043  4.874368   131.405  0.057982    49.397  0.905770   -41.574
 2.200000  0.867849   -61.294  4.777496   126.945  0.061661    45.746  0.889771   -45.402
 2.400000  0.851386   -66.473  4.651191   122.453  0.064811    42.165  0.874149   -49.123
 2.600000  0.837304   -71.474  4.540523   118.313  0.067598    38.841  0.858756   -52.749
 2.800000  0.823011   -76.453  4.441792   114.135  0.069940    35.615  0.844556   -56.321
 3.000000  0.808819   -81.256  4.324428   110.059  0.071911    32.540  0.830186   -59.801
 3.500000  0.774886   -93.022  4.067624   100.131  0.075099    25.231  0.796070   -68.137
 4.000000  0.744883  -103.877  3.810787    90.746  0.076057    18.698  0.763235   -75.954
 4.500000  0.718591  -114.268  3.566779    81.778  0.075173    13.029  0.734728   -83.837
 5.000000  0.698452  -124.315  3.352928    73.088  0.072729     8.079  0.709781   -91.986
 5.500000  0.683889  -133.909  3.146382    64.683  0.068823     4.082  0.689356  -100.037
 6.000000  0.673783  -142.955  2.956441    56.406  0.063937     1.505  0.673220  -108.166
 6.500000  0.666511  -151.883  2.779640    47.920  0.058620     0.247  0.662621  -116.465
 7.000000  0.658145  -160.679  2.584929    39.394  0.053022     0.768  0.652920  -124.934
 7.500000  0.651033  -169.020  2.379045    31.494  0.047940     4.320  0.643200  -133.153
 8.000000  0.656114  -177.015  2.198777    24.322  0.044924    10.498  0.641782  -141.329
 8.500000  0.671672   174.327  2.039353    16.962  0.044282    17.160  0.648094  -149.593
 9.000000  0.691878   165.928  1.866653     9.537  0.044973    24.030  0.658001  -157.899
 9.500000  0.711454   158.587  1.701027     3.024  0.047820    30.618  0.669740  -165.444
10.000000  0.733709   151.992  1.554013    -3.282  0.052953    35.147  0.690194  -172.274
!
!                    Infineon Technologies AG
