!    Infineon Technologies AG
!    BGB707L7ESD RU919007 w#7 Sample Build #08493 Teil Nr. 3
!    Vce = 2.5V, Ic = 3.0mA
!    DATUM: 30.06.2009 10:16:38
# GHz   S   MA   R  50
!f                S11                 S21                 S12                 S22
!GHz            Mag  Ang            Mag  Ang            Mag  Ang            Mag  Ang
 0.050000  0.966153    -1.647  9.197178   178.805  0.001716    98.783  0.998866    -1.112
 0.060000  0.969570    -2.354  9.368972   178.508  0.002308    88.547  0.998782    -1.404
 0.070000  0.966452    -2.316  9.257565   178.205  0.002441    88.415  0.998838    -1.631
 0.080000  0.962546    -2.514  9.215202   177.729  0.002650    90.264  0.998755    -1.936
 0.090000  0.968197    -3.447  9.283333   178.058  0.002854    85.213  0.998925    -2.173
 0.100000  0.962804    -3.577  9.238066   177.213  0.003251    87.294  0.998533    -2.435
 0.110000  0.966352    -3.927  9.272233   177.176  0.003550    87.571  0.998402    -2.707
 0.120000  0.964391    -4.291  9.259247   176.892  0.003840    88.044  0.999051    -3.015
 0.130000  0.963526    -4.549  9.293503   176.595  0.004286    86.244  0.998791    -3.260
 0.140000  0.964471    -4.835  9.255659   176.179  0.004650    86.185  0.997874    -3.460
 0.150000  0.964274    -5.294  9.251309   176.036  0.004923    86.082  0.997535    -3.718
 0.200000  0.964606    -7.085  9.273855   174.794  0.006662    85.990  0.997053    -4.959
 0.250000  0.962027    -8.818  9.226423   173.118  0.008169    84.698  0.994235    -6.232
 0.300000  0.962507   -10.607  9.248967   171.974  0.009865    83.332  0.995145    -7.420
 0.350000  0.958975   -12.370  9.244535   170.421  0.011545    82.054  0.993313    -8.671
 0.400000  0.958241   -14.020  9.220371   169.062  0.013153    80.895  0.991286    -9.888
 0.450000  0.956815   -15.827  9.247230   167.437  0.014741    79.718  0.989943   -11.149
 0.500000  0.954604   -17.623  9.224723   166.138  0.016393    78.490  0.987400   -12.373
 0.600000  0.949276   -21.141  9.197911   163.005  0.019574    76.097  0.982402   -14.866
 0.700000  0.944282   -24.697  9.179971   160.076  0.022710    73.786  0.976524   -17.314
 0.800000  0.936683   -28.063  9.100792   157.294  0.025716    71.463  0.969372   -19.725
 0.900000  0.928681   -31.551  9.034985   154.320  0.028674    69.013  0.961677   -22.151
 1.000000  0.920386   -34.937  8.970037   151.503  0.031502    66.773  0.953209   -24.532
 1.100000  0.910092   -38.428  8.905009   148.546  0.034253    64.384  0.943669   -26.928
 1.200000  0.900182   -41.714  8.798126   145.643  0.036862    62.147  0.933822   -29.253
 1.300000  0.889598   -45.174  8.712989   142.962  0.039309    60.000  0.923424   -31.583
 1.400000  0.878620   -48.382  8.599931   140.172  0.041696    57.798  0.912528   -33.841
 1.500000  0.866159   -51.664  8.478999   137.273  0.043900    55.572  0.900371   -36.068
 1.600000  0.852859   -54.896  8.354929   134.562  0.045943    53.547  0.888990   -38.251
 1.700000  0.841201   -58.032  8.229017   132.017  0.047874    51.521  0.877356   -40.387
 1.800000  0.830079   -61.103  8.106553   129.491  0.049643    49.570  0.865102   -42.461
 1.900000  0.817734   -64.149  7.965803   126.795  0.051240    47.690  0.852952   -44.470
 2.000000  0.805698   -67.222  7.824642   124.368  0.052805    45.726  0.841459   -46.590
 2.200000  0.783916   -73.130  7.569951   119.696  0.055437    42.329  0.817941   -50.401
 2.400000  0.762016   -78.683  7.275112   115.115  0.057579    39.055  0.795999   -54.111
 2.600000  0.743541   -84.156  7.019069   110.866  0.059330    36.061  0.774873   -57.678
 2.800000  0.724591   -89.628  6.788230   106.604  0.060742    33.311  0.756097   -61.136
 3.000000  0.707207   -94.621  6.531686   102.631  0.061832    30.732  0.737187   -64.470
 3.500000  0.668103  -106.723  5.981936    92.991  0.063219    25.062  0.696205   -72.311
 4.000000  0.636994  -117.732  5.485849    84.140  0.062973    20.529  0.659499   -79.496
 4.500000  0.612966  -127.852  5.046112    75.840  0.061843    17.167  0.629724   -86.773
 5.000000  0.596016  -137.631  4.674390    67.826  0.059934    14.749  0.605606   -94.394
 5.500000  0.586131  -146.726  4.338171    60.139  0.057445    13.562  0.586954  -101.968
 6.000000  0.581640  -155.196  4.041278    52.611  0.054901    13.763  0.574061  -109.690
 6.500000  0.579233  -163.516  3.770014    44.854  0.052725    15.108  0.566819  -117.702
 7.000000  0.576065  -171.608  3.490847    37.095  0.050982    17.592  0.560912  -125.903
 7.500000  0.575290  -179.287  3.212912    29.885  0.050183    21.422  0.556053  -133.897
 8.000000  0.586860   172.547  2.971552    23.253  0.051066    25.712  0.559346  -141.938
 8.500000  0.606837   164.249  2.759287    16.388  0.053186    28.873  0.570063  -150.144
 9.000000  0.631646   156.796  2.534962     9.477  0.055533    31.718  0.583982  -158.376
 9.500000  0.654999   150.395  2.321854     3.350  0.058893    34.474  0.600486  -165.774
10.000000  0.680525   144.721  2.133247    -2.710  0.063664    36.137  0.625442  -172.486
!
!  f       Fmin   Gammaopt  rn/50 
! GHz       dB    MAG  ANG    -
 0.100      0.40  0.63    2   0.21
 0.450      0.47  0.63    4   0.21
 0.900      0.57  0.65   13   0.20
 1.800      0.64  0.51   35   0.20
 5.000      1.07  0.41   77   0.19
10.000      1.82  0.45 -140   0.13
!
! (c) 2009  Infineon Technologies AG, Munich
