!    Infineon Technologies AG
!    BGB707L7ESD RU919007 w#7 Sample Build #08493 Teil Nr. 3
!    Vce = 2.5V, Ic = 6.0mA
!    DATUM: 30.06.2009 10:16:54
# GHz   S   MA   R  50
!f                S11                 S21                 S12                 S22
!GHz            Mag  Ang            Mag  Ang            Mag  Ang            Mag  Ang
 0.050000  0.928252    -2.115 16.127222   178.300  0.001771    90.586  0.997966    -1.319
 0.060000  0.937290    -3.048 16.425570   177.965  0.002075    85.478  0.998217    -1.732
 0.070000  0.928736    -2.951 16.229031   177.611  0.002358    86.005  0.998681    -2.076
 0.080000  0.930101    -3.693 16.147999   177.045  0.002558    84.793  0.998472    -2.431
 0.090000  0.935017    -4.254 16.280163   177.321  0.002963    87.514  0.998272    -2.695
 0.100000  0.930316    -4.900 16.194574   176.369  0.003074    86.653  0.997689    -3.022
 0.110000  0.931473    -5.418 16.260197   176.257  0.003556    84.425  0.997463    -3.345
 0.120000  0.931741    -5.703 16.229353   175.935  0.003780    86.857  0.998310    -3.764
 0.130000  0.931344    -6.230 16.298292   175.563  0.004290    87.495  0.997047    -3.985
 0.140000  0.929408    -6.671 16.218857   175.049  0.004527    86.487  0.996658    -4.328
 0.150000  0.929152    -7.182 16.225000   174.788  0.004901    86.237  0.996338    -4.641
 0.200000  0.929359    -9.621 16.262167   173.177  0.006466    85.106  0.994774    -6.223
 0.250000  0.926734   -11.914 16.160515   171.087  0.008051    82.542  0.991182    -7.839
 0.300000  0.925407   -14.197 16.179695   169.500  0.009658    81.806  0.990778    -9.341
 0.350000  0.921314   -16.634 16.142412   167.537  0.011153    80.174  0.986748   -10.876
 0.400000  0.918428   -18.841 16.068558   165.796  0.012785    78.973  0.982894   -12.375
 0.450000  0.914055   -21.299 16.085003   163.754  0.014370    77.460  0.979256   -13.940
 0.500000  0.911289   -23.609 16.012318   162.040  0.015886    75.965  0.974378   -15.465
 0.600000  0.900987   -28.286 15.856632   158.172  0.018839    73.034  0.963828   -18.493
 0.700000  0.889498   -32.973 15.717676   154.480  0.021710    70.201  0.951476   -21.463
 0.800000  0.876093   -37.403 15.455130   151.020  0.024362    67.553  0.937635   -24.315
 0.900000  0.860910   -41.818 15.208541   147.401  0.026941    64.946  0.922059   -27.161
 1.000000  0.846148   -46.141 14.948459   144.014  0.029333    62.389  0.906069   -29.904
 1.100000  0.829792   -50.487 14.680659   140.553  0.031546    59.891  0.888879   -32.592
 1.200000  0.812924   -54.661 14.351603   137.187  0.033582    57.493  0.871213   -35.138
 1.300000  0.795556   -58.816 14.059792   134.109  0.035508    55.271  0.853492   -37.678
 1.400000  0.779270   -62.739 13.726014   130.985  0.037221    53.140  0.835304   -40.086
 1.500000  0.760514   -66.570 13.379263   127.854  0.038754    50.992  0.816311   -42.368
 1.600000  0.743160   -70.484 13.030202   124.908  0.040191    49.095  0.798842   -44.607
 1.700000  0.727513   -74.091 12.701115   122.195  0.041427    47.242  0.781087   -46.735
 1.800000  0.711425   -77.650 12.383873   119.517  0.042583    45.525  0.763983   -48.766
 1.900000  0.695935   -81.113 12.044744   116.776  0.043560    43.945  0.747218   -50.709
 2.000000  0.680869   -84.587 11.711303   114.285  0.044492    42.401  0.731644   -52.663
 2.200000  0.654607   -91.054 11.112883   109.652  0.046035    39.687  0.701660   -56.260
 2.400000  0.631392   -97.145 10.511021   105.102  0.047132    37.266  0.675124   -59.624
 2.600000  0.611307  -102.883  9.975155   101.051  0.048108    35.306  0.650934   -62.830
 2.800000  0.593479  -108.576  9.504175    97.050  0.048823    33.566  0.630013   -65.854
 3.000000  0.577828  -113.629  9.031642    93.366  0.049322    32.039  0.610607   -68.844
 3.500000  0.545475  -125.669  8.039365    84.594  0.050039    29.273  0.570359   -75.625
 4.000000  0.521801  -136.202  7.223365    76.652  0.050199    27.805  0.537856   -81.857
 4.500000  0.507332  -145.726  6.544322    69.256  0.050305    27.339  0.513010   -88.422
 5.000000  0.500698  -154.722  5.990904    62.141  0.050430    27.707  0.494107   -95.472
 5.500000  0.499364  -162.939  5.512231    55.321  0.050802    28.731  0.480991  -102.642
 6.000000  0.501948  -170.426  5.100431    48.559  0.051573    30.317  0.473410  -110.129
 6.500000  0.506805  -177.795  4.733032    41.589  0.052970    31.982  0.471364  -118.043
 7.000000  0.511130   174.519  4.371400    34.648  0.054766    33.581  0.470030  -126.235
 7.500000  0.517099   166.702  4.024751    28.190  0.057129    35.235  0.470212  -134.217
 8.000000  0.533661   159.438  3.731749    22.097  0.060328    36.552  0.478202  -142.306
 8.500000  0.559732   152.354  3.470011    15.752  0.063807    36.742  0.493130  -150.650
 9.000000  0.587837   146.082  3.197630     9.428  0.066844    36.899  0.510552  -158.948
 9.500000  0.612087   140.718  2.945354     3.682  0.070264    37.248  0.531086  -166.311
10.000000  0.638256   136.167  2.721540    -2.022  0.074666    37.080  0.559609  -172.930
!
!  f       Fmin   Gammaopt  rn/50
! GHz       dB    MAG  ANG    -
 0.100      0.45  0.46    2   0.18
 0.450      0.53  0.46    4   0.18
 0.900      0.61  0.47   12   0.18
 1.800      0.63  0.40   33   0.17
 5.000      0.92  0.31   70   0.16
10.000      1.53  0.40 -131   0.13
!
! (c) 2009  Infineon Technologies AG, Munich

