!    Infineon Technologies AG
!    BGB707L7ESD RU919007 w#7 Sample Build #08493 Teil Nr. 3
!    Vce = 4.0V, Ic = 2.1mA
!    DATUM: 30.06.2009 10:57:49
# GHz   S   MA   R  50
!f                S11                 S21                 S12                 S22
!GHz            Mag  Ang            Mag  Ang            Mag  Ang            Mag  Ang
 0.050000  0.977969    -1.324  6.724196   178.900  0.001698    98.266  0.997471    -0.891
 0.060000  0.984525    -2.164  6.857742   178.680  0.001705    82.477  0.997506    -1.177
 0.070000  0.972886    -1.988  6.767261   178.359  0.002347    85.389  0.998007    -1.432
 0.080000  0.978513    -2.174  6.735333   177.936  0.002560    83.370  0.997852    -1.719
 0.090000  0.976490    -2.830  6.788705   178.312  0.002768    85.636  0.997811    -1.897
 0.100000  0.975174    -3.238  6.754651   177.467  0.003139    85.014  0.997074    -2.119
 0.110000  0.979746    -3.419  6.783671   177.494  0.003449    84.385  0.997362    -2.337
 0.120000  0.976992    -3.696  6.772723   177.233  0.003923    85.831  0.997751    -2.645
 0.130000  0.977642    -4.025  6.795636   176.963  0.004160    83.696  0.997339    -2.858
 0.140000  0.976202    -4.270  6.763631   176.590  0.004492    83.897  0.996760    -3.026
 0.150000  0.976328    -4.614  6.760003   176.490  0.004732    84.065  0.996129    -3.263
 0.200000  0.976080    -6.295  6.782835   175.423  0.006391    85.094  0.996115    -4.373
 0.250000  0.973551    -7.719  6.749872   173.894  0.008016    83.019  0.992857    -5.525
 0.300000  0.975595    -9.251  6.767855   172.881  0.009514    82.351  0.994903    -6.512
 0.350000  0.973472   -10.817  6.764651   171.497  0.011149    81.824  0.993593    -7.614
 0.400000  0.972798   -12.287  6.749514   170.325  0.012710    80.884  0.992082    -8.717
 0.450000  0.971235   -13.862  6.777808   168.836  0.014274    79.827  0.991488    -9.827
 0.500000  0.970061   -15.419  6.765662   167.730  0.015842    78.794  0.989236   -10.891
 0.600000  0.967101   -18.494  6.757167   164.897  0.018947    76.679  0.986435   -13.080
 0.700000  0.962963   -21.607  6.753504   162.292  0.022048    74.635  0.982215   -15.260
 0.800000  0.957599   -24.605  6.710103   159.816  0.025039    72.663  0.977785   -17.422
 0.900000  0.951526   -27.651  6.687478   157.110  0.027967    70.545  0.972120   -19.593
 1.000000  0.945817   -30.664  6.656759   154.549  0.030888    68.406  0.966322   -21.744
 1.100000  0.939040   -33.780  6.631632   151.882  0.033693    66.285  0.959823   -23.903
 1.200000  0.930959   -36.765  6.574376   149.222  0.036331    64.185  0.952735   -25.990
 1.300000  0.923033   -39.835  6.537093   146.744  0.038934    62.133  0.945345   -28.132
 1.400000  0.915187   -42.744  6.476656   144.148  0.041429    60.072  0.937664   -30.244
 1.500000  0.905400   -45.671  6.412036   141.460  0.043767    57.937  0.928808   -32.293
 1.600000  0.895799   -48.673  6.352402   138.894  0.046021    55.903  0.920802   -34.381
 1.700000  0.886855   -51.536  6.283471   136.493  0.048126    53.965  0.911653   -36.325
 1.800000  0.877162   -54.441  6.213692   134.070  0.050170    52.032  0.902676   -38.315
 1.900000  0.867134   -57.140  6.128963   131.527  0.052022    50.132  0.893437   -40.229
 2.000000  0.856945   -59.991  6.049901   129.249  0.053818    48.215  0.884616   -42.208
 2.200000  0.838781   -65.591  5.903223   124.671  0.056988    44.628  0.866510   -45.981
 2.400000  0.821270   -70.892  5.723095   120.187  0.059586    41.234  0.848356   -49.580
 2.600000  0.805228   -76.098  5.563431   115.945  0.061888    38.053  0.830935   -53.115
 2.800000  0.788566   -81.328  5.422392   111.719  0.063720    35.013  0.815010   -56.539
 3.000000  0.773809   -86.172  5.255589   107.724  0.065257    32.120  0.799118   -59.916
 3.500000  0.736513   -98.143  4.895235    97.893  0.067445    25.485  0.762204   -67.867
 4.000000  0.703972  -109.108  4.551196    88.740  0.067749    19.852  0.727821   -75.206
 4.500000  0.678012  -119.386  4.232704    80.040  0.066629    15.121  0.699005   -82.705
 5.000000  0.658521  -129.353  3.959020    71.647  0.064235    11.348  0.674105   -90.449
 5.500000  0.645024  -138.797  3.699522    63.569  0.060850     8.709  0.654111   -98.116
 6.000000  0.636844  -147.648  3.467882    55.615  0.056854     7.597  0.639072  -105.918
 6.500000  0.631103  -156.322  3.252553    47.460  0.052935     8.011  0.629562  -113.988
 7.000000  0.623279  -164.858  3.023015    39.212  0.049178    10.143  0.621178  -122.249
 7.500000  0.619497  -172.958  2.786190    31.593  0.046346    14.743  0.612847  -130.331
 8.000000  0.627405   179.319  2.578240    24.625  0.045626    20.902  0.612453  -138.433
 8.500000  0.644429   170.520  2.395527    17.442  0.046901    26.313  0.619798  -146.696
 9.000000  0.666867   162.496  2.199508    10.166  0.048986    31.198  0.630753  -155.076
 9.500000  0.688452   155.452  2.009677     3.745  0.052581    35.692  0.643814  -162.709
10.000000  0.710980   149.307  1.841728    -2.507  0.057860    38.517  0.665575  -169.627
!
!  f       Fmin   Gammaopt  rn/50 
! GHz       dB    MAG  ANG    -
 0.100	      0.40  0.68    2   0.23
 0.450      0.51  0.68    4   0.23
 0.900      0.57  0.70   13   0.22
 1.800      0.65  0.54   36   0.22
 5.000      1.07  0.43   79   0.20
10.000      2.02  0.48 -143   0.13
!
! (c) 2009  Infineon Technologies AG, Munich

