!    Infineon Technologies AG
!    BGB707L7ESD 
!    Vce = 3.5V, Ic = 25.0mA
!    DATUM: 30.06.2009 10:57:34
# GHz   S   MA   R  50
!f                S11                 S21                 S12                 S22
!GHz            Mag  Ang            Mag  Ang            Mag  Ang            Mag  Ang
 0.050000  0.747785    -4.474 36.958275   177.030  0.001592    79.358  0.986183    -1.573
 0.060000  0.747428    -5.750 37.583221   176.369  0.001728    80.704  0.987350    -2.211
 0.070000  0.750940    -6.270 37.206837   175.810  0.002243    87.580  0.988495    -2.820
 0.080000  0.748029    -7.497 37.054653   174.986  0.002329    81.571  0.988542    -3.441
 0.090000  0.749242    -8.721 37.372036   174.917  0.002743    85.304  0.988470    -4.015
 0.100000  0.748286    -9.892 37.163239   173.715  0.003083    81.856  0.987333    -4.549
 0.110000  0.748967   -10.741 37.321064   173.314  0.003414    82.163  0.986864    -5.087
 0.120000  0.746285   -11.647 37.262199   172.695  0.003478    82.473  0.986809    -5.665
 0.130000  0.745552   -12.406 37.367485   172.038  0.003727    82.469  0.985465    -6.182
 0.140000  0.744780   -13.396 37.192001   171.241  0.004086    81.699  0.983784    -6.710
 0.150000  0.744902   -14.370 37.166740   170.723  0.004468    80.750  0.982731    -7.233
 0.200000  0.740701   -19.311 37.081989   167.611  0.005732    78.627  0.976188    -9.799
 0.250000  0.734672   -23.818 36.561314   164.215  0.007116    77.543  0.964303   -12.295
 0.300000  0.728869   -28.428 36.318645   161.197  0.008444    75.372  0.956807   -14.648
 0.350000  0.718207   -32.998 35.844872   157.979  0.009786    73.328  0.943341   -16.946
 0.400000  0.710923   -37.280 35.271580   155.003  0.010982    71.583  0.929485   -19.159
 0.450000  0.701789   -41.887 34.811623   151.814  0.012124    69.824  0.915303   -21.361
 0.500000  0.691856   -46.101 34.153133   149.035  0.013260    67.979  0.898757   -23.409
 0.600000  0.669013   -54.399 32.775562   143.282  0.015224    64.471  0.865311   -27.332
 0.700000  0.647177   -62.292 31.390610   138.029  0.017035    61.425  0.830421   -30.864
 0.800000  0.624600   -69.492 29.846411   133.350  0.018565    58.739  0.795723   -33.991
 0.900000  0.602255   -76.506 28.351719   128.818  0.019911    56.433  0.761322   -36.830
 1.000000  0.582873   -82.920 26.947784   124.739  0.021122    54.463  0.728768   -39.352
 1.100000  0.562309   -89.235 25.605696   120.790  0.022102    52.715  0.697432   -41.624
 1.200000  0.543675   -94.862 24.276461   117.203  0.023022    51.237  0.669497   -43.712
 1.300000  0.529191  -100.452 23.094263   113.980  0.023827    50.072  0.642930   -45.561
 1.400000  0.515613  -105.415 21.938053   110.927  0.024535    49.172  0.619162   -47.246
 1.500000  0.501144  -110.128 20.869951   107.973  0.025195    48.379  0.596550   -48.706
 1.600000  0.489738  -114.786 19.855181   105.288  0.025787    47.755  0.576965   -50.151
 1.700000  0.480829  -118.816 18.951185   102.844  0.026346    47.352  0.558787   -51.441
 1.800000  0.472731  -122.811 18.119537   100.504  0.026891    47.039  0.542402   -52.662
 1.900000  0.464788  -126.567 17.323128    98.186  0.027430    46.764  0.527486   -53.822
 2.000000  0.458146  -130.145 16.578562    96.084  0.027938    46.532  0.514239   -54.969
 2.200000  0.448644  -136.713 15.289848    92.203  0.028854    46.692  0.491242   -57.111
 2.400000  0.442142  -142.296 14.129482    88.611  0.029841    46.889  0.472991   -59.158
 2.600000  0.437488  -147.368 13.146777    85.322  0.030815    47.233  0.457786   -61.233
 2.800000  0.433913  -152.289 12.300858    82.116  0.031889    47.659  0.445784   -63.273
 3.000000  0.431239  -156.289 11.525166    79.206  0.032886    48.299  0.435152   -65.333
 3.500000  0.429622  -165.412  9.966476    72.333  0.035733    49.703  0.416255   -70.512
 4.000000  0.430252  -172.936  8.786411    66.013  0.038876    51.073  0.401757   -75.675
 4.500000  0.434609  -179.526  7.858911    60.046  0.042503    52.218  0.391321   -81.682
 5.000000  0.443722   174.041  7.125420    54.172  0.046397    52.837  0.383608   -88.606
 5.500000  0.454041   168.034  6.509301    48.415  0.050616    53.035  0.379640   -95.880
 6.000000  0.466343   162.415  5.997054    42.618  0.055068    52.803  0.379472  -103.695
 6.500000  0.479763   156.669  5.541560    36.539  0.059737    51.972  0.383418  -112.173
 7.000000  0.492852   150.627  5.109447    30.511  0.064278    50.824  0.386846  -121.018
 7.500000  0.507206   144.649  4.712216    24.813  0.068857    49.586  0.391325  -129.604
 8.000000  0.528954   139.248  4.376129    19.357  0.073592    47.975  0.402453  -138.332
 8.500000  0.558548   134.100  4.075119    13.576  0.077909    45.788  0.420550  -147.407
 9.000000  0.588899   129.549  3.766706     7.861  0.081403    43.898  0.440473  -156.362
 9.500000  0.612182   125.568  3.483561     2.625  0.085059    42.366  0.463411  -164.153
10.000000  0.636966   122.399  3.235547    -2.603  0.089303    40.580  0.494555  -171.028
!
!                    Infineon Technologies AG
