!    Infineon Technologies AG
!    BGB707L7ESD RU919007 w#7 Sample Build #08493 Teil Nr. 3
!    Vce = 1.8V, Ic = 3.0mA
!    DATUM: 30.06.2009 10:15:21
# GHz   S   MA   R  50
!f                S11                 S21                 S12                 S22
!GHz            Mag  Ang            Mag  Ang            Mag  Ang            Mag  Ang
 0.050000  0.965592    -1.939  9.211320   178.845  0.001879    89.969  0.999081    -1.158
 0.060000  0.964566    -2.337  9.384210   178.520  0.001984    94.673  0.998778    -1.444
 0.070000  0.961990    -2.483  9.270819   178.207  0.002307    90.395  0.999301    -1.733
 0.080000  0.966078    -2.688  9.231125   177.752  0.002661    88.359  0.999061    -2.041
 0.090000  0.967485    -3.300  9.307846   178.090  0.003129    89.264  0.999061    -2.254
 0.100000  0.964814    -3.681  9.260768   177.212  0.003311    88.879  0.998398    -2.525
 0.110000  0.965349    -4.096  9.293775   177.179  0.003791    86.833  0.998213    -2.768
 0.120000  0.965555    -4.335  9.275962   176.896  0.004200    87.338  0.999115    -3.116
 0.130000  0.964807    -4.590  9.310283   176.592  0.004521    87.936  0.998322    -3.324
 0.140000  0.964304    -4.976  9.272826   176.159  0.004935    87.222  0.997682    -3.556
 0.150000  0.964083    -5.233  9.272671   176.002  0.005120    86.401  0.997771    -3.836
 0.200000  0.964662    -7.134  9.292345   174.762  0.006828    84.864  0.997214    -5.123
 0.250000  0.961530    -8.917  9.247211   173.048  0.008539    84.007  0.994687    -6.441
 0.300000  0.962209   -10.639  9.267980   171.856  0.010305    83.185  0.995283    -7.677
 0.350000  0.959150   -12.403  9.258328   170.320  0.012002    82.106  0.993154    -8.922
 0.400000  0.958407   -14.135  9.237140   168.953  0.013698    80.784  0.991103   -10.173
 0.450000  0.957030   -15.966  9.270981   167.316  0.015450    79.788  0.989645   -11.477
 0.500000  0.955499   -17.740  9.244465   165.991  0.017069    78.484  0.986973   -12.739
 0.600000  0.949141   -21.281  9.214220   162.809  0.020382    76.035  0.981801   -15.301
 0.700000  0.944239   -24.842  9.191580   159.863  0.023635    73.557  0.975606   -17.826
 0.800000  0.936065   -28.263  9.109987   157.065  0.026781    71.238  0.968695   -20.309
 0.900000  0.927470   -31.756  9.041211   154.072  0.029843    68.769  0.960225   -22.802
 1.000000  0.919730   -35.183  8.973349   151.231  0.032803    66.432  0.951515   -25.256
 1.100000  0.908931   -38.679  8.907936   148.246  0.035661    64.121  0.941874   -27.713
 1.200000  0.898394   -42.041  8.797112   145.321  0.038358    61.826  0.931489   -30.078
 1.300000  0.887259   -45.502  8.712562   142.604  0.040931    59.619  0.920704   -32.505
 1.400000  0.877407   -48.717  8.594573   139.803  0.043341    57.460  0.909612   -34.824
 1.500000  0.863718   -51.937  8.470600   136.906  0.045648    55.164  0.897286   -37.097
 1.600000  0.850504   -55.287  8.347858   134.157  0.047750    53.090  0.885403   -39.360
 1.700000  0.840222   -58.419  8.217109   131.604  0.049717    51.070  0.873106   -41.551
 1.800000  0.827413   -61.456  8.093314   129.042  0.051605    49.063  0.860846   -43.687
 1.900000  0.815172   -64.515  7.947367   126.357  0.053251    47.152  0.848306   -45.746
 2.000000  0.802020   -67.599  7.803020   123.946  0.054870    45.262  0.836387   -47.858
 2.200000  0.780351   -73.527  7.545404   119.212  0.057549    41.778  0.812360   -51.827
 2.400000  0.758420   -79.124  7.248324   114.639  0.059723    38.467  0.789941   -55.635
 2.600000  0.739621   -84.630  6.985321   110.372  0.061625    35.478  0.768339   -59.290
 2.800000  0.720406   -90.037  6.753183   106.128  0.063022    32.664  0.749052   -62.833
 3.000000  0.704267   -95.051  6.495357   102.143  0.064117    30.066  0.729946   -66.257
 3.500000  0.665947  -107.161  5.941693    92.459  0.065581    24.323  0.687978   -74.273
 4.000000  0.634502  -118.153  5.442542    83.594  0.065384    19.683  0.650722   -81.631
 4.500000  0.610188  -128.312  5.001659    75.283  0.064271    16.241  0.620531   -89.064
 5.000000  0.593834  -138.043  4.627813    67.281  0.062338    13.638  0.596078   -96.849
 5.500000  0.583515  -147.082  4.291697    59.589  0.059821    12.227  0.577509  -104.542
 6.000000  0.579029  -155.582  3.993828    52.059  0.057165    12.148  0.564756  -112.378
 6.500000  0.576576  -163.929  3.720539    44.270  0.054837    13.140  0.557776  -120.457
 7.000000  0.574018  -171.955  3.441643    36.558  0.052879    15.255  0.552184  -128.722
 7.500000  0.574053  -179.624  3.163486    29.409  0.051784    18.746  0.547940  -136.710
 8.000000  0.584893   172.142  2.924511    22.822  0.052247    22.788  0.552033  -144.713
 8.500000  0.605740   163.938  2.712677    15.989  0.053997    25.861  0.563681  -152.865
 9.000000  0.630071   156.476  2.489483     9.127  0.055934    28.734  0.578147  -160.963
 9.500000  0.653672   150.161  2.279310     3.051  0.058878    31.662  0.595422  -168.207
10.000000  0.677992   144.518  2.092512    -2.914  0.063306    33.536  0.620796  -174.758
!
!  f       Fmin   Gammaopt  rn/50 
! GHz       dB    MAG  ANG    -
 0.100      0.40  0.63    2   0.21
 0.450      0.47  0.63    4   0.21
 0.900      0.57  0.65   13   0.20
 1.800      0.64  0.51   35   0.20
 5.000      1.07  0.41   77   0.19
10.000      1.82  0.45 -140   0.13
!
! (c) 2009  Infineon Technologies AG, Munich
