!    Infineon Technologies AG
!    BGB707L7ESD 
!    Vce = 2.5V, Ic = 20.0mA
!    DATUM: 30.06.2009 10:17:17
# GHz   S   MA   R  50
!f                S11                 S21                 S12                 S22
!GHz            Mag  Ang            Mag  Ang            Mag  Ang            Mag  Ang
 0.050000  0.793328    -3.957 34.095745   177.335  0.001632    89.771  0.991178    -1.698
 0.060000  0.800720    -5.559 34.710407   176.723  0.002039    94.057  0.992668    -2.286
 0.070000  0.794008    -5.898 34.344383   176.148  0.002166    92.710  0.993255    -2.856
 0.080000  0.794218    -6.676 34.199108   175.371  0.002423    87.010  0.992977    -3.430
 0.090000  0.796716    -8.138 34.500645   175.324  0.002634    88.323  0.993354    -3.975
 0.100000  0.792623    -8.990 34.307880   174.159  0.003029    84.225  0.992205    -4.484
 0.110000  0.795306    -9.799 34.450531   173.784  0.003465    85.101  0.991825    -5.014
 0.120000  0.792895   -10.571 34.386444   173.193  0.003785    84.231  0.991784    -5.605
 0.130000  0.792397   -11.476 34.498661   172.572  0.003906    83.824  0.990277    -6.050
 0.140000  0.792185   -12.330 34.336338   171.813  0.004259    83.098  0.989469    -6.565
 0.150000  0.791556   -13.197 34.330818   171.329  0.004628    84.220  0.988329    -7.066
 0.200000  0.787938   -17.645 34.278496   168.421  0.006072    80.336  0.982820    -9.545
 0.250000  0.781084   -21.777 33.856972   165.201  0.007585    78.752  0.973065   -11.975
 0.300000  0.777086   -26.033 33.666962   162.367  0.009034    77.210  0.965819   -14.315
 0.350000  0.766508   -30.306 33.291080   159.312  0.010341    74.679  0.954243   -16.594
 0.400000  0.758372   -34.310 32.827400   156.489  0.011678    73.069  0.941684   -18.783
 0.450000  0.749609   -38.572 32.487495   153.429  0.012972    71.227  0.928734   -20.985
 0.500000  0.739946   -42.381 31.950609   150.765  0.014137    69.120  0.913823   -23.059
 0.600000  0.716836   -50.174 30.815327   145.192  0.016371    65.552  0.883137   -27.087
 0.700000  0.695094   -57.697 29.674753   140.063  0.018365    62.449  0.850399   -30.713
 0.800000  0.670562   -64.526 28.344275   135.440  0.020073    59.645  0.816768   -33.997
 0.900000  0.647021   -71.198 27.050159   130.947  0.021630    56.899  0.783339   -37.078
 1.000000  0.626221   -77.435 25.823029   126.871  0.022961    54.823  0.751137   -39.741
 1.100000  0.604178   -83.478 24.627920   122.903  0.024177    52.712  0.719936   -42.290
 1.200000  0.583264   -89.070 23.423552   119.248  0.025169    51.113  0.691147   -44.538
 1.300000  0.565293   -94.517 22.351997   115.982  0.026005    49.655  0.664074   -46.648
 1.400000  0.549111   -99.376 21.295982   112.871  0.026819    48.473  0.639296   -48.541
 1.500000  0.533069  -104.061 20.301241   109.835  0.027551    47.431  0.615263   -50.189
 1.600000  0.517887  -108.717 19.335724   107.114  0.028154    46.597  0.594645   -51.845
 1.700000  0.507622  -112.795 18.494532   104.578  0.028798    45.849  0.575275   -53.333
 1.800000  0.497187  -116.836 17.719255   102.182  0.029370    45.395  0.557728   -54.712
 1.900000  0.487792  -120.627 16.957129    99.777  0.029862    44.997  0.541472   -55.987
 2.000000  0.479066  -124.291 16.242096    97.603  0.030321    44.606  0.526987   -57.313
 2.200000  0.466460  -130.903 15.013879    93.616  0.031301    44.240  0.501696   -59.685
 2.400000  0.457029  -136.782 13.888614    89.912  0.032199    44.187  0.481477   -61.929
 2.600000  0.450176  -141.981 12.938927    86.549  0.033089    44.281  0.464319   -64.133
 2.800000  0.444953  -147.151 12.125148    83.216  0.034054    44.534  0.450802   -66.341
 3.000000  0.439835  -151.339 11.362803    80.265  0.035007    44.935  0.438586   -68.526
 3.500000  0.434748  -161.102  9.844567    73.147  0.037509    46.165  0.416637   -73.849
 4.000000  0.433453  -169.164  8.683138    66.678  0.040378    47.379  0.400106   -79.150
 4.500000  0.436176  -176.217  7.770258    60.583  0.043636    48.500  0.388014   -85.245
 5.000000  0.443815   177.151  7.044501    54.595  0.047273    49.281  0.379588   -92.235
 5.500000  0.453022   170.808  6.436850    48.738  0.051168    49.658  0.375230   -99.564
 6.000000  0.465327   164.896  5.927709    42.855  0.055390    49.615  0.375235  -107.402
 6.500000  0.478598   158.802  5.477264    36.709  0.059746    49.017  0.379413  -115.844
 7.000000  0.490276   152.520  5.046840    30.618  0.064032    48.061  0.383591  -124.649
 7.500000  0.503736   146.312  4.651284    24.901  0.068354    47.049  0.388744  -133.137
 8.000000  0.524953   140.809  4.316918    19.374  0.072919    45.667  0.401112  -141.733
 8.500000  0.554529   135.508  4.017343    13.626  0.077046    43.655  0.420298  -150.621
 9.000000  0.583773   130.765  3.710589     7.848  0.080381    41.949  0.441084  -159.337
 9.500000  0.607702   126.714  3.429450     2.618  0.083910    40.603  0.465104  -166.887
10.000000  0.632153   123.350  3.183925    -2.661  0.088065    38.978  0.496715  -173.543
!
!                    Infineon Technologies AG
