!    Infineon Technologies AG
!    BGB707L7ESD 
!    Vce = 3.0V, Ic = 20.0mA
!    DATUM: 30.06.2009 10:18:34
# GHz   S   MA   R  50
!f                S11                 S21                 S12                 S22
!GHz            Mag  Ang            Mag  Ang            Mag  Ang            Mag  Ang
 0.050000  0.797401    -4.031 33.990868   177.302  0.001751    83.604  0.992616    -1.692
 0.060000  0.797377    -5.623 34.596493   176.654  0.002012    88.773  0.993644    -2.237
 0.070000  0.794775    -5.766 34.213554   176.113  0.002200    86.721  0.993979    -2.803
 0.080000  0.794689    -6.644 34.067432   175.337  0.002358    87.175  0.993724    -3.348
 0.090000  0.797659    -7.946 34.369408   175.325  0.002742    87.120  0.994043    -3.897
 0.100000  0.791970    -8.612 34.167831   174.184  0.003079    84.090  0.993090    -4.372
 0.110000  0.794613    -9.494 34.315590   173.836  0.003241    85.318  0.992602    -4.885
 0.120000  0.791766   -10.246 34.257256   173.250  0.003719    85.252  0.992533    -5.478
 0.130000  0.791111   -11.166 34.363815   172.650  0.003917    83.155  0.991419    -5.906
 0.140000  0.790584   -12.049 34.200703   171.906  0.004214    83.837  0.990278    -6.414
 0.150000  0.791573   -12.825 34.196148   171.444  0.004537    82.627  0.989508    -6.906
 0.200000  0.789084   -17.232 34.146378   168.590  0.005982    81.083  0.983750    -9.335
 0.250000  0.782021   -21.357 33.760868   165.397  0.007427    78.677  0.974389   -11.700
 0.300000  0.776086   -25.534 33.575108   162.649  0.008833    77.004  0.967586   -13.983
 0.350000  0.766638   -29.606 33.212280   159.621  0.010107    75.420  0.956151   -16.218
 0.400000  0.759805   -33.450 32.760414   156.851  0.011386    73.137  0.944245   -18.374
 0.450000  0.750251   -37.685 32.438217   153.831  0.012675    71.406  0.931780   -20.527
 0.500000  0.740634   -41.570 31.926687   151.192  0.013836    69.404  0.917216   -22.569
 0.600000  0.718229   -49.237 30.822416   145.678  0.016009    66.050  0.887206   -26.478
 0.700000  0.695439   -56.474 29.707134   140.621  0.018040    62.832  0.855372   -30.088
 0.800000  0.672181   -63.337 28.407513   135.998  0.019764    59.950  0.822718   -33.340
 0.900000  0.648426   -69.910 27.143904   131.525  0.021255    57.480  0.789882   -36.342
 1.000000  0.627076   -76.043 25.940723   127.461  0.022627    55.270  0.758151   -39.042
 1.100000  0.604787   -82.123 24.763556   123.490  0.023782    53.280  0.727219   -41.548
 1.200000  0.584460   -87.587 23.572659   119.852  0.024789    51.580  0.698866   -43.788
 1.300000  0.566270   -93.017 22.504042   116.584  0.025704    50.196  0.671629   -45.854
 1.400000  0.549885   -97.893 21.457794   113.458  0.026478    48.965  0.647226   -47.763
 1.500000  0.533155  -102.567 20.465284   110.415  0.027205    47.766  0.623593   -49.447
 1.600000  0.518616  -107.148 19.512518   107.650  0.027885    47.018  0.602900   -51.090
 1.700000  0.507303  -111.257 18.668318   105.145  0.028457    46.322  0.583349   -52.527
 1.800000  0.496650  -115.188 17.888653   102.725  0.028992    45.879  0.565738   -53.896
 1.900000  0.486635  -119.073 17.127695   100.323  0.029498    45.404  0.549350   -55.160
 2.000000  0.477519  -122.810 16.409943    98.149  0.030049    44.978  0.535040   -56.482
 2.200000  0.463608  -129.414 15.177819    94.143  0.030970    44.716  0.509421   -58.826
 2.400000  0.453991  -135.359 14.054325    90.385  0.031860    44.561  0.489008   -61.051
 2.600000  0.446604  -140.571 13.091877    87.047  0.032760    44.661  0.471713   -63.237
 2.800000  0.441297  -145.826 12.271716    83.709  0.033724    44.885  0.457929   -65.383
 3.000000  0.436005  -150.165 11.506779    80.714  0.034633    45.302  0.445614   -67.535
 3.500000  0.430800  -159.880  9.973099    73.635  0.037141    46.432  0.423423   -72.845
 4.000000  0.427961  -168.128  8.802292    67.167  0.039989    47.759  0.406278   -78.000
 4.500000  0.430908  -175.184  7.880810    61.060  0.043256    48.883  0.394142   -84.037
 5.000000  0.438876   178.118  7.148345    55.081  0.046814    49.685  0.385292   -90.912
 5.500000  0.448025   171.740  6.533326    49.241  0.050711    50.066  0.380410   -98.130
 6.000000  0.459991   165.746  6.021926    43.363  0.054863    50.091  0.379945  -105.877
 6.500000  0.472802   159.673  5.565801    37.231  0.059248    49.510  0.383495  -114.257
 7.000000  0.484704   153.364  5.133797    31.147  0.063545    48.634  0.387036  -122.999
 7.500000  0.498237   147.136  4.733637    25.418  0.067868    47.583  0.391569  -131.465
 8.000000  0.519664   141.543  4.396327    19.923  0.072419    46.246  0.403201  -140.066
 8.500000  0.549622   136.137  4.095938    14.132  0.076615    44.271  0.421680  -149.009
 9.000000  0.579049   131.397  3.784872     8.354  0.080025    42.537  0.441772  -157.812
 9.500000  0.603277   127.348  3.501096     3.091  0.083554    41.203  0.465150  -165.418
10.000000  0.628172   123.953  3.251785    -2.199  0.087706    39.580  0.496392  -172.185
!
!                    Infineon Technologies AG
