!    Infineon Technologies AG
!    BGB707L7ESD RU919007 w#7 Sample Build #08493 Teil Nr. 3
!    Vce = 3.0V, Ic = 3.0mA
!    DATUM: 30.06.2009 10:17:55
# GHz   S   MA   R  50
!f                S11                 S21                 S12                 S22
!GHz            Mag  Ang            Mag  Ang            Mag  Ang            Mag  Ang
 0.050000  0.965966    -1.284  9.191502   178.748  0.001433    84.386  0.998047    -1.070
 0.060000  0.967761    -2.379  9.361073   178.467  0.002091    83.740  0.998809    -1.373
 0.070000  0.966059    -2.116  9.251764   178.174  0.002169    88.720  0.998970    -1.637
 0.080000  0.963852    -2.575  9.208290   177.712  0.002472    87.425  0.998947    -1.928
 0.090000  0.967617    -3.286  9.278246   178.058  0.003000    87.188  0.998745    -2.133
 0.100000  0.962360    -3.662  9.227249   177.185  0.003177    87.035  0.998311    -2.403
 0.110000  0.964748    -3.867  9.261007   177.166  0.003499    85.479  0.998190    -2.646
 0.120000  0.964285    -4.237  9.241545   176.886  0.003947    86.178  0.998887    -2.982
 0.130000  0.964259    -4.573  9.278914   176.607  0.004205    88.112  0.998186    -3.175
 0.140000  0.963386    -4.818  9.235245   176.167  0.004534    86.232  0.997705    -3.412
 0.150000  0.965283    -5.256  9.235150   176.033  0.004813    85.780  0.997459    -3.663
 0.200000  0.965645    -7.256  9.257975   174.813  0.006410    85.787  0.996663    -4.892
 0.250000  0.962712    -8.791  9.210417   173.157  0.008171    83.678  0.994398    -6.184
 0.300000  0.961801   -10.544  9.234440   171.983  0.009697    83.221  0.995523    -7.346
 0.350000  0.959301   -12.372  9.226897   170.458  0.011344    81.917  0.992867    -8.560
 0.400000  0.959074   -14.025  9.204692   169.131  0.012895    80.968  0.991045    -9.734
 0.450000  0.957082   -15.785  9.230867   167.544  0.014491    79.699  0.989875   -10.991
 0.500000  0.954914   -17.548  9.214768   166.215  0.016074    78.608  0.987131   -12.207
 0.600000  0.949354   -21.039  9.183724   163.078  0.019235    76.282  0.982345   -14.647
 0.700000  0.944400   -24.564  9.169553   160.177  0.022331    73.740  0.976683   -17.074
 0.800000  0.937341   -27.956  9.089220   157.412  0.025277    71.513  0.969948   -19.456
 0.900000  0.928644   -31.441  9.026537   154.459  0.028152    69.105  0.962029   -21.845
 1.000000  0.920991   -34.836  8.960590   151.640  0.030991    66.837  0.953612   -24.206
 1.100000  0.910792   -38.280  8.897209   148.703  0.033674    64.533  0.944445   -26.549
 1.200000  0.901011   -41.619  8.794846   145.802  0.036214    62.335  0.934416   -28.829
 1.300000  0.890133   -45.035  8.708445   143.123  0.038649    60.128  0.924306   -31.163
 1.400000  0.879041   -48.224  8.595102   140.348  0.040969    57.990  0.913381   -33.388
 1.500000  0.866823   -51.445  8.474871   137.477  0.043131    55.795  0.901702   -35.565
 1.600000  0.853569   -54.767  8.353976   134.756  0.045155    53.717  0.890511   -37.741
 1.700000  0.843014   -57.860  8.231627   132.224  0.047043    51.698  0.878741   -39.847
 1.800000  0.831427   -60.952  8.109222   129.673  0.048819    49.770  0.866997   -41.893
 1.900000  0.819095   -63.964  7.969347   127.018  0.050395    47.893  0.854993   -43.889
 2.000000  0.806354   -67.092  7.829209   124.581  0.051926    45.980  0.843565   -45.926
 2.200000  0.784866   -72.934  7.573887   119.918  0.054495    42.604  0.820260   -49.741
 2.400000  0.763421   -78.571  7.288270   115.320  0.056570    39.300  0.798672   -53.405
 2.600000  0.744457   -84.005  7.025655   111.101  0.058377    36.345  0.777755   -56.927
 2.800000  0.725862   -89.422  6.799494   106.850  0.059769    33.594  0.758944   -60.327
 3.000000  0.707710   -94.402  6.545020   102.909  0.060826    31.023  0.740708   -63.670
 3.500000  0.670047  -106.545  5.995350    93.261  0.062204    25.386  0.699573   -71.382
 4.000000  0.638361  -117.563  5.503830    84.434  0.061955    20.899  0.663390   -78.493
 4.500000  0.614108  -127.698  5.064526    76.121  0.060848    17.595  0.633855   -85.723
 5.000000  0.598034  -137.445  4.694848    68.122  0.058934    15.240  0.609794   -93.233
 5.500000  0.587388  -146.563  4.358869    60.440  0.056503    14.128  0.591216  -100.742
 6.000000  0.583207  -155.092  4.063129    52.869  0.053966    14.472  0.577974  -108.412
 6.500000  0.580368  -163.407  3.791235    45.137  0.051856    15.932  0.570833  -116.376
 7.000000  0.576494  -171.466  3.513915    37.402  0.050194    18.600  0.564598  -124.561
 7.500000  0.576303  -179.117  3.235203    30.157  0.049557    22.561  0.559595  -132.547
 8.000000  0.587588   172.671  2.993783    23.522  0.050554    26.979  0.562357  -140.582
 8.500000  0.608460   164.351  2.780903    16.639  0.052891    30.160  0.572706  -148.833
 9.000000  0.633011   156.925  2.556134     9.692  0.055408    32.938  0.586487  -157.118
 9.500000  0.656562   150.499  2.342522     3.536  0.058924    35.628  0.602558  -164.594
10.000000  0.680605   144.868  2.151885    -2.535  0.063782    37.204  0.627166  -171.370
!
!  f       Fmin   Gammaopt  rn/50 
! GHz       dB    MAG  ANG    -
 0.100      0.40  0.63    2   0.21
 0.450      0.47  0.63    4   0.21
 0.900      0.57  0.65   13   0.20
 1.800      0.64  0.51   35   0.20
 5.000      1.07  0.41   77   0.19
10.000      1.82  0.45 -140   0.13
!
! (c) 2009  Infineon Technologies AG, Munich
