!    Infineon Technologies AG
!    BGB707L7ESD RU919007 w#7 Sample Build #08493 Teil Nr. 3
!    Vce = 2.5V, Ic = 10.0mA
!    DATUM: 30.06.2009 10:17:01
# GHz   S   MA   R  50
!f                S11                 S21                 S12                 S22
!GHz            Mag  Ang            Mag  Ang            Mag  Ang            Mag  Ang
 0.050000  0.889969    -2.807 23.164473   177.896  0.001543    87.550  0.996316    -1.551
 0.060000  0.893554    -3.919 23.592087   177.437  0.001864    92.389  0.997164    -1.989
 0.070000  0.886675    -4.144 23.314400   176.991  0.002196    88.614  0.997233    -2.413
 0.080000  0.883904    -4.673 23.195253   176.410  0.002469    88.225  0.997588    -2.861
 0.090000  0.892452    -5.628 23.400343   176.573  0.002847    84.506  0.997272    -3.255
 0.100000  0.886242    -6.349 23.273575   175.532  0.003119    85.666  0.996742    -3.615
 0.110000  0.889228    -6.750 23.368511   175.345  0.003535    86.473  0.996325    -4.012
 0.120000  0.887241    -7.346 23.330051   174.915  0.003834    84.471  0.996940    -4.477
 0.130000  0.888816    -7.873 23.414497   174.458  0.004119    86.325  0.995705    -4.818
 0.140000  0.886164    -8.483 23.311003   173.856  0.004390    87.217  0.994788    -5.195
 0.150000  0.887841    -9.096 23.314610   173.532  0.004758    84.401  0.994453    -5.566
 0.200000  0.886499   -12.351 23.341509   171.442  0.006314    83.753  0.991545    -7.489
 0.250000  0.881721   -15.181 23.161430   168.963  0.007868    81.609  0.986517    -9.432
 0.300000  0.877730   -18.108 23.137554   166.947  0.009381    79.974  0.983805   -11.243
 0.350000  0.872574   -21.259 23.028551   164.579  0.010910    78.366  0.977472   -13.077
 0.400000  0.868942   -24.056 22.864199   162.398  0.012415    76.484  0.971049   -14.911
 0.450000  0.861534   -27.155 22.816395   159.933  0.013848    74.912  0.964346   -16.709
 0.500000  0.855671   -30.076 22.630701   157.862  0.015275    73.229  0.955919   -18.486
 0.600000  0.839948   -35.862 22.212465   153.255  0.017925    70.112  0.938469   -21.976
 0.700000  0.823759   -41.532 21.805454   148.947  0.020492    67.070  0.918533   -25.348
 0.800000  0.803890   -46.925 21.237234   144.919  0.022818    64.177  0.897014   -28.519
 0.900000  0.783823   -52.263 20.660725   140.856  0.024934    61.357  0.873609   -31.584
 1.000000  0.764151   -57.386 20.087528   137.064  0.026862    58.826  0.849868   -34.448
 1.100000  0.742046   -62.509 19.508165   133.261  0.028647    56.354  0.825671   -37.265
 1.200000  0.720761   -67.287 18.856009   129.654  0.030185    54.075  0.801951   -39.839
 1.300000  0.700327   -72.106 18.271400   126.377  0.031608    52.117  0.778393   -42.344
 1.400000  0.681686   -76.426 17.649471   123.157  0.032844    50.268  0.755639   -44.666
 1.500000  0.660671   -80.733 17.033310   119.954  0.033915    48.433  0.732540   -46.784
 1.600000  0.641625   -84.986 16.422714   117.009  0.034886    46.890  0.711817   -48.902
 1.700000  0.625606   -88.869 15.867730   114.309  0.035750    45.360  0.691529   -50.844
 1.800000  0.610489   -92.755 15.340054   111.686  0.036564    44.098  0.672579   -52.672
 1.900000  0.594726   -96.340 14.799689   109.043  0.037207    42.942  0.654430   -54.392
 2.000000  0.580787  -100.080 14.287784   106.649  0.037842    41.856  0.637741   -56.125
 2.200000  0.557788  -106.831 13.379148   102.191  0.038863    40.049  0.607603   -59.287
 2.400000  0.537964  -113.069 12.510056    98.014  0.039740    38.736  0.581578   -62.136
 2.600000  0.522757  -118.834 11.758379    94.197  0.040492    37.646  0.559031   -64.886
 2.800000  0.508630  -124.397 11.101953    90.506  0.041104    36.857  0.540175   -67.532
 3.000000  0.497076  -129.424 10.476159    87.090  0.041649    36.403  0.522898   -70.104
 3.500000  0.476367  -140.835  9.183869    79.101  0.042925    35.783  0.489648   -76.116
 4.000000  0.462519  -150.625  8.166956    71.908  0.044237    36.104  0.463651   -81.742
 4.500000  0.456564  -159.281  7.346476    65.167  0.045807    37.059  0.444460   -87.915
 5.000000  0.457083  -167.324  6.690237    58.649  0.047700    38.131  0.430493   -94.807
 5.500000  0.461948  -174.510  6.130225    52.344  0.049980    39.263  0.421642  -101.890
 6.000000  0.469409   178.777  5.659750    46.034  0.052659    40.395  0.417884  -109.423
 6.500000  0.478635   171.525  5.239304    39.529  0.055773    41.042  0.419034  -117.466
 7.000000  0.486628   164.330  4.834535    33.067  0.059040    41.347  0.420656  -125.854
 7.500000  0.496622   157.224  4.455358    27.001  0.062542    41.557  0.423450  -133.994
 8.000000  0.516091   150.742  4.134156    21.253  0.066544    41.374  0.433787  -142.242
 8.500000  0.544118   144.438  3.847952    15.212  0.070398    40.290  0.451052  -150.802
 9.000000  0.573508   138.959  3.554207     9.140  0.073584    39.373  0.470385  -159.249
 9.500000  0.598713   134.240  3.281100     3.711  0.077021    38.757  0.492674  -166.663
10.000000  0.623927   130.270  3.041262    -1.794  0.081253    37.778  0.523078  -173.251
!
!  f       Fmin   Gammaopt  rn/50 
! GHz       dB    MAG  ANG    -
 0.100      0.55  0.46    2   0.18
 0.450      0.69  0.46    4   0.18
 0.900      0.73  0.47   12   0.18
 1.800      0.75  0.40   33   0.17
 5.000      0.97  0.31   70   0.16
10.000	      1.48  0.39 -123   0.14
!
! (c) 2009  Infineon Technologies AG, Munich
