!    Infineon Technologies AG
!    BGB707L7ESD 
!    Vce = 3.0V, Ic = 15.0mA
!    DATUM: 30.06.2009 10:18:26
# GHz   S   MA   R  50
!f                S11                 S21                 S12                 S22
!GHz            Mag  Ang            Mag  Ang            Mag  Ang            Mag  Ang
 0.050000  0.844881    -3.370 29.462730   177.459  0.001656    76.375  0.994786    -1.626
 0.060000  0.841427    -4.622 29.986105   176.916  0.001795    91.240  0.995627    -2.125
 0.070000  0.838642    -4.971 29.641760   176.470  0.002198    82.849  0.995681    -2.644
 0.080000  0.836301    -5.676 29.508280   175.763  0.002566    88.372  0.996022    -3.127
 0.090000  0.843607    -6.724 29.768835   175.837  0.002816    87.300  0.995784    -3.572
 0.100000  0.838223    -7.397 29.597544   174.749  0.003036    85.028  0.995176    -4.039
 0.110000  0.841254    -8.213 29.722658   174.473  0.003241    85.512  0.994747    -4.493
 0.120000  0.838926    -8.899 29.673662   173.973  0.003743    84.708  0.994969    -5.013
 0.130000  0.839264    -9.541 29.773100   173.430  0.003948    83.833  0.994351    -5.454
 0.140000  0.835511   -10.353 29.638491   172.769  0.004328    85.035  0.993095    -5.857
 0.150000  0.835861   -10.966 29.625734   172.366  0.004554    84.623  0.992018    -6.295
 0.200000  0.834748   -14.826 29.632145   169.881  0.006076    82.069  0.987846    -8.493
 0.250000  0.828689   -18.403 29.343895   167.006  0.007489    80.873  0.980673   -10.679
 0.300000  0.825036   -22.053 29.256853   164.584  0.008927    78.820  0.975667   -12.712
 0.350000  0.817472   -25.611 29.025528   161.855  0.010408    76.378  0.966950   -14.774
 0.400000  0.811129   -29.006 28.722689   159.360  0.011740    74.736  0.957555   -16.793
 0.450000  0.802489   -32.672 28.543756   156.578  0.013114    72.822  0.948264   -18.840
 0.500000  0.794555   -36.125 28.203079   154.181  0.014341    71.276  0.936121   -20.754
 0.600000  0.774926   -42.946 27.450815   149.046  0.016748    67.691  0.911989   -24.550
 0.700000  0.753877   -49.522 26.679491   144.290  0.018957    64.594  0.885233   -28.053
 0.800000  0.731141   -55.711 25.730259   139.880  0.020901    61.730  0.857066   -31.302
 0.900000  0.707451   -61.744 24.778322   135.533  0.022641    59.106  0.827806   -34.377
 1.000000  0.685829   -67.442 23.850367   131.543  0.024244    56.653  0.799396   -37.206
 1.100000  0.662339   -73.035 22.936659   127.644  0.025603    54.347  0.770374   -39.859
 1.200000  0.640287   -78.267 21.974026   123.953  0.026819    52.457  0.743419   -42.270
 1.300000  0.620664   -83.521 21.112309   120.638  0.027878    50.728  0.717061   -44.572
 1.400000  0.601576   -88.157 20.235634   117.458  0.028828    49.204  0.692763   -46.652
 1.500000  0.582177   -92.665 19.389271   114.318  0.029681    47.797  0.668741   -48.552
 1.600000  0.565184   -97.174 18.565407   111.459  0.030416    46.549  0.647378   -50.405
 1.700000  0.551228  -101.256 17.825451   108.859  0.031082    45.664  0.627186   -52.040
 1.800000  0.537935  -105.168 17.138845   106.358  0.031709    44.778  0.608630   -53.590
 1.900000  0.524843  -108.977 16.458239   103.818  0.032225    43.992  0.591114   -55.088
 2.000000  0.512903  -112.659 15.808923   101.601  0.032737    43.380  0.575455   -56.537
 2.200000  0.495340  -119.503 14.691988    97.364  0.033703    42.471  0.547447   -59.168
 2.400000  0.480908  -125.585 13.652848    93.411  0.034512    41.890  0.524456   -61.633
 2.600000  0.469857  -131.139 12.758718    89.935  0.035312    41.578  0.504573   -64.031
 2.800000  0.460940  -136.606 11.988755    86.446  0.036103    41.482  0.488567   -66.322
 3.000000  0.452983  -141.289 11.269768    83.277  0.036861    41.573  0.474316   -68.614
 3.500000  0.441127  -151.860  9.805209    75.850  0.038859    42.208  0.447545   -74.093
 4.000000  0.434449  -160.890  8.680840    69.112  0.041105    43.268  0.426858   -79.352
 4.500000  0.434595  -168.642  7.783422    62.791  0.043733    44.534  0.411847   -85.328
 5.000000  0.439266  -175.858  7.070336    56.632  0.046736    45.589  0.401109   -92.124
 5.500000  0.447644   177.537  6.469485    50.641  0.050046    46.336  0.394645   -99.237
 6.000000  0.457661   171.110  5.966074    44.622  0.053714    46.795  0.392743  -106.834
 6.500000  0.468914   164.528  5.519643    38.374  0.057687    46.706  0.395469  -115.041
 7.000000  0.479440   157.857  5.092650    32.169  0.061669    46.212  0.398144  -123.605
 7.500000  0.491967   151.270  4.697651    26.322  0.065701    45.655  0.401884  -131.916
 8.000000  0.512265   145.361  4.363825    20.741  0.070116    44.731  0.412935  -140.372
 8.500000  0.541833   139.641  4.064411    14.882  0.074206    43.036  0.430778  -149.164
 9.000000  0.571767   134.489  3.757546     8.983  0.077515    41.560  0.450494  -157.849
 9.500000  0.596572   130.228  3.476396     3.656  0.081031    40.472  0.473382  -165.409
10.000000  0.622682   126.562  3.228856    -1.727  0.085255    39.079  0.504360  -172.126
!
!                    Infineon Technologies AG
