!    Infineon Technologies AG
!    BGB707L7ESD 
!    Vce = 4.0V, Ic = 25.0mA
!    DATUM: 30.06.2009 10:58:51
# GHz   S   MA   R  50
!f                S11                 S21                 S12                 S22
!GHz            Mag  Ang            Mag  Ang            Mag  Ang            Mag  Ang
 0.050000  0.744058    -4.327 36.755260   176.956  0.001569    76.855  0.980564    -1.483
 0.060000  0.749436    -5.889 37.382427   176.303  0.001819    73.733  0.982132    -2.154
 0.070000  0.747878    -6.452 36.996685   175.756  0.002067    76.665  0.982646    -2.740
 0.080000  0.744650    -7.151 36.832645   174.960  0.002465    75.975  0.982722    -3.375
 0.090000  0.749905    -8.628 37.148994   174.903  0.002698    77.919  0.982795    -3.922
 0.100000  0.744535    -9.579 36.942535   173.736  0.003004    75.319  0.981655    -4.444
 0.110000  0.746103   -10.447 37.096046   173.352  0.003215    76.405  0.981324    -4.974
 0.120000  0.742945   -11.454 37.032425   172.742  0.003414    77.476  0.981535    -5.578
 0.130000  0.743982   -12.144 37.142155   172.098  0.003831    79.232  0.979878    -6.104
 0.140000  0.743953   -13.083 36.965485   171.324  0.004087    77.599  0.978656    -6.556
 0.150000  0.742803   -14.161 36.950546   170.809  0.004340    76.895  0.977241    -7.071
 0.200000  0.738420   -18.882 36.876144   167.759  0.005674    76.684  0.970629    -9.584
 0.250000  0.732349   -23.372 36.373280   164.377  0.007061    74.904  0.959639   -12.064
 0.300000  0.726402   -27.978 36.131020   161.442  0.008355    74.030  0.952336   -14.346
 0.350000  0.716906   -32.345 35.679619   158.259  0.009613    72.146  0.938959   -16.601
 0.400000  0.709607   -36.700 35.110794   155.356  0.010778    70.296  0.925730   -18.814
 0.450000  0.699244   -41.207 34.682819   152.159  0.011926    68.734  0.911847   -20.923
 0.500000  0.691868   -45.342 34.045933   149.414  0.013019    67.063  0.896088   -22.944
 0.600000  0.668834   -53.483 32.697201   143.741  0.015030    63.860  0.863966   -26.784
 0.700000  0.646354   -61.300 31.356537   138.483  0.016800    60.915  0.830040   -30.270
 0.800000  0.624242   -68.461 29.841856   133.826  0.018269    58.528  0.796158   -33.358
 0.900000  0.602080   -75.375 28.374825   129.303  0.019631    56.092  0.762566   -36.212
 1.000000  0.582064   -81.785 26.994999   125.230  0.020816    54.242  0.730714   -38.672
 1.100000  0.562032   -88.060 25.667004   121.292  0.021883    52.529  0.699926   -40.946
 1.200000  0.543959   -93.696 24.351814   117.697  0.022768    51.180  0.672185   -42.965
 1.300000  0.528235   -99.230 23.177647   114.480  0.023568    50.053  0.646178   -44.834
 1.400000  0.514143  -104.117 22.040245   111.414  0.024292    49.073  0.622614   -46.513
 1.500000  0.500294  -108.877 20.971380   108.461  0.024947    48.393  0.600016   -47.941
 1.600000  0.487928  -113.494 19.960482   105.761  0.025547    47.675  0.580850   -49.406
 1.700000  0.479184  -117.632 19.054991   103.305  0.026112    47.276  0.562905   -50.693
 1.800000  0.470945  -121.607 18.224060   100.952  0.026667    47.037  0.546752   -51.908
 1.900000  0.462913  -125.337 17.431545    98.625  0.027210    46.906  0.531692   -53.013
 2.000000  0.455608  -129.089 16.694315    96.520  0.027645    46.628  0.518643   -54.210
 2.200000  0.446661  -135.586 15.400422    92.635  0.028674    46.618  0.495862   -56.341
 2.400000  0.438744  -141.167 14.233267    88.966  0.029577    46.791  0.477716   -58.363
 2.600000  0.434257  -146.375 13.244397    85.721  0.030598    47.232  0.462312   -60.395
 2.800000  0.430899  -151.247 12.398971    82.499  0.031624    47.749  0.450461   -62.446
 3.000000  0.428136  -155.239 11.620614    79.582  0.032622    48.208  0.439733   -64.494
 3.500000  0.426028  -164.419 10.055626    72.701  0.035407    49.775  0.420781   -69.637
 4.000000  0.426306  -172.179  8.865129    66.409  0.038545    51.252  0.406164   -74.741
 4.500000  0.429809  -178.887  7.934268    60.382  0.042103    52.322  0.395748   -80.716
 5.000000  0.439613   174.694  7.195154    54.518  0.046004    53.012  0.387973   -87.568
 5.500000  0.449756   168.598  6.576481    48.775  0.050180    53.275  0.383590   -94.782
 6.000000  0.462672   163.033  6.059424    42.963  0.054654    53.049  0.383199  -102.536
 6.500000  0.475715   157.204  5.603635    36.892  0.059272    52.329  0.386707  -110.964
 7.000000  0.488434   151.227  5.169336    30.861  0.063822    51.179  0.389846  -119.774
 7.500000  0.503244   145.141  4.770221    25.172  0.068408    49.981  0.393777  -128.339
 8.000000  0.525319   139.765  4.430701    19.705  0.073177    48.406  0.404463  -137.071
 8.500000  0.555007   134.615  4.128825    13.951  0.077472    46.241  0.422007  -146.175
 9.000000  0.584995   130.073  3.818139     8.177  0.081020    44.368  0.441328  -155.192
 9.500000  0.609232   126.118  3.532442     2.951  0.084728    42.841  0.464069  -163.039
10.000000  0.633119   122.783  3.282238    -2.337  0.089000    41.075  0.494859  -169.987
!
!                    Infineon Technologies AG
