!    Infineon Technologies AG
!    BGB707L7ESD RU919007 w#7 Sample Build #08493 Teil Nr. 3
!    Vce = 3.5V, Ic = 2.1mA
!    DATUM: 30.06.2009 10:56:32
# GHz   S   MA   R  50
!f                S11                 S21                 S12                 S22
!GHz            Mag  Ang            Mag  Ang            Mag  Ang            Mag  Ang
 0.050000  0.971175    -1.493  6.722926   178.860  0.001899    86.269  0.997823    -0.938
 0.060000  0.976143    -2.161  6.856780   178.687  0.002030    80.281  0.998523    -1.215
 0.070000  0.975138    -2.071  6.767000   178.388  0.002218    83.901  0.998608    -1.458
 0.080000  0.973250    -2.110  6.736123   177.938  0.002565    87.068  0.998357    -1.698
 0.090000  0.977311    -2.782  6.792058   178.348  0.002836    87.971  0.998483    -1.949
 0.100000  0.975084    -3.249  6.756988   177.478  0.003039    84.838  0.997858    -2.156
 0.110000  0.976404    -3.470  6.784867   177.488  0.003484    87.474  0.997775    -2.369
 0.120000  0.973332    -3.643  6.770100   177.262  0.003899    86.443  0.998374    -2.630
 0.130000  0.974657    -4.065  6.801262   176.982  0.004227    85.874  0.998093    -2.879
 0.140000  0.974726    -4.385  6.766945   176.596  0.004462    85.757  0.997780    -3.054
 0.150000  0.974351    -4.599  6.763672   176.478  0.004854    85.613  0.996970    -3.304
 0.200000  0.974689    -6.256  6.783665   175.417  0.006517    85.395  0.996742    -4.401
 0.250000  0.974571    -7.654  6.746823   173.889  0.008024    84.245  0.993354    -5.533
 0.300000  0.974090    -9.263  6.769525   172.871  0.009610    83.494  0.995683    -6.574
 0.350000  0.971407   -10.812  6.768310   171.476  0.011269    81.931  0.993747    -7.686
 0.400000  0.972126   -12.243  6.753941   170.297  0.012847    81.354  0.992852    -8.804
 0.450000  0.969543   -13.909  6.779940   168.816  0.014475    80.218  0.992149    -9.918
 0.500000  0.969608   -15.463  6.769187   167.711  0.015977    79.306  0.989853   -10.983
 0.600000  0.965065   -18.494  6.757247   164.842  0.019181    77.291  0.986821   -13.195
 0.700000  0.962059   -21.632  6.756134   162.239  0.022277    75.060  0.982708   -15.401
 0.800000  0.955530   -24.560  6.709647   159.796  0.025307    72.957  0.978014   -17.561
 0.900000  0.949966   -27.671  6.684913   157.056  0.028289    70.704  0.972671   -19.766
 1.000000  0.944283   -30.721  6.655978   154.499  0.031165    68.596  0.966737   -21.936
 1.100000  0.936868   -33.786  6.630181   151.811  0.034027    66.420  0.960089   -24.091
 1.200000  0.929743   -36.784  6.576486   149.140  0.036763    64.313  0.952993   -26.208
 1.300000  0.922046   -39.871  6.535511   146.672  0.039349    62.224  0.945659   -28.395
 1.400000  0.913293   -42.773  6.473141   144.069  0.041832    60.127  0.937750   -30.487
 1.500000  0.903153   -45.685  6.410514   141.378  0.044244    58.012  0.928796   -32.570
 1.600000  0.894183   -48.728  6.347326   138.804  0.046509    56.079  0.920535   -34.629
 1.700000  0.885534   -51.570  6.278996   136.397  0.048661    53.989  0.912019   -36.656
 1.800000  0.876214   -54.501  6.211221   133.954  0.050648    52.069  0.902598   -38.633
 1.900000  0.865936   -57.240  6.128745   131.433  0.052539    50.083  0.893217   -40.602
 2.000000  0.855718   -60.007  6.050274   129.134  0.054328    48.232  0.884173   -42.555
 2.200000  0.837095   -65.584  5.900082   124.573  0.057507    44.670  0.865710   -46.331
 2.400000  0.819718   -70.932  5.718070   120.063  0.060178    41.172  0.847798   -49.987
 2.600000  0.803681   -76.172  5.557574   115.821  0.062501    38.025  0.830112   -53.548
 2.800000  0.787023   -81.395  5.415648   111.617  0.064348    34.938  0.813986   -57.047
 3.000000  0.771684   -86.247  5.251799   107.552  0.065883    32.086  0.797904   -60.404
 3.500000  0.735110   -98.202  4.886343    97.757  0.068142    25.439  0.760775   -68.393
 4.000000  0.702720  -109.133  4.544550    88.575  0.068439    19.762  0.726055   -75.802
 4.500000  0.676755  -119.433  4.222774    79.874  0.067285    15.026  0.696903   -83.336
 5.000000  0.656868  -129.414  3.948687    71.486  0.064966    11.153  0.672248   -91.154
 5.500000  0.643510  -138.882  3.689048    63.416  0.061510     8.464  0.652064   -98.879
 6.000000  0.635418  -147.702  3.457442    55.424  0.057549     7.340  0.636978  -106.704
 6.500000  0.629230  -156.410  3.240062    47.242  0.053564     7.589  0.627523  -114.795
 7.000000  0.622780  -164.940  3.011090    39.076  0.049794     9.639  0.619078  -123.089
 7.500000  0.618772  -173.033  2.775277    31.422  0.046862    14.091  0.610977  -131.176
 8.000000  0.625999   179.252  2.566439    24.443  0.046014    20.071  0.610777  -139.284
 8.500000  0.643730   170.499  2.383461    17.276  0.047239    25.414  0.618410  -147.526
 9.000000  0.666081   162.429  2.188293    10.033  0.049189    30.329  0.629498  -155.881
 9.500000  0.687111   155.525  1.999847     3.645  0.052609    34.897  0.642714  -163.479
10.000000  0.710823   149.248  1.831534    -2.601  0.057848    37.735  0.664626  -170.343
!
!  f       Fmin   Gammaopt  rn/50 
! GHz       dB    MAG  ANG    -
 0.100	      0.40  0.68    2   0.23
 0.450      0.51  0.68    4   0.23
 0.900      0.57  0.70   13   0.22
 1.800      0.65  0.54   36   0.22
 5.000      1.07  0.43   79   0.20
10.000      2.02  0.48 -143   0.13
!
! (c) 2009  Infineon Technologies AG, Munich

