!    Infineon Technologies AG
!    BGB707L7ESD RU919007 w#7 Sample Build #08493 Teil Nr. 3
!    Vce = 3.5V, Ic = 3.0mA
!    DATUM: 30.06.2009 10:56:48
# GHz   S   MA   R  50
!f                S11                 S21                 S12                 S22
!GHz            Mag  Ang            Mag  Ang            Mag  Ang            Mag  Ang
 0.050000  0.965574    -1.578  9.171859   178.728  0.001432    79.300  0.997535    -1.030
 0.060000  0.966656    -2.370  9.342739   178.465  0.002020    85.148  0.997782    -1.318
 0.070000  0.965111    -2.445  9.234328   178.159  0.002214    84.459  0.998280    -1.605
 0.080000  0.961294    -2.586  9.181643   177.665  0.002656    84.732  0.997928    -1.899
 0.090000  0.967462    -3.246  9.256670   178.053  0.002832    84.728  0.998011    -2.131
 0.100000  0.964479    -3.788  9.209442   177.181  0.003144    84.590  0.997517    -2.354
 0.110000  0.966781    -4.040  9.247005   177.156  0.003411    85.131  0.997335    -2.605
 0.120000  0.962704    -4.192  9.227940   176.897  0.003799    82.979  0.997898    -2.923
 0.130000  0.965851    -4.578  9.263096   176.600  0.004292    84.792  0.997416    -3.161
 0.140000  0.965067    -4.803  9.218427   176.182  0.004484    84.586  0.996675    -3.376
 0.150000  0.964422    -5.153  9.216327   176.044  0.004750    84.643  0.996381    -3.622
 0.200000  0.963925    -7.019  9.243488   174.847  0.006335    83.798  0.995847    -4.840
 0.250000  0.962621    -8.759  9.193536   173.181  0.007923    83.549  0.992127    -6.112
 0.300000  0.961592   -10.473  9.221085   172.014  0.009571    82.386  0.994337    -7.260
 0.350000  0.960189   -12.280  9.212780   170.513  0.011107    81.489  0.992186    -8.435
 0.400000  0.959503   -13.944  9.187022   169.189  0.012763    80.541  0.989836    -9.619
 0.450000  0.956583   -15.744  9.219748   167.542  0.014333    79.563  0.988826   -10.855
 0.500000  0.954926   -17.484  9.200295   166.308  0.015878    78.190  0.986190   -12.053
 0.600000  0.950372   -21.043  9.173086   163.163  0.018951    75.995  0.981558   -14.481
 0.700000  0.945035   -24.510  9.155391   160.268  0.021998    73.696  0.975753   -16.878
 0.800000  0.936866   -27.934  9.077892   157.513  0.024893    71.479  0.969065   -19.220
 0.900000  0.929168   -31.364  9.017052   154.552  0.027805    69.058  0.961353   -21.593
 1.000000  0.921342   -34.730  8.951367   151.744  0.030535    66.818  0.953060   -23.938
 1.100000  0.911122   -38.204  8.887351   148.823  0.033200    64.516  0.943961   -26.256
 1.200000  0.901436   -41.481  8.784599   145.946  0.035685    62.353  0.934231   -28.507
 1.300000  0.890654   -44.925  8.700274   143.264  0.038107    60.147  0.924062   -30.778
 1.400000  0.879223   -48.152  8.588673   140.496  0.040408    58.012  0.913418   -33.010
 1.500000  0.867191   -51.333  8.469708   137.660  0.042541    55.833  0.901482   -35.140
 1.600000  0.855012   -54.646  8.349938   134.941  0.044569    53.819  0.890790   -37.317
 1.700000  0.843981   -57.720  8.230534   132.396  0.046363    51.768  0.879095   -39.412
 1.800000  0.831445   -60.859  8.107976   129.862  0.048146    49.876  0.867588   -41.431
 1.900000  0.819261   -63.817  7.968375   127.222  0.049697    47.993  0.855547   -43.394
 2.000000  0.807931   -66.839  7.829444   124.844  0.051240    46.121  0.844524   -45.402
 2.200000  0.786090   -72.783  7.575935   120.139  0.053795    42.690  0.821450   -49.184
 2.400000  0.764335   -78.396  7.292377   115.562  0.055885    39.465  0.799886   -52.810
 2.600000  0.745777   -83.851  7.029685   111.322  0.057675    36.520  0.779380   -56.307
 2.800000  0.726973   -89.269  6.804423   107.098  0.058978    33.761  0.760518   -59.699
 3.000000  0.710334   -94.220  6.550622   103.129  0.060092    31.252  0.742381   -62.958
 3.500000  0.671878  -106.357  6.005937    93.518  0.061371    25.631  0.701836   -70.629
 4.000000  0.640459  -117.331  5.515813    84.677  0.061227    21.180  0.665801   -77.654
 4.500000  0.615582  -127.472  5.074795    76.408  0.060056    17.864  0.636527   -84.813
 5.000000  0.598669  -137.291  4.708303    68.408  0.058123    15.617  0.612545   -92.278
 5.500000  0.588055  -146.433  4.372545    60.735  0.055711    14.580  0.593912   -99.720
 6.000000  0.584065  -154.914  4.076558    53.212  0.053202    14.984  0.580807  -107.345
 6.500000  0.581033  -163.237  3.806880    45.426  0.051125    16.593  0.573354  -115.264
 7.000000  0.577641  -171.294  3.530047    37.668  0.049554    19.387  0.567032  -123.432
 7.500000  0.577554  -178.968  3.250989    30.467  0.049021    23.513  0.561808  -131.416
 8.000000  0.588365   172.884  3.009013    23.826  0.050150    27.972  0.564133  -139.465
 8.500000  0.609262   164.601  2.796129    16.939  0.052612    31.167  0.574078  -147.712
 9.000000  0.633375   157.163  2.571818     9.983  0.055252    33.953  0.587435  -156.034
 9.500000  0.656810   150.795  2.356931     3.808  0.058878    36.558  0.603317  -163.589
10.000000  0.682005   145.086  2.166115    -2.272  0.063819    38.034  0.627599  -170.410
!
!  f       Fmin   Gammaopt  rn/50 
! GHz       dB    MAG  ANG    -
 0.100      0.40  0.63    2   0.21
 0.450      0.47  0.63    4   0.21
 0.900      0.57  0.65   13   0.20
 1.800      0.64  0.51   35   0.20
 5.000      1.07  0.41   77   0.19
10.000      1.82  0.45 -140   0.13
!
! (c) 2009  Infineon Technologies AG, Munich
