!    Infineon Technologies AG
!    BGB707L7ESD RU919007 w#7 Sample Build #08493 Teil Nr. 3
!    Vce = 3.5V, Ic = 2.6mA
!    DATUM: 30.06.2009 10:56:40
# GHz   S   MA   R  50
!f                S11                 S21                 S12                 S22
!GHz            Mag  Ang            Mag  Ang            Mag  Ang            Mag  Ang
 0.050000  0.969752    -1.682  8.115601   178.768  0.001692    85.756  0.997408    -0.947
 0.060000  0.972579    -2.200  8.267314   178.553  0.001847    87.556  0.997892    -1.276
 0.070000  0.971467    -2.316  8.165339   178.264  0.002218    84.171  0.998334    -1.539
 0.080000  0.968959    -2.423  8.121979   177.786  0.002482    86.731  0.998234    -1.828
 0.090000  0.970762    -3.106  8.185114   178.169  0.002993    84.805  0.998070    -2.016
 0.100000  0.971344    -3.367  8.145157   177.315  0.003127    85.849  0.997560    -2.265
 0.110000  0.973740    -3.805  8.180025   177.306  0.003594    85.779  0.997492    -2.506
 0.120000  0.967119    -3.890  8.167947   177.040  0.003799    87.276  0.997996    -2.828
 0.130000  0.968963    -4.237  8.193608   176.757  0.004100    85.251  0.997434    -2.997
 0.140000  0.971672    -4.704  8.154234   176.362  0.004422    85.560  0.996876    -3.234
 0.150000  0.968824    -4.852  8.153040   176.227  0.004790    85.648  0.996717    -3.479
 0.200000  0.970164    -6.676  8.180758   175.097  0.006318    85.530  0.996310    -4.649
 0.250000  0.968006    -8.304  8.133896   173.485  0.007978    84.540  0.992699    -5.888
 0.300000  0.965875    -9.957  8.158134   172.388  0.009601    82.713  0.995207    -6.973
 0.350000  0.965982   -11.707  8.155485   170.913  0.011166    81.944  0.993139    -8.110
 0.400000  0.964283   -13.206  8.130767   169.672  0.012799    80.812  0.991258    -9.247
 0.450000  0.963089   -14.923  8.163625   168.098  0.014389    79.929  0.990310   -10.435
 0.500000  0.960982   -16.626  8.147370   166.899  0.015952    78.836  0.987831   -11.584
 0.600000  0.956550   -19.933  8.129191   163.882  0.019047    76.448  0.983983   -13.923
 0.700000  0.952054   -23.245  8.118740   161.129  0.022121    74.240  0.978918   -16.229
 0.800000  0.945168   -26.488  8.059139   158.492  0.025097    72.097  0.973116   -18.513
 0.900000  0.938414   -29.756  8.016450   155.639  0.027975    69.827  0.966584   -20.802
 1.000000  0.932402   -32.990  7.965140   152.933  0.030810    67.612  0.959173   -23.070
 1.100000  0.922747   -36.298  7.920873   150.105  0.033577    65.310  0.951298   -25.335
 1.200000  0.913946   -39.473  7.839490   147.321  0.036193    63.219  0.942773   -27.511
 1.300000  0.904207   -42.776  7.780491   144.736  0.038663    61.039  0.933739   -29.795
 1.400000  0.894606   -45.853  7.690180   142.020  0.041040    58.889  0.924159   -31.953
 1.500000  0.883293   -48.911  7.597826   139.237  0.043286    56.714  0.913585   -34.073
 1.600000  0.871936   -52.105  7.504450   136.582  0.045385    54.717  0.903885   -36.189
 1.700000  0.861934   -55.105  7.407731   134.097  0.047370    52.732  0.893522   -38.251
 1.800000  0.850772   -58.152  7.312483   131.600  0.049271    50.770  0.882819   -40.262
 1.900000  0.839894   -61.003  7.195868   129.003  0.050967    48.828  0.871960   -42.218
 2.000000  0.828969   -63.967  7.084259   126.619  0.052583    46.950  0.861821   -44.231
 2.200000  0.808004   -69.729  6.880007   121.994  0.055383    43.456  0.840684   -48.045
 2.400000  0.788377   -75.256  6.644426   117.419  0.057706    40.145  0.820300   -51.651
 2.600000  0.770546   -80.570  6.424931   113.190  0.059689    37.027  0.800992   -55.201
 2.800000  0.751936   -85.904  6.230075   109.007  0.061219    34.201  0.783178   -58.602
 3.000000  0.736063   -90.924  6.020576   104.961  0.062535    31.451  0.765941   -61.968
 3.500000  0.697895  -102.971  5.552740    95.250  0.064116    25.399  0.726289   -69.771
 4.000000  0.664943  -113.942  5.123741    86.306  0.064105    20.424  0.690779   -76.962
 4.500000  0.639964  -124.211  4.734096    77.816  0.062906    16.542  0.661172   -84.277
 5.000000  0.621726  -134.039  4.405233    69.652  0.060769    13.612  0.636670   -91.870
 5.500000  0.610327  -143.312  4.100485    61.818  0.057895    11.905  0.617384   -99.424
 6.000000  0.603887  -151.917  3.829923    54.079  0.054758    11.743  0.603223  -107.131
 6.500000  0.599656  -160.421  3.581793    46.187  0.051868    12.917  0.594920  -115.111
 7.000000  0.594823  -168.665  3.323503    38.252  0.049408    15.492  0.587726  -123.315
 7.500000  0.593194  -176.523  3.061592    30.851  0.047953    19.854  0.581347  -131.339
 8.000000  0.602627   175.388  2.834165    24.054  0.048388    24.992  0.582670  -139.405
 8.500000  0.621982   166.971  2.632814    17.073  0.050401    29.089  0.591720  -147.633
 9.000000  0.645754   159.276  2.418726    10.002  0.052799    32.615  0.604303  -155.978
 9.500000  0.668672   152.722  2.214046     3.734  0.056345    35.905  0.619113  -163.537
10.000000  0.692427   146.844  2.032571    -2.430  0.061464    37.955  0.642374  -170.378
!
!  f       Fmin   Gammaopt  rn/50 
! GHz       dB    MAG  ANG    -
 0.100      0.40  0.63    2   0.21
 0.450      0.47  0.63    4   0.21
 0.900      0.57  0.65   13   0.20
 1.800      0.64  0.51   35   0.20
 5.000      1.07  0.41   77   0.19
10.000      1.82  0.45 -140   0.13
!
! (c) 2009  Infineon Technologies AG, Munich

