!    Infineon Technologies AG
!    BGB707L7ESD 
!    Vce = 2.5V, Ic = 15.0mA
!    DATUM: 30.06.2009 10:17:09
# GHz   S   MA   R  50
!f                S11                 S21                 S12                 S22
!GHz            Mag  Ang            Mag  Ang            Mag  Ang            Mag  Ang
 0.050000  0.843351    -3.523 29.578642   177.579  0.001793    87.490  0.994612    -1.685
 0.060000  0.842614    -4.689 30.107931   177.021  0.001774    85.749  0.995010    -2.200
 0.070000  0.839034    -5.095 29.779655   176.525  0.002039    87.744  0.995803    -2.692
 0.080000  0.838436    -5.729 29.637566   175.797  0.002553    90.367  0.995808    -3.190
 0.090000  0.842681    -6.883 29.901289   175.874  0.002936    87.855  0.995621    -3.652
 0.100000  0.837513    -7.603 29.732920   174.764  0.003089    87.136  0.994885    -4.120
 0.110000  0.842449    -8.308 29.863409   174.465  0.003469    87.372  0.994338    -4.551
 0.120000  0.838274    -8.935 29.814838   173.955  0.003863    86.578  0.994769    -5.120
 0.130000  0.841110    -9.763 29.915836   173.407  0.003968    85.596  0.993585    -5.530
 0.140000  0.838143   -10.618 29.768040   172.735  0.004342    85.187  0.992963    -5.954
 0.150000  0.838533   -11.276 29.764109   172.328  0.004644    83.691  0.991984    -6.414
 0.200000  0.836405   -15.022 29.770159   169.790  0.006200    82.876  0.987683    -8.661
 0.250000  0.828994   -18.495 29.477358   166.889  0.007646    80.061  0.980409   -10.851
 0.300000  0.824802   -22.283 29.380123   164.437  0.009137    78.564  0.975001   -12.955
 0.350000  0.816879   -25.943 29.143812   161.666  0.010516    76.003  0.966269   -15.071
 0.400000  0.811622   -29.427 28.831625   159.143  0.011959    74.682  0.956913   -17.142
 0.450000  0.803499   -33.143 28.647644   156.346  0.013339    72.688  0.946916   -19.210
 0.500000  0.794761   -36.615 28.290331   153.916  0.014602    71.012  0.934437   -21.138
 0.600000  0.774417   -43.454 27.518810   148.728  0.017068    67.592  0.909860   -24.960
 0.700000  0.752748   -50.103 26.737734   143.928  0.019251    64.328  0.882480   -28.569
 0.800000  0.730190   -56.305 25.748371   139.555  0.021244    61.524  0.853821   -31.867
 0.900000  0.706585   -62.508 24.792730   135.150  0.022990    58.655  0.824059   -34.974
 1.000000  0.684787   -68.187 23.852985   131.161  0.024578    56.384  0.794804   -37.823
 1.100000  0.661907   -73.879 22.925428   127.221  0.025977    54.088  0.765715   -40.551
 1.200000  0.639525   -79.124 21.948559   123.547  0.027200    52.083  0.738257   -42.992
 1.300000  0.619006   -84.282 21.069561   120.236  0.028263    50.434  0.711882   -45.307
 1.400000  0.600298   -88.954 20.187637   117.043  0.029225    48.884  0.687244   -47.422
 1.500000  0.581424   -93.552 19.336802   113.916  0.030075    47.410  0.662859   -49.336
 1.600000  0.563218   -98.028 18.503576   111.065  0.030818    46.353  0.641416   -51.171
 1.700000  0.550382  -102.071 17.762869   108.455  0.031433    45.330  0.621157   -52.861
 1.800000  0.537557  -106.037 17.073507   105.942  0.032067    44.410  0.602397   -54.445
 1.900000  0.524352  -109.840 16.391592   103.427  0.032614    43.706  0.584825   -55.920
 2.000000  0.513308  -113.523 15.743881   101.168  0.033110    43.046  0.569166   -57.420
 2.200000  0.495695  -120.409 14.621927    96.988  0.034095    42.185  0.541204   -60.114
 2.400000  0.481471  -126.578 13.582446    93.031  0.034900    41.586  0.518237   -62.582
 2.600000  0.470480  -132.109 12.686752    89.568  0.035684    41.313  0.498287   -64.989
 2.800000  0.461126  -137.483 11.923843    86.048  0.036485    41.174  0.482330   -67.332
 3.000000  0.454661  -142.124 11.199373    82.939  0.037272    41.328  0.468101   -69.655
 3.500000  0.442287  -152.675  9.741205    75.504  0.039263    41.937  0.441300   -75.173
 4.000000  0.436566  -161.618  8.617254    68.769  0.041592    42.991  0.420944   -80.534
 4.500000  0.435888  -169.269  7.725184    62.453  0.044218    44.224  0.406193   -86.603
 5.000000  0.441308  -176.363  7.013659    56.278  0.047223    45.160  0.395496   -93.480
 5.500000  0.449500   176.879  6.415475    50.277  0.050574    45.898  0.389363  -100.659
 6.000000  0.460159   170.534  5.913514    44.257  0.054287    46.253  0.388031  -108.339
 6.500000  0.471511   163.958  5.468831    38.010  0.058184    46.126  0.391109  -116.603
 7.000000  0.482131   157.241  5.043038    31.785  0.062155    45.628  0.394414  -125.203
 7.500000  0.494421   150.688  4.649872    25.943  0.066202    45.005  0.398746  -133.542
 8.000000  0.514829   144.766  4.316246    20.392  0.070566    44.074  0.410473  -141.978
 8.500000  0.544280   139.083  4.017601    14.525  0.074524    42.377  0.428900  -150.728
 9.000000  0.573522   134.051  3.712394     8.668  0.077847    40.911  0.449207  -159.339
 9.500000  0.597942   129.851  3.431854     3.353  0.081299    39.824  0.472646  -166.783
10.000000  0.623528   126.215  3.185582    -2.007  0.085433    38.424  0.503819  -173.424
!
!                    Infineon Technologies AG
