!    Infineon Technologies AG
!    BGB707L7ESD RU919007 w#7 Sample Build #08493 Teil Nr. 3
!    Vce = 1.8V, Ic = 10.0mA
!    DATUM: 30.06.2009 10:15:44
# GHz   S   MA   R  50
!f                S11                 S21                 S12                 S22
!GHz            Mag  Ang            Mag  Ang            Mag  Ang            Mag  Ang
 0.050000  0.888862    -2.821 23.254705   178.004  0.001585    97.771  0.995958    -1.627
 0.060000  0.895495    -4.112 23.684999   177.522  0.002165    86.711  0.996776    -2.092
 0.070000  0.889362    -4.483 23.416758   177.074  0.002649    89.453  0.997016    -2.520
 0.080000  0.888232    -4.946 23.308563   176.415  0.002645    86.929  0.997042    -2.969
 0.090000  0.890646    -5.916 23.504316   176.596  0.002934    88.211  0.996867    -3.327
 0.100000  0.889095    -6.473 23.382076   175.552  0.003301    88.710  0.996326    -3.753
 0.110000  0.891443    -6.903 23.483524   175.342  0.003527    83.613  0.996069    -4.134
 0.120000  0.889743    -7.488 23.440268   174.903  0.004004    85.886  0.996270    -4.633
 0.130000  0.889394    -8.088 23.526985   174.421  0.004313    85.273  0.995619    -5.021
 0.140000  0.888849    -8.709 23.420729   173.814  0.004667    85.665  0.994346    -5.355
 0.150000  0.889973    -9.284 23.422565   173.475  0.004930    84.258  0.994031    -5.766
 0.200000  0.886640   -12.515 23.454039   171.334  0.006555    82.915  0.991530    -7.754
 0.250000  0.880598   -15.409 23.268824   168.793  0.008114    81.052  0.985937    -9.752
 0.300000  0.878450   -18.534 23.249382   166.709  0.009795    79.875  0.982842   -11.617
 0.350000  0.873034   -21.566 23.127127   164.297  0.011307    77.977  0.976290   -13.531
 0.400000  0.868612   -24.475 22.950584   162.110  0.012910    76.419  0.970187   -15.419
 0.450000  0.862288   -27.590 22.898640   159.624  0.014384    74.386  0.962999   -17.337
 0.500000  0.855224   -30.555 22.696884   157.510  0.015810    73.039  0.954058   -19.119
 0.600000  0.838719   -36.492 22.266314   152.855  0.018648    69.754  0.935716   -22.735
 0.700000  0.821841   -42.259 21.839252   148.486  0.021241    66.585  0.914965   -26.207
 0.800000  0.802152   -47.700 21.248125   144.426  0.023624    63.735  0.892502   -29.486
 0.900000  0.780785   -53.175 20.660156   140.315  0.025796    60.918  0.868421   -32.641
 1.000000  0.761653   -58.350 20.067196   136.490  0.027802    58.282  0.844248   -35.629
 1.100000  0.739163   -63.528 19.470936   132.668  0.029590    55.732  0.819021   -38.495
 1.200000  0.717797   -68.386 18.805876   129.045  0.031189    53.514  0.794677   -41.154
 1.300000  0.697428   -73.100 18.209990   125.757  0.032603    51.464  0.770442   -43.730
 1.400000  0.678427   -77.560 17.581009   122.524  0.033891    49.529  0.747286   -46.115
 1.500000  0.657921   -81.884 16.955420   119.323  0.035020    47.683  0.723760   -48.334
 1.600000  0.638704   -86.160 16.334484   116.363  0.035976    46.193  0.702539   -50.507
 1.700000  0.622063   -90.086 15.770461   113.695  0.036838    44.712  0.681985   -52.463
 1.800000  0.607781   -93.959 15.238706   111.045  0.037601    43.407  0.662611   -54.345
 1.900000  0.592656   -97.601 14.700123   108.396  0.038329    42.272  0.644256   -56.102
 2.000000  0.577872  -101.300 14.180273   106.005  0.038947    41.194  0.627542   -57.895
 2.200000  0.555067  -108.133 13.267782   101.553  0.040008    39.504  0.596702   -61.132
 2.400000  0.536417  -114.290 12.397424    97.345  0.040844    38.017  0.570738   -64.076
 2.600000  0.520594  -120.043 11.646454    93.582  0.041581    37.040  0.547910   -66.920
 2.800000  0.507658  -125.798 10.992318    89.858  0.042244    36.268  0.528916   -69.632
 3.000000  0.496463  -130.686 10.362576    86.468  0.042785    35.719  0.511654   -72.280
 3.500000  0.476508  -142.080  9.076772    78.500  0.044108    35.020  0.478264   -78.464
 4.000000  0.463228  -151.767  8.064509    71.300  0.045414    35.323  0.451993   -84.213
 4.500000  0.457654  -160.401  7.249108    64.566  0.047046    36.079  0.433139   -90.585
 5.000000  0.458243  -168.310  6.592512    58.022  0.048962    37.069  0.419514   -97.625
 5.500000  0.463433  -175.569  6.037733    51.732  0.051196    38.125  0.411094  -104.867
 6.000000  0.471744   177.760  5.567222    45.420  0.053881    39.070  0.408063  -112.507
 6.500000  0.480717   170.609  5.149276    38.909  0.056958    39.600  0.410006  -120.654
 7.000000  0.489036   163.327  4.744850    32.450  0.060141    39.828  0.412516  -129.085
 7.500000  0.498846   156.262  4.369000    26.415  0.063486    39.971  0.416414  -137.245
 8.000000  0.518271   149.876  4.052571    20.667  0.067417    39.752  0.427951  -145.446
 8.500000  0.546284   143.628  3.768073    14.681  0.071108    38.664  0.446275  -153.897
 9.000000  0.575272   138.152  3.475040     8.659  0.074154    37.781  0.466531  -162.189
 9.500000  0.599903   133.539  3.206040     3.249  0.077426    37.187  0.489754  -169.372
10.000000  0.624734   129.651  2.970153    -2.188  0.081502    36.246  0.520660  -175.792
!!
!  f       Fmin   Gammaopt  rn/50 
! GHz       dB    MAG  ANG    -
 0.100      0.55  0.46    2   0.18
 0.450      0.69  0.46    4   0.18
 0.900      0.73  0.47   12   0.18
 1.800      0.75  0.40   33   0.17
 5.000      0.97  0.31   70   0.16
10.000	      1.48  0.39 -123   0.14
!
! (c) 2009  Infineon Technologies AG, Munich
