!    Infineon Technologies AG
!    BGB707L7ESD 
!    Vce = 2.5V, Ic = 25.0mA
!    DATUM: 30.06.2009 10:17:24
# GHz   S   MA   R  50
!f                S11                 S21                 S12                 S22
!GHz            Mag  Ang            Mag  Ang            Mag  Ang            Mag  Ang
 0.050000  0.747562    -4.976 36.619629   177.112  0.001841    89.217  0.981055    -1.763
 0.060000  0.746733    -6.603 37.276646   176.358  0.002000    88.075  0.982191    -2.423
 0.070000  0.742247    -7.544 36.918289   175.687  0.002294    87.196  0.982950    -3.045
 0.080000  0.745044    -8.524 36.778164   174.810  0.002466    85.866  0.982689    -3.671
 0.090000  0.745830    -9.826 37.100624   174.660  0.002907    82.713  0.983124    -4.288
 0.100000  0.740970   -11.032 36.870087   173.409  0.003160    85.208  0.982069    -4.862
 0.110000  0.744090   -11.821 37.018776   172.947  0.003535    82.203  0.981198    -5.428
 0.120000  0.741518   -12.851 36.942810   172.255  0.003871    84.161  0.981169    -6.065
 0.130000  0.741731   -13.874 37.037270   171.548  0.004005    82.298  0.979867    -6.635
 0.140000  0.740290   -14.958 36.855591   170.698  0.004425    82.513  0.978330    -7.131
 0.150000  0.739890   -15.893 36.833187   170.131  0.004678    82.271  0.976788    -7.700
 0.200000  0.736183   -21.273 36.707363   166.763  0.006126    79.448  0.969094   -10.407
 0.250000  0.726940   -26.258 36.170074   163.131  0.007560    77.323  0.957483   -13.030
 0.300000  0.722221   -31.240 35.844460   159.966  0.009042    74.919  0.947094   -15.508
 0.350000  0.713088   -36.297 35.292336   156.561  0.010335    72.242  0.933063   -17.956
 0.400000  0.705360   -40.956 34.652878   153.442  0.011662    70.578  0.917472   -20.264
 0.450000  0.695653   -45.913 34.154739   150.129  0.012883    68.616  0.901758   -22.535
 0.500000  0.685919   -50.485 33.422531   147.219  0.014016    66.636  0.883846   -24.683
 0.600000  0.663154   -59.215 31.936119   141.307  0.016079    62.913  0.847648   -28.681
 0.700000  0.641976   -67.656 30.451031   135.927  0.017858    59.876  0.810256   -32.269
 0.800000  0.620528   -75.153 28.842567   131.169  0.019411    57.117  0.773814   -35.396
 0.900000  0.599511   -82.402 27.300367   126.600  0.020724    54.677  0.738136   -38.226
 1.000000  0.582154   -89.025 25.863617   122.511  0.021870    52.756  0.704992   -40.713
 1.100000  0.564053   -95.438 24.503548   118.593  0.022873    50.979  0.673211   -42.960
 1.200000  0.547479  -101.291 23.170071   115.021  0.023722    49.598  0.645076   -44.970
 1.300000  0.534178  -106.846 21.991590   111.837  0.024485    48.470  0.618831   -46.766
 1.400000  0.522101  -111.764 20.866776   108.823  0.025167    47.567  0.595408   -48.384
 1.500000  0.509973  -116.506 19.813547   105.904  0.025808    46.828  0.573355   -49.821
 1.600000  0.500021  -121.060 18.810946   103.258  0.026378    46.221  0.554352   -51.210
 1.700000  0.492641  -125.088 17.929924   100.867  0.026877    45.950  0.536693   -52.433
 1.800000  0.486532  -128.921 17.128302    98.565  0.027406    45.636  0.521178   -53.660
 1.900000  0.480243  -132.685 16.364332    96.264  0.027938    45.434  0.507146   -54.810
 2.000000  0.474648  -136.161 15.644467    94.192  0.028410    45.374  0.494532   -55.978
 2.200000  0.466646  -142.359 14.407603    90.392  0.029355    45.545  0.472590   -58.064
 2.400000  0.461893  -147.794 13.294633    86.779  0.030325    45.803  0.455787   -60.140
 2.600000  0.459230  -152.553 12.356769    83.592  0.031318    46.288  0.441673   -62.244
 2.800000  0.456814  -157.185 11.554294    80.386  0.032316    46.788  0.430666   -64.328
 3.000000  0.454990  -160.958 10.815222    77.501  0.033307    47.463  0.420921   -66.469
 3.500000  0.455079  -169.568  9.334842    70.676  0.036219    49.001  0.404025   -71.866
 4.000000  0.456601  -176.850  8.222284    64.323  0.039476    50.485  0.391044   -77.294
 4.500000  0.461881   176.606  7.341857    58.325  0.043136    51.642  0.381886   -83.574
 5.000000  0.471658   170.333  6.648951    52.421  0.047140    52.267  0.375394   -90.802
 5.500000  0.482345   164.463  6.065693    46.617  0.051484    52.465  0.372591   -98.385
 6.000000  0.496183   159.098  5.577929    40.738  0.056103    52.171  0.373701  -106.458
 6.500000  0.508465   153.488  5.144523    34.618  0.060818    51.297  0.378838  -115.143
 7.000000  0.520621   147.560  4.732884    28.525  0.065438    50.079  0.383786  -124.140
 7.500000  0.534523   141.713  4.353335    22.847  0.070035    48.764  0.389698  -132.855
 8.000000  0.556150   136.529  4.033346    17.371  0.074826    47.088  0.402518  -141.627
 8.500000  0.584350   131.460  3.747885    11.587  0.079091    44.841  0.422033  -150.646
 9.000000  0.612828   127.064  3.453561     5.852  0.082581    42.893  0.443321  -159.478
 9.500000  0.635956   123.197  3.186274     0.712  0.086212    41.323  0.467695  -167.098
10.000000  0.658154   119.962  2.951394    -4.502  0.090432    39.494  0.499541  -173.843
!
!                    Infineon Technologies AG
