!    Infineon Technologies AG
!    BGB707L7ESD RU919007 w#7 Sample Build #08493 Teil Nr. 3
!    Vce = 2.5V, Ic = 2.1mA
!    DATUM: 30.06.2009 10:16:23
# GHz   S   MA   R  50
!f                S11                 S21                 S12                 S22
!GHz            Mag  Ang            Mag  Ang            Mag  Ang            Mag  Ang
 0.050000  0.975460    -1.414  6.738793   178.980  0.001440    90.665  0.999113    -1.016
 0.060000  0.978833    -2.119  6.871102   178.698  0.002240    89.236  0.998965    -1.278
 0.070000  0.977655    -2.135  6.786702   178.437  0.002285    89.385  0.999250    -1.521
 0.080000  0.973046    -2.258  6.748292   177.957  0.002641    88.006  0.999196    -1.801
 0.090000  0.977331    -2.691  6.801064   178.361  0.002876    88.658  0.999129    -2.002
 0.100000  0.975899    -3.316  6.774322   177.484  0.003214    87.993  0.998772    -2.214
 0.110000  0.974304    -3.401  6.800751   177.496  0.003760    89.446  0.998512    -2.449
 0.120000  0.973534    -3.746  6.787487   177.240  0.003932    85.231  0.999261    -2.752
 0.130000  0.973905    -4.106  6.813857   176.991  0.004248    87.706  0.998710    -2.931
 0.140000  0.974272    -4.261  6.784265   176.589  0.004566    87.815  0.998092    -3.151
 0.150000  0.976291    -4.617  6.779962   176.450  0.004970    86.053  0.998198    -3.388
 0.200000  0.975728    -6.360  6.802842   175.364  0.006674    86.084  0.997671    -4.515
 0.250000  0.972363    -7.775  6.768085   173.832  0.008276    85.611  0.995480    -5.703
 0.300000  0.972565    -9.301  6.787580   172.801  0.009946    83.967  0.996534    -6.792
 0.350000  0.970489   -10.840  6.782761   171.385  0.011688    82.614  0.994972    -7.892
 0.400000  0.970907   -12.331  6.765486   170.202  0.013258    82.030  0.993315    -8.984
 0.450000  0.969212   -13.938  6.793858   168.711  0.014900    80.696  0.992743   -10.131
 0.500000  0.968723   -15.543  6.782587   167.582  0.016561    79.499  0.990764   -11.272
 0.600000  0.965087   -18.610  6.770229   164.716  0.019750    77.235  0.987383   -13.529
 0.700000  0.960973   -21.715  6.768419   162.085  0.023006    75.008  0.983353   -15.787
 0.800000  0.955318   -24.757  6.724422   159.557  0.026131    72.928  0.978426   -18.000
 0.900000  0.949357   -27.835  6.695675   156.858  0.029199    70.707  0.972842   -20.242
 1.000000  0.943825   -30.867  6.666032   154.279  0.032200    68.550  0.966805   -22.456
 1.100000  0.935831   -34.004  6.638395   151.579  0.035159    66.318  0.960082   -24.685
 1.200000  0.928233   -36.975  6.580153   148.864  0.037913    64.174  0.952871   -26.835
 1.300000  0.920215   -40.037  6.543358   146.382  0.040592    62.018  0.945274   -29.081
 1.400000  0.911897   -42.952  6.482358   143.768  0.043216    59.980  0.937221   -31.217
 1.500000  0.902406   -45.901  6.414918   141.045  0.045676    57.805  0.928098   -33.336
 1.600000  0.892713   -48.937  6.349443   138.461  0.047984    55.738  0.919379   -35.456
 1.700000  0.883525   -51.794  6.281701   136.030  0.050163    53.719  0.910252   -37.527
 1.800000  0.873812   -54.686  6.212431   133.626  0.052291    51.739  0.900848   -39.563
 1.900000  0.863953   -57.441  6.126172   131.033  0.054199    49.813  0.891293   -41.538
 2.000000  0.854063   -60.346  6.041422   128.683  0.056042    47.905  0.882178   -43.558
 2.200000  0.835807   -65.923  5.891298   124.127  0.059304    44.288  0.863026   -47.423
 2.400000  0.817015   -71.219  5.711816   119.542  0.062012    40.791  0.844760   -51.167
 2.600000  0.800732   -76.429  5.546164   115.365  0.064355    37.592  0.826752   -54.797
 2.800000  0.784503   -81.665  5.401691   111.118  0.066304    34.458  0.810266   -58.342
 3.000000  0.768332   -86.534  5.233075   107.085  0.067887    31.583  0.793883   -61.784
 3.500000  0.731934   -98.510  4.867352    97.203  0.070182    24.820  0.756124   -69.964
 4.000000  0.699599  -109.462  4.518642    88.053  0.070492    19.038  0.720989   -77.536
 4.500000  0.673938  -119.758  4.198531    79.279  0.069357    14.285  0.691019   -85.179
 5.000000  0.654565  -129.692  3.920423    70.883  0.066944    10.342  0.666014   -93.124
 5.500000  0.641465  -139.066  3.659883    62.788  0.063524     7.525  0.645882  -100.966
 6.000000  0.633200  -147.951  3.426347    54.799  0.059448     6.133  0.630753  -108.911
 6.500000  0.627391  -156.674  3.208625    46.644  0.055401     6.179  0.621296  -117.063
 7.000000  0.620679  -165.176  2.978995    38.411  0.051373     7.872  0.613051  -125.414
 7.500000  0.616591  -173.261  2.740559    30.816  0.048223    11.913  0.605532  -133.513
 8.000000  0.624660   178.945  2.534052    23.864  0.047082    17.538  0.606140  -141.626
 8.500000  0.641961   170.169  2.350953    16.706  0.047887    22.809  0.614272  -149.840
 9.000000  0.664264   162.136  2.155220     9.508  0.049444    27.769  0.626025  -158.088
 9.500000  0.686153   155.163  1.968367     3.148  0.052587    32.483  0.639924  -165.572
10.000000  0.709497   148.926  1.802746    -3.055  0.057548    35.610  0.662361  -172.342
!
!  f       Fmin   Gammaopt  rn/50 
! GHz       dB    MAG  ANG    -
 0.100	      0.40  0.68    2   0.23
 0.450      0.51  0.68    4   0.23
 0.900      0.57  0.70   13   0.22
 1.800      0.65  0.54   36   0.22
 5.000      1.07  0.43   79   0.20
10.000      2.02  0.48 -143   0.13
!
! (c) 2009  Infineon Technologies AG, Munich

