!    Infineon Technologies AG
!    BGB707L7ESD 
!    Vce = 1.8V, Ic = 1.6mA
!    DATUM: 30.06.2009 10:14:58
# GHz   S   MA   R  50
!f                S11                 S21                 S12                 S22
!GHz            Mag  Ang            Mag  Ang            Mag  Ang            Mag  Ang
 0.050000  0.982789    -1.306  5.286355   179.109  0.001839    88.561  0.999268    -1.006
 0.060000  0.983686    -1.831  5.387879   178.920  0.002115    92.677  0.999160    -1.247
 0.070000  0.980863    -1.799  5.326062   178.586  0.002548    88.362  0.999614    -1.476
 0.080000  0.975374    -2.018  5.300210   178.119  0.002763    86.606  0.999585    -1.743
 0.090000  0.981833    -2.467  5.339633   178.547  0.003033    87.863  0.999221    -1.923
 0.100000  0.980978    -3.100  5.315846   177.663  0.003496    86.956  0.999066    -2.145
 0.110000  0.985495    -3.379  5.335530   177.664  0.003739    88.534  0.998377    -2.314
 0.120000  0.979130    -3.567  5.326775   177.438  0.004156    88.723  0.999433    -2.638
 0.130000  0.980114    -3.799  5.346527   177.198  0.004601    88.023  0.999093    -2.842
 0.140000  0.981678    -3.937  5.323222   176.813  0.004867    87.506  0.998652    -3.038
 0.150000  0.981866    -4.158  5.319447   176.683  0.005123    86.620  0.998389    -3.280
 0.200000  0.981247    -5.797  5.334093   175.675  0.006928    86.191  0.997899    -4.365
 0.250000  0.980016    -7.185  5.309444   174.236  0.008739    84.999  0.996355    -5.515
 0.300000  0.980435    -8.617  5.322892   173.233  0.010438    83.998  0.997492    -6.560
 0.350000  0.976742   -10.042  5.324363   171.896  0.012211    83.062  0.995853    -7.619
 0.400000  0.977424   -11.398  5.308189   170.766  0.013907    82.024  0.994810    -8.703
 0.450000  0.976267   -12.898  5.333267   169.367  0.015583    81.027  0.994261    -9.840
 0.500000  0.975291   -14.362  5.321358   168.285  0.017349    79.837  0.992346   -10.887
 0.600000  0.972731   -17.219  5.318885   165.542  0.020731    77.972  0.989774   -13.075
 0.700000  0.969696   -20.070  5.321365   163.111  0.024211    75.741  0.986602   -15.253
 0.800000  0.965032   -22.872  5.287659   160.741  0.027501    73.768  0.982854   -17.415
 0.900000  0.960067   -25.728  5.272652   158.160  0.030792    71.535  0.978217   -19.596
 1.000000  0.956122   -28.559  5.258224   155.709  0.033965    69.464  0.973156   -21.727
 1.100000  0.949639   -31.474  5.244948   153.109  0.037143    67.258  0.967764   -23.919
 1.200000  0.943211   -34.246  5.205829   150.554  0.040159    65.134  0.961682   -26.028
 1.300000  0.936989   -37.134  5.185374   148.170  0.043053    63.076  0.955466   -28.204
 1.400000  0.930615   -39.868  5.148565   145.660  0.045924    60.977  0.949079   -30.345
 1.500000  0.921707   -42.626  5.105274   143.031  0.048615    58.849  0.941346   -32.443
 1.600000  0.913219   -45.449  5.062813   140.530  0.051250    56.751  0.934304   -34.576
 1.700000  0.905957   -48.191  5.018540   138.179  0.053670    54.752  0.926625   -36.609
 1.800000  0.898179   -50.902  4.975013   135.820  0.056083    52.795  0.918689   -38.639
 1.900000  0.889177   -53.539  4.918743   133.282  0.058218    50.857  0.910367   -40.620
 2.000000  0.881131   -56.316  4.863978   130.971  0.060393    48.912  0.902511   -42.665
 2.200000  0.865489   -61.588  4.762146   126.508  0.064156    45.169  0.886056   -46.604
 2.400000  0.849388   -66.697  4.634318   122.034  0.067395    41.634  0.870125   -50.382
 2.600000  0.835099   -71.724  4.523266   117.853  0.070320    38.271  0.854106   -54.093
 2.800000  0.820114   -76.763  4.424874   113.649  0.072791    34.964  0.839753   -57.743
 3.000000  0.806131   -81.560  4.303575   109.568  0.074808    31.899  0.824546   -61.286
 3.500000  0.772633   -93.290  4.043848    99.529  0.078117    24.482  0.789932   -69.807
 4.000000  0.741455  -104.199  3.783201    90.162  0.079107    17.879  0.756290   -77.783
 4.500000  0.715927  -114.563  3.535873    81.167  0.078290    12.163  0.726925   -85.804
 5.000000  0.695458  -124.583  3.319301    72.486  0.075827     7.033  0.701860   -94.114
 5.500000  0.681344  -134.129  3.113506    64.041  0.071868     2.897  0.681200  -102.287
 6.000000  0.671068  -143.208  2.921194    55.790  0.066850     0.086  0.664915  -110.516
 6.500000  0.664306  -152.078  2.741209    47.303  0.061444    -1.511  0.654545  -118.900
 7.000000  0.655313  -160.880  2.547058    38.795  0.055578    -1.435  0.644885  -127.431
 7.500000  0.648980  -169.209  2.341275    30.946  0.050179     1.507  0.635555  -135.645
 8.000000  0.653804  -177.189  2.161737    23.811  0.046704     6.997  0.635048  -143.808
 8.500000  0.669969   174.173  2.002986    16.497  0.045474    13.225  0.641712  -152.020
 9.000000  0.689938   165.731  1.832259     9.110  0.045488    20.003  0.652107  -160.213
 9.500000  0.709588   158.386  1.668005     2.689  0.047681    26.858  0.664498  -167.610
10.000000  0.731444   151.802  1.522893    -3.556  0.052274    31.856  0.685411  -174.315
!
!                    Infineon Technologies AG
