! Created with skrf (http://scikit-rf.org).
# Hz S RI R 50.0 
!freq ReS11 ImS11 ReS21 ImS21 ReS12 ImS12 ReS22 ImS22
500000000.0 0.3335925901224886 -0.8178221731870992 0.11840219126622874 0.600479428290116 0.011007102638304631 0.009755342025024516 0.13196797384474274 -0.798732284052992
500312500.0 0.3344910578274451 -0.8190387585590599 0.11658496967334717 0.5981464218664035 0.011940034800414261 0.009240864039939971 0.12803386335917832 -0.7936900377798362
500625000.0 0.3346073704961925 -0.8186200242402817 0.10919687324249928 0.5952379274520209 0.01142607715790424 0.008978891775407205 0.11726562359121709 -0.796206228599414
500937500.0 0.3330956000057863 -0.8186927722209243 0.11397288153743924 0.5940410056570328 0.011343041535978649 0.008392359863912026 0.12386387112343315 -0.7990436832065786
501250000.0 0.331979725738179 -0.8180772869442701 0.11701572836957425 0.5929677085906262 0.011226645323116121 0.008735589930503673 0.12528305220022926 -0.7978560806585564
501562500.0 0.3315889454308738 -0.8194177943555063 0.11764991017841953 0.5923741242259914 0.011976918273785183 0.008256839054615953 0.12193339921955301 -0.7994851374540399
501875000.0 0.33109279805210046 -0.819972413935115 0.11985914919837164 0.588533181326145 0.011792205540736421 0.009364171460489132 0.11881446968172535 -0.7960600273540152
502187500.0 0.33168021321396574 -0.820028548203193 0.11646873426272424 0.5850416297346742 0.011954142830932067 0.009280939861466322 0.1267054741277371 -0.7961734844741949
502500000.0 0.3326292351948349 -0.8197955238565836 0.11688106567464278 0.5918018252893896 0.011520182009175485 0.009515974701587417 0.11861371802877418 -0.8012101839341573
502812500.0 0.33149586360764144 -0.8197597468217429 0.11472445000288407 0.5892142144713735 0.011977715444917663 0.00974778823740837 0.12207994043159151 -0.7971706438340708
503125000.0 0.3308241510033587 -0.8200337726777195 0.11586564076697445 0.5889260206351729 0.012187292097033335 0.009366061062037178 0.11964566912873419 -0.7979413654597733
503437500.0 0.32999258074707394 -0.8198419317863183 0.11906316284812783 0.5897310194549834 0.012089137112737814 0.00853478356635724 0.12050802089362934 -0.7953171021917147
503750000.0 0.3300400659255186 -0.8203133619841988 0.11976142748159342 0.5917367319793221 0.011617777621000032 0.009721649353426646 0.11844510115779233 -0.8010717144193872
504062500.0 0.3309232390942195 -0.8208878284716528 0.12237872882432402 0.5872429579620008 0.011955544784123445 0.009178935270198746 0.12679668965831123 -0.7986759556389665
504375000.0 0.32981428591629175 -0.8209128647433366 0.11723992901283573 0.5847584626884912 0.012045233416800733 0.009616065086280398 0.11913207724234212 -0.7992247556798414
504687500.0 0.3296402172661359 -0.8207919485272507 0.1187742573911843 0.5827098103110344 0.0121428427686758 0.009012319506276678 0.12003572563146536 -0.8047525378244821
505000000.0 0.32913085373228995 -0.8218943065878059 0.11965572204850454 0.583656895867516 0.012768807358400448 0.009852440353024253 0.12152615053543599 -0.802356977696491
505312500.0 0.3295214507015231 -0.8213295224366013 0.11681265065820912 0.5846081044655272 0.012359552854975255 0.008554095826662427 0.12058087157634555 -0.8010437010294803
505625000.0 0.3277396658355777 -0.8215725448338088 0.11878394041805924 0.5792812448643673 0.012540624757193211 0.009700164175787642 0.12240007776171762 -0.799715324281673
505937500.0 0.3270690494884515 -0.8217087637114684 0.11780071961205565 0.582417171704017 0.01252965444866359 0.009048088695999445 0.11639133515362264 -0.801914297557252
506250000.0 0.3269187636492315 -0.8219485189843592 0.12356260180388773 0.5806679435906273 0.012231156823744108 0.009583967830380317 0.12078053688808559 -0.8054323986770411
506562500.0 0.3282878643668805 -0.8216802796538067 0.12211914186396214 0.5788765105063833 0.012651896361836832 0.009608101345508926 0.11568598168721834 -0.798686332586344
506875000.0 0.32708840283398494 -0.8218164031847156 0.12119064034958335 0.5785444429139694 0.01267024501987114 0.00896723147076299 0.11697111956559395 -0.8031647170622718
507187500.0 0.3279311420847713 -0.822796668438687 0.11630912496590207 0.5772687761038898 0.012337462518099003 0.009681076153866692 0.11624381998107772 -0.8021729514724718
507500000.0 0.3274665084583417 -0.8227020595267531 0.11858949051921162 0.5786533961482939 0.013056243997708864 0.009893868712744345 0.12333867877761115 -0.8067562003604583
507812500.0 0.32713599843214536 -0.8237403423767361 0.11605084236589287 0.5793873835236963 0.013593712984956869 0.009184854085911166 0.12397870548705332 -0.8058508237279423
508125000.0 0.32629623399178553 -0.8241673886240279 0.12262476667836937 0.5742160231501066 0.013292306894412867 0.009545935371258371 0.11512308429522745 -0.8020818585789711
508437500.0 0.326055649911525 -0.8241618077839258 0.12222716731974556 0.5727425247489897 0.013152721869856667 0.009136571679038048 0.11707358074923144 -0.7978225261043027
508750000.0 0.3252968257869245 -0.823964918461005 0.12206028187789855 0.5725714516765055 0.013044416873705895 0.009144733081268107 0.12066127877578356 -0.8060346601386259
509062500.0 0.3244781119787079 -0.8236672543702603 0.12501058862492942 0.5700957893819142 0.01322993036340342 0.009557631057756873 0.12111936449887781 -0.8053119899945264
509375000.0 0.32480116103325885 -0.82393652059929 0.122791126806294 0.5679757742562278 0.01291520756476019 0.009167710054608218 0.12007097969030321 -0.79844946746973
509687500.0 0.3249091643020396 -0.823245193635494 0.1271342051577814 0.5671070163466072 0.012931310579441201 0.00973747645672167 0.11383144199396879 -0.8026866743981566
510000000.0 0.32488449165581657 -0.8235733983230683 0.12911304915615338 0.5640689994156382 0.013091675225920127 0.009499781438430882 0.11398367742681027 -0.7992050857861601
510312500.0 0.32482212464800503 -0.8240579000663675 0.12796100762299104 0.566604304169128 0.013004981291219068 0.009545265159215813 0.11813851490601547 -0.8034587827417914
510625000.0 0.32343482906231524 -0.8249233998732506 0.12752721690316346 0.5692749469747433 0.013432342982074763 0.009744547437529729 0.1158652437076567 -0.8053361156054856
510937500.0 0.32502409355850453 -0.8250690560947084 0.12384670533126256 0.5699635376500731 0.012604783123909277 0.009198502456179461 0.11944855497519626 -0.8023093938764521
511250000.0 0.3238458826325421 -0.8246144263223285 0.1243340018157708 0.5694902081768188 0.013203655127504241 0.009837741081156362 0.11184730999106204 -0.8031500529519022
511562500.0 0.32387306916661796 -0.8252658104091821 0.1243426418323101 0.564145061041676 0.013961205446544275 0.009457089407073078 0.11562040027118022 -0.8100410206418039
511875000.0 0.3232766646723848 -0.8258622588886149 0.1295813489872286 0.5619700853949628 0.013252264513207445 0.009596090769071426 0.1178342292969388 -0.8037461297731351
512187500.0 0.3236589710410224 -0.824315565426812 0.12949789476564177 0.5622652155300857 0.012811266676938342 0.009507186933363315 0.11924461799498001 -0.8035547836199737
512500000.0 0.3230259039292405 -0.8251991859834983 0.12284432881802342 0.5597342356901098 0.013848877453004999 0.009417730492416647 0.11626186596886759 -0.8041099183382581
512812500.0 0.3229525750175551 -0.8259638198807177 0.12178108533416017 0.5606697621898906 0.013328837606398778 0.008784307885455842 0.10971876056844794 -0.804777267947106
513125000.0 0.3230990981086154 -0.8252647907792172 0.12660903499309434 0.556472088074312 0.013566728053629485 0.010113768796710295 0.11661803734869405 -0.8030203645889021
513437500.0 0.3220796877219388 -0.8265487384253044 0.13049646492187647 0.5562254988699157 0.014885223939684873 0.008868227582170091 0.11544190505876152 -0.8089834381734015
513750000.0 0.32113628585514514 -0.8261051679597025 0.13424668616567118 0.5522710035962937 0.013941186386630857 0.009469138450640464 0.11521474302972484 -0.8078232794522077
514062500.0 0.3211386404203169 -0.8267623142960955 0.13254332458559973 0.5491363465448029 0.014752839045807396 0.009900126514451315 0.11120328174610238 -0.8075557915834315
514375000.0 0.32093126626660323 -0.826256605415301 0.1311418198418359 0.5565327743306898 0.014559746507351897 0.01014654356645449 0.11272169294442184 -0.8070640932631922
514687500.0 0.3209209758388771 -0.8266306231528799 0.12276032014298353 0.5539064815608141 0.013753109202773759 0.009087050639011666 0.11549849053721772 -0.8069463852595966
515000000.0 0.31981584481152314 -0.8263735133803047 0.1306414992422303 0.5478757755546243 0.015195553023256144 0.009854541565912405 0.11014050822152872 -0.8107676968689472
515312500.0 0.31945819472364095 -0.8277291682401182 0.13062638335902702 0.5483949748470688 0.014416688028461182 0.009347880818857133 0.11494697272866125 -0.8045214001369927
515625000.0 0.3195876150715163 -0.8277219823630412 0.13051435226567087 0.5463868067465983 0.014578865961392667 0.009994711993847659 0.11244467145646456 -0.8071079469446897
515937500.0 0.3198306521366759 -0.8280387384749917 0.13154619858815458 0.5498482194849925 0.013307095723013314 0.008478759603759975 0.11068374355907834 -0.809758121331691
516250000.0 0.3205020963234119 -0.8282102648347055 0.1331475915734374 0.5417941390706069 0.014457609985740548 0.009610213875095799 0.11319748599664141 -0.8093916069813134
516562500.0 0.31889414332586696 -0.8282081214393074 0.13445202311134413 0.5483340686719463 0.01358433528226308 0.009304926606343274 0.108620616451585 -0.8062666345766559
516875000.0 0.31930972208295 -0.82807844645972 0.12996496514009592 0.5428607460984923 0.01533218155762967 0.008149288487251145 0.10773620139888516 -0.8055391870046912
517187500.0 0.31949520776000345 -0.8282154707668103 0.12984111017053424 0.5372207369895585 0.013883458176982612 0.010268716296669065 0.11133094859300893 -0.8114606634993393
517500000.0 0.318656268125447 -0.8287883450786985 0.13206904504601844 0.5427380794503164 0.013568796566380069 0.0085119516128018 0.11164372562716297 -0.8057185835636501
517812500.0 0.31860500233321526 -0.8290309874207155 0.12882428320913453 0.5443994164945152 0.015128168333052756 0.009118997740221185 0.10998988798337063 -0.8059332271993269
518125000.0 0.31773585722703246 -0.8292693825326001 0.13208680625418465 0.5348393779488467 0.015222132341946231 0.01018889748778075 0.10931947186273386 -0.8063558732053376
518437500.0 0.31618656185575056 -0.8291618086461814 0.12817474776797455 0.5335792439957147 0.015927446851421757 0.008214918380925012 0.10936325085912973 -0.8086215398016827
518750000.0 0.31744672547824326 -0.8300118002323046 0.1354972849906703 0.5305071979481409 0.01391234478979607 0.011143379698552173 0.11027565375296766 -0.8059260430068809
519062500.0 0.31748578905741365 -0.8297975090659426 0.1331548109426697 0.5333648164911553 0.016263320028955485 0.01055340563798724 0.11157011941318196 -0.8093912401365196
519375000.0 0.3172610225808352 -0.8298519701685956 0.13408430614546432 0.5378112454043996 0.014493103754664777 0.006637985904048703 0.11085658439698452 -0.8115702976842025
519687500.0 0.3171221113914184 -0.8296618302947893 0.13861417688451858 0.5312041404599306 0.013671930115047057 0.008116993759580566 0.10903839808743475 -0.8130674643714121
520000000.0 0.31666089746896664 -0.8306223858485745 0.13541579646243682 0.5247505180331182 0.015656774662586748 0.0081023789676035 0.1085542056675434 -0.8131549645834031
520312500.0 0.31667739753578267 -0.8309888525789827 0.13554069375589498 0.5322244272648429 0.015017974520475555 0.009036731078266212 0.106640303628944 -0.8090524463908695
520625000.0 0.3173724460964376 -0.8317010218685944 0.13766867429957297 0.5260111579284434 0.01687042172900527 0.011023721599373808 0.10677690094345069 -0.8085215724875026
520937500.0 0.31614104681283084 -0.8307592565215737 0.1414029334694017 0.5198629646246693 0.01524146721539409 0.008305544740033118 0.10729435119310769 -0.8094701848501631
521250000.0 0.3146492734576506 -0.8315478359794228 0.13906183614721174 0.5205982604286206 0.01640568440303261 0.010574055078799735 0.11014285022528132 -0.811944719430586
521562500.0 0.31554702916981536 -0.8322841482535609 0.14126314937786696 0.5220713477872481 0.015527532078523011 0.010523838799707497 0.10754094950560067 -0.8134438534663037
521875000.0 0.31469101932327637 -0.8316320474873882 0.14432139789074247 0.5233440169367933 0.014980998082094469 0.009884163033928091 0.10610054259616757 -0.8118531145254471
522187500.0 0.3162343760889258 -0.8323974982570006 0.14466535240550438 0.5180418110903346 0.015901246821001278 0.010826396052423647 0.10129817376415924 -0.8142280877065885
522500000.0 0.3143071242409457 -0.8326660029788007 0.14853070537037086 0.5153348522026967 0.016314465627492485 0.010100281021473924 0.10592797780806047 -0.8100300266429321
522812500.0 0.315000056322233 -0.8319961496848729 0.14637941166610233 0.5153671427298743 0.01591346642992276 0.00910169272345154 0.10653269457381345 -0.8106140830108394
523125000.0 0.3146330097689732 -0.8333875964036671 0.14950157519988314 0.5094451565205648 0.015486728034448005 0.009525021504455082 0.10248012582420771 -0.8107666001156711
523437500.0 0.31446772939092493 -0.8337850966428547 0.14984297516805498 0.509638314677358 0.016494465856270693 0.009449094131615704 0.10374143125979096 -0.8132117454998561
523750000.0 0.31408358484397064 -0.8328881198284458 0.15206649887895674 0.5065205900555505 0.015369419197257584 0.01024817397277752 0.10385125168871327 -0.817871817097411
524062500.0 0.3143195679488882 -0.8334390567960073 0.14751050218058337 0.5108411036140479 0.0156874442286964 0.009842515708400886 0.10284549172820179 -0.8172807687609589
524375000.0 0.314695433524914 -0.8334943932689045 0.14851484887288127 0.5078921637921705 0.016242010612399573 0.009007971277584547 0.10353547773017473 -0.8152743285926283
524687500.0 0.3138739025120994 -0.8338518705130324 0.1511501160200893 0.506608415203385 0.01534617087277526 0.009269614214504675 0.09988739387762521 -0.8136325099451922
525000000.0 0.31363308684899976 -0.8337244310183505 0.15267507130616387 0.5010866345433078 0.01617123544578338 0.009686638172966331 0.10649916103923267 -0.8179693253908241
525312500.0 0.31423871165148903 -0.8345290718592923 0.15057126417818736 0.5031100762375907 0.016575386942027124 0.010256924976433074 0.1015995377871678 -0.8164877266083022
525625000.0 0.31343794492327715 -0.8343882398358616 0.15583397954172298 0.49928242598967276 0.016497297738689482 0.009266419720141878 0.10177232482280155 -0.8158533713862255
525937500.0 0.31331529531708197 -0.8347148535028145 0.15787447629821194 0.4978060557666729 0.016283227372225668 0.009414133226054146 0.09899518039759578 -0.8170684035733212
526250000.0 0.31312449226153755 -0.8346049062329498 0.15603499946906657 0.49688037464914175 0.015908084831380207 0.009816286757269017 0.10274197666896046 -0.8204535995245615
526562500.0 0.3129806779766234 -0.835190239013283 0.15602254179620534 0.49805774636509514 0.01612162290995864 0.009855025466035186 0.09910443612480364 -0.8191622682426778
526875000.0 0.31260190693553336 -0.8354593918474976 0.1562224767026184 0.4973095807676102 0.01635694968907283 0.00996940455920897 0.0982051954453222 -0.816701891623756
527187500.0 0.3126140896085083 -0.8345666723611462 0.1599476848641393 0.4944180786170983 0.017075549854318032 0.009408248846922318 0.09972213364405554 -0.8168786301812538
527500000.0 0.3129360008805357 -0.8355879254047291 0.1569932076180734 0.49107284139056456 0.01691212393574394 0.009297594306745368 0.10005998168828194 -0.8170421265619858
527812500.0 0.311951341334542 -0.8355337560455076 0.15736445574362695 0.49190118224731666 0.01721183692217424 0.009768891984009582 0.09408206527592636 -0.818806509886216
528125000.0 0.31310414115425683 -0.8360896622078553 0.1591711277991677 0.4882621881409971 0.01708091190101739 0.009260414158667251 0.09565704283723662 -0.8211618870748231
528437500.0 0.312757725273944 -0.8360376141237928 0.160393037040278 0.48824351197238597 0.017132690959193283 0.009724571497036321 0.0997056176276361 -0.8215263409226959
528750000.0 0.31218708438082676 -0.8361390280346422 0.15964695877486892 0.4856784060577103 0.01682527202208446 0.00939862852080009 0.098343626697787 -0.8218131670699196
529062500.0 0.3121059117766976 -0.8368986981849035 0.15921385057672555 0.4838944160885066 0.017304903532818328 0.008928420720557257 0.09506830868506384 -0.8134111113425346
529375000.0 0.31068116143658203 -0.8370494179117052 0.16200508462967975 0.48366086591430596 0.017484493327595607 0.009259196285615225 0.0944247335161579 -0.8212082148047812
529687500.0 0.31150598844070365 -0.838541256091398 0.16322749721824892 0.480612260596007 0.017552603206445822 0.009690178849026091 0.09487298080601267 -0.8189688021097538
530000000.0 0.31045796856990315 -0.8377402355552385 0.16745228910140927 0.4750606577067933 0.017369985345968227 0.00906154470230839 0.09452085392981892 -0.8217434312230899
530312500.0 0.31012645059534094 -0.8387832961932238 0.16511450913899148 0.47942350276466894 0.017192635040932925 0.009185586602454991 0.09724183088040748 -0.8196518907875802
530625000.0 0.31081231133725146 -0.8384879005545411 0.16674781624888654 0.4732484435793154 0.01751934192579306 0.009311130517380807 0.09277685312712315 -0.8203469858974775
530937500.0 0.3097015696163512 -0.8390208547623481 0.16372703900905605 0.47349758344804593 0.017657863338081826 0.009360428225081256 0.09238756593844949 -0.8207797448980257
531250000.0 0.30990904189622587 -0.838693854425709 0.16908167106716068 0.4690117880234972 0.017833312205894323 0.009151842623621745 0.09005859103551066 -0.8199124415943135
531562500.0 0.30948257862222417 -0.8388593472594801 0.16859012674976553 0.4747944541180239 0.01726691204103624 0.009064443551033316 0.09565570917617275 -0.8218969470200201
531875000.0 0.30989258370570794 -0.8394196453625516 0.17025630329686597 0.46891530961818123 0.018060121229157313 0.008799497850954751 0.09828986712148893 -0.8213678084116464
532187500.0 0.3098525899979239 -0.8401749071224227 0.17245895655307944 0.46887143729967923 0.01782635892701686 0.009144561926025896 0.09348972316773163 -0.8220707127384504
532500000.0 0.3093164730787378 -0.8406657311495738 0.1732321773354641 0.46536027801195406 0.017784022698806773 0.008780810269349692 0.09466625348700229 -0.8225607660981784
532812500.0 0.30980743035007097 -0.8406840505180523 0.17202689301052376 0.46146092552144 0.017826789061770536 0.00870775204868958 0.09510144135524283 -0.8208079583317779
533125000.0 0.30935056121974486 -0.8415054821550519 0.16943949444005948 0.4634982458410621 0.01826137613951653 0.008808635467335742 0.09147880229709124 -0.8205022852806919
533437500.0 0.3088591686802168 -0.8405296264358826 0.17106848913049363 0.46224831428296853 0.019024374172238834 0.009594460115068476 0.09329192568338929 -0.823096021952636
533750000.0 0.3088209646047274 -0.8399373703117148 0.17305891147188715 0.4616334486836299 0.018378832619579843 0.009320815532017435 0.0922112315694904 -0.823174302973505
534062500.0 0.307225874807554 -0.8419918105884001 0.1730994621762477 0.4590860672224126 0.01832723037348936 0.009065256954850068 0.09684868463922121 -0.8170069549805086
534375000.0 0.30836376249641745 -0.841652748787699 0.1711554127119717 0.4600833518009483 0.018852551307289717 0.009912575028988645 0.09365907531618621 -0.8205962900457698
534687500.0 0.30835519994305977 -0.8413553088772353 0.17556949526145232 0.4526410195611578 0.018809860142459976 0.008620615186590417 0.09298520287272309 -0.8213735523555686
535000000.0 0.3086170014327913 -0.8426950102516452 0.17318388467730061 0.45867886095025745 0.018826345810960404 0.009457856202943104 0.08888594981640333 -0.8263423605523528
535312500.0 0.30755730289308386 -0.842596970031352 0.17468283054101594 0.45583753324498333 0.018369163564225247 0.008817704057598292 0.08857545664741204 -0.8237547378179801
535625000.0 0.30699311577718175 -0.8432171651102348 0.17642587015625452 0.45078388687350995 0.019167977183591384 0.00923920500510069 0.09352069045780656 -0.8257321705046169
535937500.0 0.3081665156775967 -0.8424544363429548 0.1778649316914312 0.4500088987907727 0.018981311388000285 0.009758825470985971 0.09040370375502353 -0.8234087253610248
