# HZ S RI R 50
500000000 0.13196797384474274 -0.798732284052992 0.011007102638304631 0.009755342025024516 0 0 0 0
500312500 0.12803386335917832 -0.7936900377798362 0.011940034800414261 0.009240864039939971 0 0 0 0
500625000 0.11726562359121709 -0.796206228599414 0.01142607715790424 0.008978891775407205 0 0 0 0
500937500 0.12386387112343315 -0.7990436832065786 0.011343041535978649 0.008392359863912026 0 0 0 0
501250000 0.12528305220022926 -0.7978560806585564 0.011226645323116121 0.008735589930503673 0 0 0 0
501562500 0.12193339921955301 -0.7994851374540399 0.011976918273785183 0.008256839054615953 0 0 0 0
501875000 0.11881446968172535 -0.7960600273540152 0.011792205540736421 0.009364171460489132 0 0 0 0
502187500 0.1267054741277371 -0.7961734844741949 0.011954142830932067 0.009280939861466322 0 0 0 0
502500000 0.11861371802877418 -0.8012101839341573 0.011520182009175485 0.009515974701587417 0 0 0 0
502812500 0.12207994043159151 -0.7971706438340708 0.011977715444917663 0.00974778823740837 0 0 0 0
503125000 0.11964566912873419 -0.7979413654597733 0.012187292097033335 0.009366061062037178 0 0 0 0
503437500 0.12050802089362934 -0.7953171021917147 0.012089137112737814 0.00853478356635724 0 0 0 0
503750000 0.11844510115779233 -0.8010717144193872 0.011617777621000032 0.009721649353426646 0 0 0 0
504062500 0.12679668965831123 -0.7986759556389665 0.011955544784123445 0.009178935270198746 0 0 0 0
504375000 0.11913207724234212 -0.7992247556798414 0.012045233416800733 0.009616065086280398 0 0 0 0
504687500 0.12003572563146536 -0.8047525378244821 0.0121428427686758 0.009012319506276678 0 0 0 0
505000000 0.12152615053543599 -0.802356977696491 0.012768807358400448 0.009852440353024253 0 0 0 0
505312500 0.12058087157634555 -0.8010437010294803 0.012359552854975255 0.008554095826662427 0 0 0 0
505625000 0.12240007776171762 -0.799715324281673 0.012540624757193211 0.009700164175787642 0 0 0 0
505937500 0.11639133515362264 -0.801914297557252 0.01252965444866359 0.009048088695999445 0 0 0 0
506250000 0.12078053688808559 -0.8054323986770411 0.012231156823744108 0.009583967830380317 0 0 0 0
506562500 0.11568598168721834 -0.798686332586344 0.012651896361836832 0.009608101345508926 0 0 0 0
506875000 0.11697111956559395 -0.8031647170622718 0.01267024501987114 0.00896723147076299 0 0 0 0
507187500 0.11624381998107772 -0.8021729514724718 0.012337462518099003 0.009681076153866692 0 0 0 0
507500000 0.12333867877761115 -0.8067562003604583 0.013056243997708864 0.009893868712744345 0 0 0 0
507812500 0.12397870548705332 -0.8058508237279423 0.013593712984956869 0.009184854085911166 0 0 0 0
508125000 0.11512308429522745 -0.8020818585789711 0.013292306894412867 0.009545935371258371 0 0 0 0
508437500 0.11707358074923144 -0.7978225261043027 0.013152721869856667 0.009136571679038048 0 0 0 0
508750000 0.12066127877578356 -0.8060346601386259 0.013044416873705895 0.009144733081268107 0 0 0 0
509062500 0.12111936449887781 -0.8053119899945264 0.01322993036340342 0.009557631057756873 0 0 0 0
509375000 0.12007097969030321 -0.79844946746973 0.01291520756476019 0.009167710054608218 0 0 0 0
509687500 0.11383144199396879 -0.8026866743981566 0.012931310579441201 0.00973747645672167 0 0 0 0
510000000 0.11398367742681027 -0.7992050857861601 0.013091675225920127 0.009499781438430882 0 0 0 0
510312500 0.11813851490601547 -0.8034587827417914 0.013004981291219068 0.009545265159215813 0 0 0 0
510625000 0.1158652437076567 -0.8053361156054856 0.013432342982074763 0.009744547437529729 0 0 0 0
510937500 0.11944855497519626 -0.8023093938764521 0.012604783123909277 0.009198502456179461 0 0 0 0
511250000 0.11184730999106204 -0.8031500529519022 0.013203655127504241 0.009837741081156362 0 0 0 0
511562500 0.11562040027118022 -0.8100410206418039 0.013961205446544275 0.009457089407073078 0 0 0 0
511875000 0.1178342292969388 -0.8037461297731351 0.013252264513207445 0.009596090769071426 0 0 0 0
512187500 0.11924461799498001 -0.8035547836199737 0.012811266676938342 0.009507186933363315 0 0 0 0
512500000 0.11626186596886759 -0.8041099183382581 0.013848877453004999 0.009417730492416647 0 0 0 0
512812500 0.10971876056844794 -0.804777267947106 0.013328837606398778 0.008784307885455842 0 0 0 0
513125000 0.11661803734869405 -0.8030203645889021 0.013566728053629485 0.010113768796710295 0 0 0 0
513437500 0.11544190505876152 -0.8089834381734015 0.014885223939684873 0.008868227582170091 0 0 0 0
513750000 0.11521474302972484 -0.8078232794522077 0.013941186386630857 0.009469138450640464 0 0 0 0
514062500 0.11120328174610238 -0.8075557915834315 0.014752839045807396 0.009900126514451315 0 0 0 0
514375000 0.11272169294442184 -0.8070640932631922 0.014559746507351897 0.01014654356645449 0 0 0 0
514687500 0.11549849053721772 -0.8069463852595966 0.013753109202773759 0.009087050639011666 0 0 0 0
515000000 0.11014050822152872 -0.8107676968689472 0.015195553023256144 0.009854541565912405 0 0 0 0
515312500 0.11494697272866125 -0.8045214001369927 0.014416688028461182 0.009347880818857133 0 0 0 0
515625000 0.11244467145646456 -0.8071079469446897 0.014578865961392667 0.009994711993847659 0 0 0 0
515937500 0.11068374355907834 -0.809758121331691 0.013307095723013314 0.008478759603759975 0 0 0 0
516250000 0.11319748599664141 -0.8093916069813134 0.014457609985740548 0.009610213875095799 0 0 0 0
516562500 0.108620616451585 -0.8062666345766559 0.01358433528226308 0.009304926606343274 0 0 0 0
516875000 0.10773620139888516 -0.8055391870046912 0.01533218155762967 0.008149288487251145 0 0 0 0
517187500 0.11133094859300893 -0.8114606634993393 0.013883458176982612 0.010268716296669065 0 0 0 0
517500000 0.11164372562716297 -0.8057185835636501 0.013568796566380069 0.0085119516128018 0 0 0 0
517812500 0.10998988798337063 -0.8059332271993269 0.015128168333052756 0.009118997740221185 0 0 0 0
518125000 0.10931947186273386 -0.8063558732053376 0.015222132341946231 0.01018889748778075 0 0 0 0
518437500 0.10936325085912973 -0.8086215398016827 0.015927446851421757 0.008214918380925012 0 0 0 0
518750000 0.11027565375296766 -0.8059260430068809 0.01391234478979607 0.011143379698552173 0 0 0 0
519062500 0.11157011941318196 -0.8093912401365196 0.016263320028955485 0.01055340563798724 0 0 0 0
519375000 0.11085658439698452 -0.8115702976842025 0.014493103754664777 0.006637985904048703 0 0 0 0
519687500 0.10903839808743475 -0.8130674643714121 0.013671930115047057 0.008116993759580566 0 0 0 0
520000000 0.1085542056675434 -0.8131549645834031 0.015656774662586748 0.0081023789676035 0 0 0 0
520312500 0.106640303628944 -0.8090524463908695 0.015017974520475555 0.009036731078266212 0 0 0 0
520625000 0.10677690094345069 -0.8085215724875026 0.01687042172900527 0.011023721599373808 0 0 0 0
520937500 0.10729435119310769 -0.8094701848501631 0.01524146721539409 0.008305544740033118 0 0 0 0
521250000 0.11014285022528132 -0.811944719430586 0.01640568440303261 0.010574055078799735 0 0 0 0
521562500 0.10754094950560067 -0.8134438534663037 0.015527532078523011 0.010523838799707497 0 0 0 0
521875000 0.10610054259616757 -0.8118531145254471 0.014980998082094469 0.009884163033928091 0 0 0 0
522187500 0.10129817376415924 -0.8142280877065885 0.015901246821001278 0.010826396052423647 0 0 0 0
522500000 0.10592797780806047 -0.8100300266429321 0.016314465627492485 0.010100281021473924 0 0 0 0
522812500 0.10653269457381345 -0.8106140830108394 0.01591346642992276 0.00910169272345154 0 0 0 0
523125000 0.10248012582420771 -0.8107666001156711 0.015486728034448005 0.009525021504455082 0 0 0 0
523437500 0.10374143125979096 -0.8132117454998561 0.016494465856270693 0.009449094131615704 0 0 0 0
523750000 0.10385125168871327 -0.817871817097411 0.015369419197257584 0.01024817397277752 0 0 0 0
524062500 0.10284549172820179 -0.8172807687609589 0.0156874442286964 0.009842515708400886 0 0 0 0
524375000 0.10353547773017473 -0.8152743285926283 0.016242010612399573 0.009007971277584547 0 0 0 0
524687500 0.09988739387762521 -0.8136325099451922 0.01534617087277526 0.009269614214504675 0 0 0 0
525000000 0.10649916103923267 -0.8179693253908241 0.01617123544578338 0.009686638172966331 0 0 0 0
525312500 0.1015995377871678 -0.8164877266083022 0.016575386942027124 0.010256924976433074 0 0 0 0
525625000 0.10177232482280155 -0.8158533713862255 0.016497297738689482 0.009266419720141878 0 0 0 0
525937500 0.09899518039759578 -0.8170684035733212 0.016283227372225668 0.009414133226054146 0 0 0 0
526250000 0.10274197666896046 -0.8204535995245615 0.015908084831380207 0.009816286757269017 0 0 0 0
526562500 0.09910443612480364 -0.8191622682426778 0.01612162290995864 0.009855025466035186 0 0 0 0
526875000 0.0982051954453222 -0.816701891623756 0.01635694968907283 0.00996940455920897 0 0 0 0
527187500 0.09972213364405554 -0.8168786301812538 0.017075549854318032 0.009408248846922318 0 0 0 0
527500000 0.10005998168828194 -0.8170421265619858 0.01691212393574394 0.009297594306745368 0 0 0 0
527812500 0.09408206527592636 -0.818806509886216 0.01721183692217424 0.009768891984009582 0 0 0 0
528125000 0.09565704283723662 -0.8211618870748231 0.01708091190101739 0.009260414158667251 0 0 0 0
528437500 0.0997056176276361 -0.8215263409226959 0.017132690959193283 0.009724571497036321 0 0 0 0
528750000 0.098343626697787 -0.8218131670699196 0.01682527202208446 0.00939862852080009 0 0 0 0
529062500 0.09506830868506384 -0.8134111113425346 0.017304903532818328 0.008928420720557257 0 0 0 0
529375000 0.0944247335161579 -0.8212082148047812 0.017484493327595607 0.009259196285615225 0 0 0 0
529687500 0.09487298080601267 -0.8189688021097538 0.017552603206445822 0.009690178849026091 0 0 0 0
530000000 0.09452085392981892 -0.8217434312230899 0.017369985345968227 0.00906154470230839 0 0 0 0
530312500 0.09724183088040748 -0.8196518907875802 0.017192635040932925 0.009185586602454991 0 0 0 0
530625000 0.09277685312712315 -0.8203469858974775 0.01751934192579306 0.009311130517380807 0 0 0 0
530937500 0.09238756593844949 -0.8207797448980257 0.017657863338081826 0.009360428225081256 0 0 0 0
531250000 0.09005859103551066 -0.8199124415943135 0.017833312205894323 0.009151842623621745 0 0 0 0
531562500 0.09565570917617275 -0.8218969470200201 0.01726691204103624 0.009064443551033316 0 0 0 0
531875000 0.09828986712148893 -0.8213678084116464 0.018060121229157313 0.008799497850954751 0 0 0 0
532187500 0.09348972316773163 -0.8220707127384504 0.01782635892701686 0.009144561926025896 0 0 0 0
532500000 0.09466625348700229 -0.8225607660981784 0.017784022698806773 0.008780810269349692 0 0 0 0
532812500 0.09510144135524283 -0.8208079583317779 0.017826789061770536 0.00870775204868958 0 0 0 0
533125000 0.09147880229709124 -0.8205022852806919 0.01826137613951653 0.008808635467335742 0 0 0 0
533437500 0.09329192568338929 -0.823096021952636 0.019024374172238834 0.009594460115068476 0 0 0 0
533750000 0.0922112315694904 -0.823174302973505 0.018378832619579843 0.009320815532017435 0 0 0 0
534062500 0.09684868463922121 -0.8170069549805086 0.01832723037348936 0.009065256954850068 0 0 0 0
534375000 0.09365907531618621 -0.8205962900457698 0.018852551307289717 0.009912575028988645 0 0 0 0
534687500 0.09298520287272309 -0.8213735523555686 0.018809860142459976 0.008620615186590417 0 0 0 0
535000000 0.08888594981640333 -0.8263423605523528 0.018826345810960404 0.009457856202943104 0 0 0 0
535312500 0.08857545664741204 -0.8237547378179801 0.018369163564225247 0.008817704057598292 0 0 0 0
535625000 0.09352069045780656 -0.8257321705046169 0.019167977183591384 0.00923920500510069 0 0 0 0
535937500 0.09040370375502353 -0.8234087253610248 0.018981311388000285 0.009758825470985971 0 0 0 0
536250000 0.0883142127722429 -0.8281856047467674 0.019071412951560326 0.008927203467441901 0 0 0 0
536562500 0.08734334422232466 -0.8248749145994598 0.01913902104370268 0.009012864814908136 0 0 0 0
536875000 0.08954982553664009 -0.8248177951693468 0.019189655870298458 0.008979343198356003 0 0 0 0
537187500 0.0872567924153017 -0.8237097029410263 0.018697691263055385 0.00935897687878083 0 0 0 0
537500000 0.08814652037631042 -0.825543320273657 0.01919567630275396 0.009228141309894347 0 0 0 0
537812500 0.08462811157668797 -0.8239751157117816 0.01918217585206751 0.00888521448759596 0 0 0 0
538125000 0.08740971520188551 -0.820123599119505 0.018896460715154093 0.00852784338074246 0 0 0 0
538437500 0.08717617525825913 -0.826455135948796 0.01948017695965822 0.008394698697322232 0 0 0 0
538750000 0.08619108636042579 -0.8231340655803467 0.01955020039808647 0.00867358576205554 0 0 0 0
539062500 0.08896044836666926 -0.823995804450653 0.019487928304245655 0.009049588748516302 0 0 0 0
539375000 0.08700484147382724 -0.8245268595011008 0.020007341404981206 0.008819027125237447 0 0 0 0
539687500 0.08359163080094542 -0.8261210227423881 0.01948586506737906 0.00849116070808727 0 0 0 0
540000000 0.08548611293081392 -0.82514161349652 0.019759188313219874 0.009217660060910174 0 0 0 0
540312500 0.08625036252304218 -0.8269024394634154 0.02008521951124254 0.008726117236138798 0 0 0 0
540625000 0.08417307489131681 -0.8265360519651185 0.018973503512920473 0.00909047333056382 0 0 0 0
540937500 0.08751466132534558 -0.8199469038977433 0.01964655704816536 0.008586566185807878 0 0 0 0
541250000 0.08456005669915856 -0.823399117076534 0.019884120767610293 0.008212657101106165 0 0 0 0
541562500 0.08587144467818021 -0.8261550365786862 0.020289642377168474 0.008598552855979333 0 0 0 0
541875000 0.08380936617989901 -0.8274086158823111 0.019810249841050207 0.008207586481177228 0 0 0 0
542187500 0.08504160650678853 -0.8257904800826334 0.02017326551489567 0.009938458079749767 0 0 0 0
542500000 0.08292797052408371 -0.8277438132391263 0.021532877160044317 0.007636915348734476 0 0 0 0
542812500 0.0842042493183081 -0.8275403402071743 0.020507673422884287 0.009269020878246333 0 0 0 0
543125000 0.08585971831353083 -0.8268344262954141 0.020745629946140702 0.007966615668150998 0 0 0 0
543437500 0.08540600950773157 -0.8240893034389837 0.01990260213140238 0.00891976399952869 0 0 0 0
543750000 0.0795300962328451 -0.823515421009457 0.02032234695581363 0.008514450466644 0 0 0 0
544062500 0.08286946677531383 -0.8267145425796397 0.02059337097077938 0.00877083559020144 0 0 0 0
544375000 0.08207067591686801 -0.827150105560471 0.021178101621747793 0.008259067952686166 0 0 0 0
544687500 0.08221569238137368 -0.8312379878726291 0.020809407310038212 0.008198952693586435 0 0 0 0
545000000 0.08162632675590434 -0.8255740922118066 0.0208757284207859 0.009007731250058503 0 0 0 0
545312500 0.0830626868911224 -0.8304002966452507 0.020498071661682098 0.007666452125610411 0 0 0 0
545625000 0.0801802198965037 -0.8297884015402498 0.02055133580905279 0.008760358339009252 0 0 0 0
545937500 0.08084553487489066 -0.8318870487407468 0.020846885522816726 0.007756622941336685 0 0 0 0
546250000 0.08096097163659005 -0.8281021528364658 0.020719147215831242 0.008474011224508854 0 0 0 0
546562500 0.08082387546366275 -0.8298665110607841 0.02123333799116948 0.008255779536861192 0 0 0 0
546875000 0.07845050148618869 -0.8316171880915088 0.021917327594116492 0.008209532619847382 0 0 0 0
547187500 0.07800252673560185 -0.8301909927408464 0.021239656008900057 0.0075049665105287955 0 0 0 0
547500000 0.07865776379724382 -0.8282333820549718 0.02132128408395188 0.009085028946383878 0 0 0 0
547812500 0.0832651066549059 -0.8297242600699377 0.021755691999377928 0.009380082127708923 0 0 0 0
548125000 0.07823722388093278 -0.8300707547414122 0.021469321292426322 0.00779558294044076 0 0 0 0
548437500 0.07856455203429866 -0.828826488089743 0.022074100217996627 0.008754023343436121 0 0 0 0
548750000 0.0824418560632983 -0.8270377406337744 0.022147650583231208 0.008287965230421102 0 0 0 0
549062500 0.07979767762473516 -0.8317879618533558 0.021976638010625372 0.00808357939448408 0 0 0 0
549375000 0.07729735210874701 -0.8328687559271206 0.02183396452723942 0.008625921497000396 0 0 0 0
549687500 0.07900889026530396 -0.828956163878886 0.02172150510693289 0.008423660189310376 0 0 0 0
550000000 0.07740188871331596 -0.8331450408749326 0.020923978089300754 0.008863925744615368 0 0 0 0
550312500 0.0771485865296686 -0.832606875299424 0.02179867725547248 0.007396562902708052 0 0 0 0
550625000 0.0766900733053975 -0.8332205586671791 0.02283112156683581 0.007628122925742541 0 0 0 0
550937500 0.07533469479209191 -0.8342248552753667 0.022098128931589217 0.007812718521843506 0 0 0 0
551250000 0.07560541139867293 -0.8334923246141646 0.022216597616067472 0.008376969545780733 0 0 0 0
551562500 0.07456548930736827 -0.8335949583646945 0.021801311477763912 0.008322951153218804 0 0 0 0
551875000 0.07817453189010341 -0.8333159555100695 0.02250594905092163 0.00786853466962396 0 0 0 0
552187500 0.0778550918458882 -0.8358615251880148 0.02260113086284768 0.008273617719824782 0 0 0 0
552500000 0.07653499171820523 -0.8342455627770695 0.02284170869170404 0.007846900611362263 0 0 0 0
552812500 0.07889822347213854 -0.8332078208844683 0.022999603600217983 0.007380447600861531 0 0 0 0
553125000 0.07825328019763934 -0.833927254494597 0.023461763097813584 0.008086670960221904 0 0 0 0
553437500 0.07649648628437573 -0.8338194720045228 0.02243476320153142 0.0077636065392240675 0 0 0 0
553750000 0.07729107283250426 -0.8325440535174236 0.022730686815264092 0.007721812820968237 0 0 0 0
554062500 0.07197670932381917 -0.8337062696339896 0.022717875496469475 0.007135992093105455 0 0 0 0
554375000 0.07567456888145191 -0.8352725098719953 0.02224925897428219 0.007166630805247637 0 0 0 0
554687500 0.07498843710176951 -0.8371995499118493 0.023049064612330993 0.006945765188821198 0 0 0 0
555000000 0.0709407476790456 -0.8318312765820467 0.022933348382716868 0.007785766374047883 0 0 0 0
555312500 0.07694875765960743 -0.836604537328444 0.023277820541631605 0.007275890027561467 0 0 0 0
555625000 0.07413465890799725 -0.8368641172374169 0.022959136780783325 0.007605784165019546 0 0 0 0
555937500 0.07229883988828421 -0.8339646698696607 0.02349546504826021 0.006776749248966745 0 0 0 0
556250000 0.0726120600198875 -0.8365571326660218 0.023134692317755133 0.0070505846894870165 0 0 0 0
556562500 0.07674411873053161 -0.8356834955247812 0.023658628441622816 0.00693218170280807 0 0 0 0
556875000 0.07125417137530841 -0.8336236494557223 0.02330645943281052 0.007939900664340397 0 0 0 0
557187500 0.0724327340638896 -0.836393543300459 0.023414169877041816 0.00705188543490699 0 0 0 0
557500000 0.07262396787879644 -0.8365117053291873 0.024192073610540953 0.008000269595807054 0 0 0 0
557812500 0.07484927945277846 -0.8378621429148164 0.023453985703875732 0.007061493173225781 0 0 0 0
558125000 0.0723033506784526 -0.8377764089350516 0.02401444943757044 0.0065891557967308065 0 0 0 0
558437500 0.07271628340685204 -0.8383986489470355 0.024209660657530226 0.006702667473695274 0 0 0 0
558750000 0.07236260333771286 -0.8399452325602818 0.024060527477256156 0.006814613345318493 0 0 0 0
559062500 0.07419906015319355 -0.8374225999480198 0.024074057337039146 0.006931503295797931 0 0 0 0
559375000 0.07438188020877147 -0.8380534789569319 0.024344779441461545 0.0070604212064112595 0 0 0 0
559687500 0.07077807419417828 -0.8395673419427776 0.02352338881980231 0.006941108767881753 0 0 0 0
560000000 0.0679708316426406 -0.8432024060117994 0.02452679475085055 0.006940003436219167 0 0 0 0
560312500 0.07264965708497415 -0.8395324098094151 0.024410949514937212 0.00676872198283651 0 0 0 0
560625000 0.07063588758334144 -0.8387965205850675 0.024819318248510722 0.00708291085712894 0 0 0 0
560937500 0.07104354379002228 -0.8390532952780806 0.02465798529944565 0.006570961135119276 0 0 0 0
561250000 0.06991556251012311 -0.8432004846233087 0.025159158719211767 0.006689756737776645 0 0 0 0
561562500 0.06974522880845442 -0.8391744424081743 0.02430513901190871 0.006347538096625017 0 0 0 0
561875000 0.07033352768835247 -0.8407214150604618 0.025276748428040587 0.007025166354021349 0 0 0 0
562187500 0.07432086204622844 -0.8413384583435789 0.024333176918662835 0.006529508651152805 0 0 0 0
562500000 0.07196183724254872 -0.8404661506772014 0.025174451560639046 0.0063605160241837115 0 0 0 0
