# HZ S RI R 50
500000000 0.3335925901224886 -0.8178221731870992 0.11840219126622874 0.600479428290116 0 0 0 0
500312500 0.3344910578274451 -0.8190387585590599 0.11658496967334717 0.5981464218664035 0 0 0 0
500625000 0.3346073704961925 -0.8186200242402817 0.10919687324249928 0.5952379274520209 0 0 0 0
500937500 0.3330956000057863 -0.8186927722209243 0.11397288153743924 0.5940410056570328 0 0 0 0
501250000 0.331979725738179 -0.8180772869442701 0.11701572836957425 0.5929677085906262 0 0 0 0
501562500 0.3315889454308738 -0.8194177943555063 0.11764991017841953 0.5923741242259914 0 0 0 0
501875000 0.33109279805210046 -0.819972413935115 0.11985914919837164 0.588533181326145 0 0 0 0
502187500 0.33168021321396574 -0.820028548203193 0.11646873426272424 0.5850416297346742 0 0 0 0
502500000 0.3326292351948349 -0.8197955238565836 0.11688106567464278 0.5918018252893896 0 0 0 0
502812500 0.33149586360764144 -0.8197597468217429 0.11472445000288407 0.5892142144713735 0 0 0 0
503125000 0.3308241510033587 -0.8200337726777195 0.11586564076697445 0.5889260206351729 0 0 0 0
503437500 0.32999258074707394 -0.8198419317863183 0.11906316284812783 0.5897310194549834 0 0 0 0
503750000 0.3300400659255186 -0.8203133619841988 0.11976142748159342 0.5917367319793221 0 0 0 0
504062500 0.3309232390942195 -0.8208878284716528 0.12237872882432402 0.5872429579620008 0 0 0 0
504375000 0.32981428591629175 -0.8209128647433366 0.11723992901283573 0.5847584626884912 0 0 0 0
504687500 0.3296402172661359 -0.8207919485272507 0.1187742573911843 0.5827098103110344 0 0 0 0
505000000 0.32913085373228995 -0.8218943065878059 0.11965572204850454 0.583656895867516 0 0 0 0
505312500 0.3295214507015231 -0.8213295224366013 0.11681265065820912 0.5846081044655272 0 0 0 0
505625000 0.3277396658355777 -0.8215725448338088 0.11878394041805924 0.5792812448643673 0 0 0 0
505937500 0.3270690494884515 -0.8217087637114684 0.11780071961205565 0.582417171704017 0 0 0 0
506250000 0.3269187636492315 -0.8219485189843592 0.12356260180388773 0.5806679435906273 0 0 0 0
506562500 0.3282878643668805 -0.8216802796538067 0.12211914186396214 0.5788765105063833 0 0 0 0
506875000 0.32708840283398494 -0.8218164031847156 0.12119064034958335 0.5785444429139694 0 0 0 0
507187500 0.3279311420847713 -0.822796668438687 0.11630912496590207 0.5772687761038898 0 0 0 0
507500000 0.3274665084583417 -0.8227020595267531 0.11858949051921162 0.5786533961482939 0 0 0 0
507812500 0.32713599843214536 -0.8237403423767361 0.11605084236589287 0.5793873835236963 0 0 0 0
508125000 0.32629623399178553 -0.8241673886240279 0.12262476667836937 0.5742160231501066 0 0 0 0
508437500 0.326055649911525 -0.8241618077839258 0.12222716731974556 0.5727425247489897 0 0 0 0
508750000 0.3252968257869245 -0.823964918461005 0.12206028187789855 0.5725714516765055 0 0 0 0
509062500 0.3244781119787079 -0.8236672543702603 0.12501058862492942 0.5700957893819142 0 0 0 0
509375000 0.32480116103325885 -0.82393652059929 0.122791126806294 0.5679757742562278 0 0 0 0
509687500 0.3249091643020396 -0.823245193635494 0.1271342051577814 0.5671070163466072 0 0 0 0
510000000 0.32488449165581657 -0.8235733983230683 0.12911304915615338 0.5640689994156382 0 0 0 0
510312500 0.32482212464800503 -0.8240579000663675 0.12796100762299104 0.566604304169128 0 0 0 0
510625000 0.32343482906231524 -0.8249233998732506 0.12752721690316346 0.5692749469747433 0 0 0 0
510937500 0.32502409355850453 -0.8250690560947084 0.12384670533126256 0.5699635376500731 0 0 0 0
511250000 0.3238458826325421 -0.8246144263223285 0.1243340018157708 0.5694902081768188 0 0 0 0
511562500 0.32387306916661796 -0.8252658104091821 0.1243426418323101 0.564145061041676 0 0 0 0
511875000 0.3232766646723848 -0.8258622588886149 0.1295813489872286 0.5619700853949628 0 0 0 0
512187500 0.3236589710410224 -0.824315565426812 0.12949789476564177 0.5622652155300857 0 0 0 0
512500000 0.3230259039292405 -0.8251991859834983 0.12284432881802342 0.5597342356901098 0 0 0 0
512812500 0.3229525750175551 -0.8259638198807177 0.12178108533416017 0.5606697621898906 0 0 0 0
513125000 0.3230990981086154 -0.8252647907792172 0.12660903499309434 0.556472088074312 0 0 0 0
513437500 0.3220796877219388 -0.8265487384253044 0.13049646492187647 0.5562254988699157 0 0 0 0
513750000 0.32113628585514514 -0.8261051679597025 0.13424668616567118 0.5522710035962937 0 0 0 0
514062500 0.3211386404203169 -0.8267623142960955 0.13254332458559973 0.5491363465448029 0 0 0 0
514375000 0.32093126626660323 -0.826256605415301 0.1311418198418359 0.5565327743306898 0 0 0 0
514687500 0.3209209758388771 -0.8266306231528799 0.12276032014298353 0.5539064815608141 0 0 0 0
515000000 0.31981584481152314 -0.8263735133803047 0.1306414992422303 0.5478757755546243 0 0 0 0
515312500 0.31945819472364095 -0.8277291682401182 0.13062638335902702 0.5483949748470688 0 0 0 0
515625000 0.3195876150715163 -0.8277219823630412 0.13051435226567087 0.5463868067465983 0 0 0 0
515937500 0.3198306521366759 -0.8280387384749917 0.13154619858815458 0.5498482194849925 0 0 0 0
516250000 0.3205020963234119 -0.8282102648347055 0.1331475915734374 0.5417941390706069 0 0 0 0
516562500 0.31889414332586696 -0.8282081214393074 0.13445202311134413 0.5483340686719463 0 0 0 0
516875000 0.31930972208295 -0.82807844645972 0.12996496514009592 0.5428607460984923 0 0 0 0
517187500 0.31949520776000345 -0.8282154707668103 0.12984111017053424 0.5372207369895585 0 0 0 0
517500000 0.318656268125447 -0.8287883450786985 0.13206904504601844 0.5427380794503164 0 0 0 0
517812500 0.31860500233321526 -0.8290309874207155 0.12882428320913453 0.5443994164945152 0 0 0 0
518125000 0.31773585722703246 -0.8292693825326001 0.13208680625418465 0.5348393779488467 0 0 0 0
518437500 0.31618656185575056 -0.8291618086461814 0.12817474776797455 0.5335792439957147 0 0 0 0
518750000 0.31744672547824326 -0.8300118002323046 0.1354972849906703 0.5305071979481409 0 0 0 0
519062500 0.31748578905741365 -0.8297975090659426 0.1331548109426697 0.5333648164911553 0 0 0 0
519375000 0.3172610225808352 -0.8298519701685956 0.13408430614546432 0.5378112454043996 0 0 0 0
519687500 0.3171221113914184 -0.8296618302947893 0.13861417688451858 0.5312041404599306 0 0 0 0
520000000 0.31666089746896664 -0.8306223858485745 0.13541579646243682 0.5247505180331182 0 0 0 0
520312500 0.31667739753578267 -0.8309888525789827 0.13554069375589498 0.5322244272648429 0 0 0 0
520625000 0.3173724460964376 -0.8317010218685944 0.13766867429957297 0.5260111579284434 0 0 0 0
520937500 0.31614104681283084 -0.8307592565215737 0.1414029334694017 0.5198629646246693 0 0 0 0
521250000 0.3146492734576506 -0.8315478359794228 0.13906183614721174 0.5205982604286206 0 0 0 0
521562500 0.31554702916981536 -0.8322841482535609 0.14126314937786696 0.5220713477872481 0 0 0 0
521875000 0.31469101932327637 -0.8316320474873882 0.14432139789074247 0.5233440169367933 0 0 0 0
522187500 0.3162343760889258 -0.8323974982570006 0.14466535240550438 0.5180418110903346 0 0 0 0
522500000 0.3143071242409457 -0.8326660029788007 0.14853070537037086 0.5153348522026967 0 0 0 0
522812500 0.315000056322233 -0.8319961496848729 0.14637941166610233 0.5153671427298743 0 0 0 0
523125000 0.3146330097689732 -0.8333875964036671 0.14950157519988314 0.5094451565205648 0 0 0 0
523437500 0.31446772939092493 -0.8337850966428547 0.14984297516805498 0.509638314677358 0 0 0 0
523750000 0.31408358484397064 -0.8328881198284458 0.15206649887895674 0.5065205900555505 0 0 0 0
524062500 0.3143195679488882 -0.8334390567960073 0.14751050218058337 0.5108411036140479 0 0 0 0
524375000 0.314695433524914 -0.8334943932689045 0.14851484887288127 0.5078921637921705 0 0 0 0
524687500 0.3138739025120994 -0.8338518705130324 0.1511501160200893 0.506608415203385 0 0 0 0
525000000 0.31363308684899976 -0.8337244310183505 0.15267507130616387 0.5010866345433078 0 0 0 0
525312500 0.31423871165148903 -0.8345290718592923 0.15057126417818736 0.5031100762375907 0 0 0 0
525625000 0.31343794492327715 -0.8343882398358616 0.15583397954172298 0.49928242598967276 0 0 0 0
525937500 0.31331529531708197 -0.8347148535028145 0.15787447629821194 0.4978060557666729 0 0 0 0
526250000 0.31312449226153755 -0.8346049062329498 0.15603499946906657 0.49688037464914175 0 0 0 0
526562500 0.3129806779766234 -0.835190239013283 0.15602254179620534 0.49805774636509514 0 0 0 0
526875000 0.31260190693553336 -0.8354593918474976 0.1562224767026184 0.4973095807676102 0 0 0 0
527187500 0.3126140896085083 -0.8345666723611462 0.1599476848641393 0.4944180786170983 0 0 0 0
527500000 0.3129360008805357 -0.8355879254047291 0.1569932076180734 0.49107284139056456 0 0 0 0
527812500 0.311951341334542 -0.8355337560455076 0.15736445574362695 0.49190118224731666 0 0 0 0
528125000 0.31310414115425683 -0.8360896622078553 0.1591711277991677 0.4882621881409971 0 0 0 0
528437500 0.312757725273944 -0.8360376141237928 0.160393037040278 0.48824351197238597 0 0 0 0
528750000 0.31218708438082676 -0.8361390280346422 0.15964695877486892 0.4856784060577103 0 0 0 0
529062500 0.3121059117766976 -0.8368986981849035 0.15921385057672555 0.4838944160885066 0 0 0 0
529375000 0.31068116143658203 -0.8370494179117052 0.16200508462967975 0.48366086591430596 0 0 0 0
529687500 0.31150598844070365 -0.838541256091398 0.16322749721824892 0.480612260596007 0 0 0 0
530000000 0.31045796856990315 -0.8377402355552385 0.16745228910140927 0.4750606577067933 0 0 0 0
530312500 0.31012645059534094 -0.8387832961932238 0.16511450913899148 0.47942350276466894 0 0 0 0
530625000 0.31081231133725146 -0.8384879005545411 0.16674781624888654 0.4732484435793154 0 0 0 0
530937500 0.3097015696163512 -0.8390208547623481 0.16372703900905605 0.47349758344804593 0 0 0 0
531250000 0.30990904189622587 -0.838693854425709 0.16908167106716068 0.4690117880234972 0 0 0 0
531562500 0.30948257862222417 -0.8388593472594801 0.16859012674976553 0.4747944541180239 0 0 0 0
531875000 0.30989258370570794 -0.8394196453625516 0.17025630329686597 0.46891530961818123 0 0 0 0
532187500 0.3098525899979239 -0.8401749071224227 0.17245895655307944 0.46887143729967923 0 0 0 0
532500000 0.3093164730787378 -0.8406657311495738 0.1732321773354641 0.46536027801195406 0 0 0 0
532812500 0.30980743035007097 -0.8406840505180523 0.17202689301052376 0.46146092552144 0 0 0 0
533125000 0.30935056121974486 -0.8415054821550519 0.16943949444005948 0.4634982458410621 0 0 0 0
533437500 0.3088591686802168 -0.8405296264358826 0.17106848913049363 0.46224831428296853 0 0 0 0
533750000 0.3088209646047274 -0.8399373703117148 0.17305891147188715 0.4616334486836299 0 0 0 0
534062500 0.307225874807554 -0.8419918105884001 0.1730994621762477 0.4590860672224126 0 0 0 0
534375000 0.30836376249641745 -0.841652748787699 0.1711554127119717 0.4600833518009483 0 0 0 0
534687500 0.30835519994305977 -0.8413553088772353 0.17556949526145232 0.4526410195611578 0 0 0 0
535000000 0.3086170014327913 -0.8426950102516452 0.17318388467730061 0.45867886095025745 0 0 0 0
535312500 0.30755730289308386 -0.842596970031352 0.17468283054101594 0.45583753324498333 0 0 0 0
535625000 0.30699311577718175 -0.8432171651102348 0.17642587015625452 0.45078388687350995 0 0 0 0
535937500 0.3081665156775967 -0.8424544363429548 0.1778649316914312 0.4500088987907727 0 0 0 0
536250000 0.30861366047536326 -0.844333512468585 0.17581094751638232 0.45036049382700905 0 0 0 0
536562500 0.3063227975599173 -0.8440815067720935 0.17732473440491 0.44938335190460627 0 0 0 0
536875000 0.3062629465783075 -0.8449819443098773 0.17683294320675128 0.44610001591143505 0 0 0 0
537187500 0.3073503612762134 -0.8452952881370697 0.17783948411037073 0.4467558653854567 0 0 0 0
537500000 0.3066640813962219 -0.8453902222435971 0.1796266916896258 0.4443292388340964 0 0 0 0
537812500 0.3074071168669889 -0.8459251389531574 0.1777204158302266 0.4376373647071435 0 0 0 0
538125000 0.30788762824057153 -0.8454761469935429 0.17873919197382176 0.4385487844763189 0 0 0 0
538437500 0.306066015965212 -0.8452980834499687 0.17758697341997637 0.43905452269365625 0 0 0 0
538750000 0.30658412453352046 -0.847055637222038 0.176297002282141 0.4341347479566863 0 0 0 0
539062500 0.3063131597359136 -0.8466795501548434 0.1747687839217498 0.4346441597537129 0 0 0 0
539375000 0.30563650379164725 -0.8478183512883939 0.1775794846102787 0.43110812424068873 0 0 0 0
539687500 0.30686027988420567 -0.8471915779614729 0.17668464617186294 0.43181855971571564 0 0 0 0
540000000 0.3069595968811986 -0.8481640723159314 0.17820547513704096 0.42926460736718547 0 0 0 0
540312500 0.3050016307159563 -0.8487099126643454 0.17874660947540283 0.4326367998143961 0 0 0 0
540625000 0.3054972844904276 -0.8483403690364997 0.17958288737071068 0.4280334306187352 0 0 0 0
540937500 0.3039680601517458 -0.8483670611527769 0.17999299270965188 0.42272206704221993 0 0 0 0
541250000 0.30506699408136195 -0.8492282325970274 0.17607998292382807 0.4201789414373926 0 0 0 0
541562500 0.30450777448669114 -0.8499753881805265 0.17860323926969976 0.420159180419977 0 0 0 0
541875000 0.303487781285244 -0.8513447848160159 0.18142806020279512 0.41978103707794023 0 0 0 0
542187500 0.3037288947107503 -0.8511279178255147 0.18258871824325704 0.42123377912196525 0 0 0 0
542500000 0.30431576456812504 -0.8516396284158424 0.1762832446327924 0.4189503003258539 0 0 0 0
542812500 0.30274981142396784 -0.8516279858402278 0.17434949881205117 0.41666106835060257 0 0 0 0
543125000 0.30354865148149923 -0.8521029773500315 0.17413152779142468 0.4160259988498965 0 0 0 0
543437500 0.30266963269448194 -0.8517392873431576 0.17468461806751043 0.4164648565913548 0 0 0 0
543750000 0.30317173325409136 -0.853059141860474 0.1715767399889525 0.41755588308176517 0 0 0 0
544062500 0.30280577997594293 -0.8524407567387482 0.17571095662868938 0.416496722508579 0 0 0 0
544375000 0.30265072010263616 -0.8529444032020279 0.17511769809395986 0.41470635221438024 0 0 0 0
544687500 0.3021253114722423 -0.8538103734318444 0.17345744070654776 0.4110192919867069 0 0 0 0
545000000 0.3023865632309418 -0.8539445988303785 0.1737918853459526 0.41128809708053615 0 0 0 0
545312500 0.3023099572289231 -0.8558034949463387 0.17623413707600363 0.4072746995857612 0 0 0 0
545625000 0.30251545026759497 -0.8550371045794345 0.1743890955005576 0.40789919937901864 0 0 0 0
545937500 0.3019619961863487 -0.8556689490861576 0.16981105711175687 0.40992373299833257 0 0 0 0
546250000 0.3016822471681487 -0.8552938232485846 0.1753327452483123 0.4065728462564849 0 0 0 0
546562500 0.3021569807552573 -0.8564453488504473 0.17153782581351668 0.40480922764355404 0 0 0 0
546875000 0.3013975923721196 -0.8576534471107896 0.17192337585030873 0.4012836031144226 0 0 0 0
547187500 0.30197396188186554 -0.8581173560368136 0.171666954895039 0.400661831147563 0 0 0 0
547500000 0.3018821512753441 -0.8586654600717565 0.16837560399641163 0.4023664945603339 0 0 0 0
547812500 0.3022650736020227 -0.8585117856173474 0.16995927557059373 0.39776314819648045 0 0 0 0
548125000 0.3007396075606341 -0.8594514826214386 0.16965957458595002 0.39719236165322125 0 0 0 0
548437500 0.3001477773603629 -0.859320450372697 0.16819547437586127 0.3981815818053496 0 0 0 0
548750000 0.3002878481774127 -0.8599011765523388 0.16933115014174766 0.39546770115790636 0 0 0 0
549062500 0.2985116388737709 -0.8604453381782748 0.16786871098508077 0.3952559108839881 0 0 0 0
549375000 0.29960471690946666 -0.8596860035897319 0.16916935221114773 0.3883541038202806 0 0 0 0
549687500 0.29987862902079476 -0.8619330902246892 0.16491304612925486 0.3910346502587503 0 0 0 0
550000000 0.2983495861035341 -0.8620993668730126 0.16703355126754538 0.391786068477758 0 0 0 0
550312500 0.2992275510692057 -0.8626364851212852 0.16829679372943876 0.3919372315464819 0 0 0 0
550625000 0.29830099198335264 -0.8626245625069734 0.16451577547106058 0.3898754039849367 0 0 0 0
550937500 0.2982026090874456 -0.8634940552732585 0.1663572299202811 0.39154679538745535 0 0 0 0
551250000 0.2978093732216454 -0.8640838148565279 0.16412055011063528 0.38566812051535543 0 0 0 0
551562500 0.2982186061332802 -0.8644224298055703 0.16659436565873975 0.3853273298434573 0 0 0 0
551875000 0.29717612774627356 -0.8644710404611603 0.1640399918558186 0.38491999982304215 0 0 0 0
552187500 0.2971673907717036 -0.8655307365769042 0.16136975253804453 0.38400842323297396 0 0 0 0
552500000 0.2971306437708512 -0.8649056882705262 0.16099602645953698 0.38639149217723273 0 0 0 0
552812500 0.29748869027967345 -0.866620133712884 0.16493207567211915 0.38526121252167544 0 0 0 0
553125000 0.2971831746689926 -0.8658178562194624 0.15942151773145838 0.3810431414007422 0 0 0 0
553437500 0.2963485053794259 -0.866692166968825 0.15848820431801403 0.384149838059791 0 0 0 0
553750000 0.29658069872784015 -0.8681104159579461 0.15744179709722178 0.3849793832098182 0 0 0 0
554062500 0.29547727272560476 -0.866267189758221 0.15531716258174366 0.3814240476939741 0 0 0 0
554375000 0.2947153086955474 -0.8679769978315884 0.1611324520569797 0.37985922119184773 0 0 0 0
554687500 0.29608368645993305 -0.8693485629560505 0.16153343397660147 0.3796634710532713 0 0 0 0
555000000 0.29572792335998477 -0.8685343792298187 0.1595463989750965 0.3759148300034029 0 0 0 0
555312500 0.2945179773058228 -0.8689715647686546 0.14814079275009254 0.37666856469519666 0 0 0 0
555625000 0.29553295086006054 -0.8690084011750634 0.14772212300241638 0.3773425479496932 0 0 0 0
555937500 0.2941008350172653 -0.8702222660916575 0.14722702606003057 0.3733626312325618 0 0 0 0
556250000 0.29496365951144454 -0.8709148875893107 0.14696771275430295 0.36806016824689003 0 0 0 0
556562500 0.2934882672282561 -0.871142670002697 0.1475376286273395 0.3743262721441973 0 0 0 0
556875000 0.2943136185269797 -0.8714588441387029 0.14685715062913599 0.3693204840489103 0 0 0 0
557187500 0.29346376428796334 -0.8726855098506419 0.14584918228528096 0.370204157835499 0 0 0 0
557500000 0.29407800919624655 -0.8733488175830486 0.14770484431144262 0.3689217619665815 0 0 0 0
557812500 0.29384070443162874 -0.8736485483601707 0.15189621667874542 0.3688093185384931 0 0 0 0
558125000 0.2934421611857369 -0.8731666099658505 0.14594845271714277 0.3710854994234821 0 0 0 0
558437500 0.29258235738355853 -0.8737502130295546 0.14016923345541746 0.3706825027487573 0 0 0 0
558750000 0.2930448047947487 -0.875072151977076 0.14350990662307714 0.3618128317927846 0 0 0 0
559062500 0.29403933079379985 -0.8752189903489448 0.14297552353233392 0.36326385466442035 0 0 0 0
559375000 0.2930469891963401 -0.8750188366989707 0.14206538613437295 0.36199111910536946 0 0 0 0
559687500 0.292039182786411 -0.8753301443995175 0.1412669771394824 0.3624520878063407 0 0 0 0
560000000 0.29205810790496056 -0.8767426570552388 0.13971356524048142 0.3605532751573376 0 0 0 0
560312500 0.2905805517894508 -0.8768495703191801 0.14140297957395187 0.3615675614657823 0 0 0 0
560625000 0.2907391524206572 -0.8777557869960142 0.14027813211065365 0.36004747614958293 0 0 0 0
560937500 0.29050414953174125 -0.8786119745873727 0.13837217079451186 0.35352342108950147 0 0 0 0
561250000 0.29130763556200506 -0.8787652106362293 0.13415492737236426 0.3638196468575189 0 0 0 0
561562500 0.29037206049186354 -0.8788807540965737 0.13679480042946102 0.35689970511614993 0 0 0 0
561875000 0.2897382513348918 -0.878714834823618 0.13386664774384727 0.35747831252348167 0 0 0 0
562187500 0.28933441862370146 -0.8794243214672687 0.13342318585096652 0.35427587622771156 0 0 0 0
562500000 0.28872086193999674 -0.8798989620299483 0.13009335093516067 0.35673970197270516 0 0 0 0
562812500 0.28818299451650986 -0.8803593543265089 0.1319681130104748 0.3536329471963606 0 0 0 0
563125000 0.28887464830612 -0.8805951008042492 0.1332698840699076 0.35483799980733527 0 0 0 0
563437500 0.2890511952719349 -0.881190918831731 0.1285354945270714 0.35476001943620206 0 0 0 0
563750000 0.28952383458649256 -0.8822253017558069 0.12646217966999904 0.3548038542751329 0 0 0 0
564062500 0.2882848480717508 -0.8826023498695476 0.12824642807934003 0.3521242759083386 0 0 0 0
564375000 0.28744407246582576 -0.8831549877132275 0.1250874721018302 0.3563672626936478 0 0 0 0
