# HZ S RI R 50
500000000 0.5257515374037967 -0.7965600107185067 0.11445579913328259 -0.2740796770628182 0 0 0 0
500312500 0.5250533469349036 -0.7984762134778943 0.10964144851752192 -0.2866143624910123 0 0 0 0
500625000 0.5242805715512769 -0.7979850906365704 0.11306833228943208 -0.2822241584836318 0 0 0 0
500937500 0.5238528069745596 -0.7978170765984252 0.11211785439178554 -0.28654799613301896 0 0 0 0
501250000 0.5231787760059521 -0.7987123539877805 0.11351623040036232 -0.2821215553518903 0 0 0 0
501562500 0.5226429007243887 -0.7997230973271724 0.11112930582546868 -0.28575277638480023 0 0 0 0
501875000 0.5227702912002501 -0.7982401632799625 0.11072803196577483 -0.290628721785816 0 0 0 0
502187500 0.5212498175585787 -0.7994122762844955 0.10957944102578475 -0.29179018004782814 0 0 0 0
502500000 0.5204590674904407 -0.7988425405786941 0.10845707490212038 -0.2891973881555992 0 0 0 0
502812500 0.5201648077022593 -0.7995951524011259 0.10755277231005689 -0.2921774644862278 0 0 0 0
503125000 0.5199461592437488 -0.800003156596097 0.1071732828057045 -0.29339352597040563 0 0 0 0
503437500 0.5190766369440184 -0.8001609216362193 0.10321761745395107 -0.2960862079487968 0 0 0 0
503750000 0.518726225826475 -0.8002229730308789 0.10326721854154876 -0.2953239070258998 0 0 0 0
504062500 0.5173459719061638 -0.8004382526159571 0.10819458353693036 -0.29380085079539087 0 0 0 0
504375000 0.5161669359333436 -0.8012650563199574 0.1058687469342868 -0.2984547982891017 0 0 0 0
504687500 0.5168564764471657 -0.8001357568044366 0.10517741092274263 -0.30308625685041285 0 0 0 0
505000000 0.5157844246766222 -0.8014023098309659 0.10062671542819568 -0.3012477685348372 0 0 0 0
505312500 0.5151347709674462 -0.8018484129837571 0.10450309535342117 -0.29713347021910225 0 0 0 0
505625000 0.5136588831366498 -0.8011207377144903 0.10371323409116238 -0.30096393104806524 0 0 0 0
505937500 0.5139362353184188 -0.8015034427362541 0.10572605197621582 -0.3043530041899299 0 0 0 0
506250000 0.51378387544771 -0.8015575632697157 0.10397057770125508 -0.309252621472085 0 0 0 0
506562500 0.5122500382368392 -0.8022216956305653 0.10504988103987555 -0.30685189725012424 0 0 0 0
506875000 0.5117799204519041 -0.8018671344981988 0.10236426581410035 -0.30282651486998696 0 0 0 0
507187500 0.5120597893517996 -0.8018864992902167 0.09599245883413907 -0.3120628518433612 0 0 0 0
507500000 0.511256936446772 -0.8026388022041572 0.10110963204067648 -0.30649871051537814 0 0 0 0
507812500 0.5121080314955865 -0.8025123396088999 0.10054394126144722 -0.31043244415579235 0 0 0 0
508125000 0.5103517835325635 -0.8037974423287616 0.09635499596437379 -0.31251295433712806 0 0 0 0
508437500 0.5090398521983739 -0.803159236296105 0.10167231457628795 -0.31226242949441774 0 0 0 0
508750000 0.5078510497704078 -0.8029794724602857 0.09621432185523288 -0.3148155964619031 0 0 0 0
509062500 0.5081408146215742 -0.8028808481492704 0.09288484643571646 -0.3184406779254915 0 0 0 0
509375000 0.5068489227390084 -0.8029913768039879 0.09657734849294324 -0.31935183826889185 0 0 0 0
509687500 0.5069956662003334 -0.8025404127114844 0.09474052821655818 -0.3151697738951759 0 0 0 0
510000000 0.5063859981521323 -0.8028726654387799 0.09848226883146399 -0.3227988523454376 0 0 0 0
510312500 0.5045453636416304 -0.8039852238120595 0.09323372157759671 -0.31818085408916474 0 0 0 0
510625000 0.5044783072422919 -0.8032964181014551 0.09225908923494426 -0.32177688681065086 0 0 0 0
510937500 0.5053405140117985 -0.8031464113342346 0.09329213398300971 -0.3220801427605285 0 0 0 0
511250000 0.5032846952934257 -0.8036622417895268 0.09185039995370495 -0.3248007737823407 0 0 0 0
511562500 0.5024306752546644 -0.8052131514773377 0.09527145668535686 -0.32973068233824887 0 0 0 0
511875000 0.5020564503920641 -0.8036384297730867 0.09349129140358634 -0.32477908208233974 0 0 0 0
512187500 0.5021133347158983 -0.8040586542673788 0.09213830555138319 -0.3335637236001578 0 0 0 0
512500000 0.5005752974178611 -0.8050346693727211 0.09335070112240353 -0.32666537773405535 0 0 0 0
512812500 0.5003060570067825 -0.8052540664881617 0.09311411379496524 -0.3287120774155719 0 0 0 0
513125000 0.49955656730524584 -0.8054375943618077 0.08944517639163468 -0.32746685696207495 0 0 0 0
513437500 0.4979304882738075 -0.8054193212531899 0.08415087093839486 -0.32969616448558375 0 0 0 0
513750000 0.4973178483182996 -0.8048124576290778 0.09324432182148429 -0.3327189621061198 0 0 0 0
514062500 0.4969370257617276 -0.8057037770102858 0.08887911816286653 -0.3351107978838522 0 0 0 0
514375000 0.49710325815919476 -0.8053966125098807 0.09076686010643938 -0.33256111723925313 0 0 0 0
514687500 0.49597721372009185 -0.8059890821755215 0.08251236001543885 -0.33787276605532107 0 0 0 0
515000000 0.4951512220732812 -0.8062337254468124 0.08617327586185332 -0.34385795234324973 0 0 0 0
515312500 0.4951075707102115 -0.8060057907903906 0.08235359535422462 -0.34138778878853154 0 0 0 0
515625000 0.49464177214012506 -0.8066679542557793 0.08426391739218028 -0.3408495037054777 0 0 0 0
515937500 0.49392135485906064 -0.8056582127890684 0.08295981113366946 -0.3402541821572565 0 0 0 0
516250000 0.49236723646666214 -0.8063980121944178 0.08021747377036297 -0.34327677119035593 0 0 0 0
516562500 0.49289105866420013 -0.8062486083477083 0.08107826829962766 -0.3424711601168457 0 0 0 0
516875000 0.49172147981367503 -0.806166017398587 0.0848018476375976 -0.3491986402441567 0 0 0 0
517187500 0.4910882910668015 -0.8069766771251663 0.07982350724650263 -0.34866492559143875 0 0 0 0
517500000 0.48940106384492105 -0.8063867239926197 0.07891691482009851 -0.34675242364757225 0 0 0 0
517812500 0.4890180287405457 -0.8063527540203769 0.0768996392727141 -0.3513568943222273 0 0 0 0
518125000 0.4881004827814068 -0.8076734539594919 0.07464833966657182 -0.3544746314268276 0 0 0 0
518437500 0.48829242655947586 -0.8064817681405415 0.07476489192203059 -0.3525219539250058 0 0 0 0
518750000 0.4874511016494612 -0.8071143808109748 0.08021568444184489 -0.35510579781773904 0 0 0 0
519062500 0.4870948474815083 -0.8069324593953211 0.0702445104715143 -0.35881703924519637 0 0 0 0
519375000 0.48779550666346616 -0.806414641553073 0.07205677528527209 -0.35579296326618115 0 0 0 0
519687500 0.48735256083231077 -0.8064668550251994 0.07278248096836414 -0.35936893332591696 0 0 0 0
520000000 0.48491712810201254 -0.8072795148763906 0.0701761893549946 -0.35874164913325074 0 0 0 0
520312500 0.4849411017846942 -0.8084259186481259 0.07255215585237358 -0.35620500412745415 0 0 0 0
520625000 0.48467172561469624 -0.8080601337996809 0.0733177199920795 -0.3625192579800569 0 0 0 0
520937500 0.48293471974632235 -0.8082848402772357 0.07174947707808563 -0.3643499873062587 0 0 0 0
521250000 0.4821683671537969 -0.8087458444143816 0.06910871598190414 -0.36626853959806377 0 0 0 0
521562500 0.4821649041454262 -0.8089603470106912 0.06622582226902017 -0.3616777166710823 0 0 0 0
521875000 0.4810471176558732 -0.8092284291264444 0.06202018256541484 -0.37136072031409617 0 0 0 0
522187500 0.4814293591665936 -0.808628346473208 0.06699884476539304 -0.3719408068432519 0 0 0 0
522500000 0.47971199041875406 -0.8084770184915053 0.07429556042381627 -0.37220102217913137 0 0 0 0
522812500 0.479762187744504 -0.8081227874236663 0.06798425876236419 -0.370327756507249 0 0 0 0
523125000 0.47873482605017514 -0.8093475823594652 0.05947241677743905 -0.3696864836377816 0 0 0 0
523437500 0.47822934958169433 -0.8092285956972609 0.0671723192099325 -0.373826671041758 0 0 0 0
523750000 0.4772480163290364 -0.8101325023710427 0.060196327168688196 -0.3762697612230753 0 0 0 0
524062500 0.47653591024582737 -0.808334246501753 0.05434647675469781 -0.38083104238486504 0 0 0 0
524375000 0.4764676782933761 -0.8093077797207197 0.05471903481970202 -0.37993897862026915 0 0 0 0
524687500 0.4756157843947665 -0.8081698915411943 0.05528087080702348 -0.3790982408366951 0 0 0 0
525000000 0.47414028669567915 -0.8093358183853342 0.05798473974301336 -0.3688655623328504 0 0 0 0
525312500 0.4750805473874516 -0.808435868716337 0.054716458266408315 -0.3798190600961841 0 0 0 0
525625000 0.47304232011333963 -0.8094710452556256 0.05196103328039071 -0.3781492073850733 0 0 0 0
525937500 0.47345182088020066 -0.8092770284987676 0.052535288602888044 -0.38787881825800463 0 0 0 0
526250000 0.4724679295160939 -0.808958223703185 0.05147434539679933 -0.38414287828283156 0 0 0 0
526562500 0.4713766411180095 -0.8085430302182014 0.04896651761564279 -0.39016647754997835 0 0 0 0
526875000 0.4707201429275829 -0.8089393508939003 0.04245011872941553 -0.3913650079562332 0 0 0 0
527187500 0.4699668244721033 -0.8099452978557319 0.04507324820851116 -0.39094073035049814 0 0 0 0
527500000 0.47093094248196565 -0.8091906860018195 0.04190650456961685 -0.39436771057115017 0 0 0 0
527812500 0.4692233572756173 -0.8088493285195975 0.046037503239039906 -0.399625126955607 0 0 0 0
528125000 0.4694385946095961 -0.8091192125521158 0.040798610685730666 -0.4039979396993144 0 0 0 0
528437500 0.4682958348314669 -0.809308075742522 0.03529012045734469 -0.3984213999249419 0 0 0 0
528750000 0.46666702715697805 -0.8087840051391855 0.035979464595845265 -0.4028934329543691 0 0 0 0
529062500 0.46621876046724947 -0.8094605028959763 0.03493933256868448 -0.40423452413279953 0 0 0 0
529375000 0.4667325795470114 -0.8091782273785887 0.039708213682791524 -0.40579846531630587 0 0 0 0
529687500 0.46413467608216913 -0.810166045716072 0.03507421445457271 -0.40997004582728164 0 0 0 0
530000000 0.46358387229016706 -0.809552342508849 0.03362735355861024 -0.4113693531283929 0 0 0 0
530312500 0.4637847731350617 -0.8101944376647369 0.03489094604267275 -0.40971369282077563 0 0 0 0
530625000 0.46279257628460274 -0.8102772440713406 0.03279787971660361 -0.41316954543433054 0 0 0 0
530937500 0.46161146783420337 -0.8093287568791306 0.029643736776701943 -0.4110976377378593 0 0 0 0
531250000 0.4606692164225291 -0.8089268800049352 0.031038926842997677 -0.41350568144489314 0 0 0 0
531562500 0.4621962621514729 -0.8096521898369232 0.02599130473496176 -0.41338683741293064 0 0 0 0
531875000 0.4606731956621988 -0.8089072710684795 0.02684379108481998 -0.4178751944314594 0 0 0 0
532187500 0.46109325153947084 -0.8101156567723293 0.020930817045986393 -0.4206119283931839 0 0 0 0
532500000 0.4586660507942151 -0.8104724520996421 0.02708333561563556 -0.41925070186522423 0 0 0 0
532812500 0.4581815761597255 -0.8100473155137555 0.02213645425552093 -0.4233225209733594 0 0 0 0
533125000 0.45864212160565854 -0.8096816525713247 0.014500198912077487 -0.4242625924028601 0 0 0 0
533437500 0.45686222568494855 -0.8096588020089669 0.021023162400630232 -0.41353394278214345 0 0 0 0
533750000 0.4564493296589441 -0.8098856500280533 0.020054297982107186 -0.4234496058275302 0 0 0 0
534062500 0.45549470006348414 -0.8090684276470566 0.010126679118242547 -0.4243651725635712 0 0 0 0
534375000 0.45428375590992126 -0.8085704759322941 0.014045533927707354 -0.4230609719072407 0 0 0 0
534687500 0.45401598535071713 -0.8099652442299886 0.017619181475327407 -0.422561369605816 0 0 0 0
535000000 0.4541026725815693 -0.8092414559173375 0.007197031115289368 -0.42922145178807075 0 0 0 0
535312500 0.4529235732001181 -0.8094952661487705 0.01462621508219022 -0.4295195205699122 0 0 0 0
535625000 0.4532044386788036 -0.8093179954395273 0.010517337773329883 -0.42963848269212584 0 0 0 0
535937500 0.4521368671984736 -0.8110511521311072 0.00951107469340422 -0.43258305711580874 0 0 0 0
536250000 0.4508330000210608 -0.809473427081422 0.005776917742350848 -0.43869910624639485 0 0 0 0
536562500 0.4503760810622579 -0.8098275507415033 0.006313662847897722 -0.4318855901470353 0 0 0 0
536875000 0.4498806114576312 -0.8096175739544302 0.008260921216808922 -0.4370071818071931 0 0 0 0
537187500 0.449207505053413 -0.809405265047592 0.0019936886084525405 -0.4345143261799853 0 0 0 0
537500000 0.4496884393761448 -0.8099062909550018 0.003331255556371508 -0.4300999103553474 0 0 0 0
537812500 0.44819028455651144 -0.8103963711960825 0.0019573759036839696 -0.44195110000500337 0 0 0 0
538125000 0.44791859351643043 -0.810238612280096 -0.0036899162852121878 -0.4389507104436168 0 0 0 0
538437500 0.44684542795077936 -0.8101209631923104 -0.0051847515037519885 -0.44226371004863185 0 0 0 0
538750000 0.44540410007683395 -0.8104164185850926 -0.0035761312642218542 -0.4341474299957769 0 0 0 0
539062500 0.44579882955914296 -0.8097312162391813 -0.008600301721410302 -0.4438258069466553 0 0 0 0
539375000 0.44551283434549366 -0.8098494164345974 -0.005353571401221419 -0.4392174474679708 0 0 0 0
539687500 0.4452900693493954 -0.8097117612401856 -0.008749437305913179 -0.4496548837093235 0 0 0 0
540000000 0.4434147389896381 -0.8104576788551997 -0.012380043027860024 -0.4473617954179508 0 0 0 0
540312500 0.44355480678266257 -0.8097186678950501 -0.016493965907049723 -0.4442587293373379 0 0 0 0
540625000 0.44167124318368295 -0.8107253914487262 -0.011669297466850814 -0.4462082104989409 0 0 0 0
540937500 0.44083296923878845 -0.8097376553342769 -0.014782661192008965 -0.453484332719727 0 0 0 0
541250000 0.43978491756386046 -0.8100238435886583 -0.013298121827405158 -0.4445523686657977 0 0 0 0
541562500 0.4393554720057211 -0.810449060681926 -0.021811647483772626 -0.4472694072767116 0 0 0 0
541875000 0.4393051371388731 -0.8095930731334099 -0.014196713949974862 -0.4485093134228118 0 0 0 0
542187500 0.43835705454858526 -0.8083250986645513 -0.02026425787618845 -0.45441604276325226 0 0 0 0
542500000 0.4392922272460756 -0.8107526080631574 -0.021897602912220045 -0.4548568004275508 0 0 0 0
542812500 0.43708633539958563 -0.8101781443279397 -0.02342081961034114 -0.45620655144152233 0 0 0 0
543125000 0.43524256519560844 -0.809887484927024 -0.025825691939950438 -0.45429906124328906 0 0 0 0
543437500 0.43629027300544054 -0.8090767187349747 -0.03000723194873622 -0.4593993164617807 0 0 0 0
543750000 0.4350040557359679 -0.8085330503473689 -0.031370225268820606 -0.45887474751722174 0 0 0 0
544062500 0.4351717628445249 -0.8098953587253854 -0.02881170176970768 -0.45984451325460457 0 0 0 0
544375000 0.4330701502378148 -0.8091579673257981 -0.034220902822271984 -0.46209178714563837 0 0 0 0
544687500 0.4349711167795935 -0.8087166581295181 -0.030118656225278876 -0.45637320176141705 0 0 0 0
545000000 0.43235892600393844 -0.8093144152827024 -0.035700346745339534 -0.46164585443050876 0 0 0 0
545312500 0.43149862912902487 -0.8088329176044317 -0.037953949614127146 -0.46542474613874096 0 0 0 0
545625000 0.4309551135567058 -0.8086471832912185 -0.04283351608743741 -0.46724395447698625 0 0 0 0
545937500 0.4311247149561155 -0.8085704805322783 -0.043921882446890194 -0.4664849503114397 0 0 0 0
546250000 0.4298555219566212 -0.8089232974475246 -0.04232203015876351 -0.472769347058374 0 0 0 0
546562500 0.42953967341022253 -0.8085686431428302 -0.04768089684949336 -0.47435032367720065 0 0 0 0
546875000 0.4292285732157428 -0.8090265983323949 -0.051470863098446784 -0.46461475368363403 0 0 0 0
547187500 0.42814039472745646 -0.809085292235859 -0.05106220276455681 -0.47247171859738574 0 0 0 0
547500000 0.4277216359074278 -0.8083145696812046 -0.050608727292475814 -0.47646711606899966 0 0 0 0
547812500 0.4263656691182887 -0.808924701136092 -0.05815200547087376 -0.47315253649245337 0 0 0 0
548125000 0.42631464453324425 -0.8091617725054787 -0.05793940098220795 -0.4714286953931724 0 0 0 0
548437500 0.4255033192921822 -0.8083743438793406 -0.05869182250385663 -0.47544603026905546 0 0 0 0
548750000 0.42491163394924747 -0.8092595593929967 -0.061722906467573516 -0.47583628005440426 0 0 0 0
549062500 0.42408980751655423 -0.8067893148099234 -0.06559617436742894 -0.47796530087607325 0 0 0 0
549375000 0.4242913412138279 -0.8073881803255215 -0.05657740600478143 -0.4763288129419525 0 0 0 0
549687500 0.4230897176562035 -0.8084663965736946 -0.06764743421222548 -0.4812890299476168 0 0 0 0
550000000 0.42229525740192114 -0.808206216878869 -0.06827875157795825 -0.47783368465586423 0 0 0 0
550312500 0.4207385071569368 -0.8083950563997723 -0.06706082989894217 -0.4796436122349296 0 0 0 0
550625000 0.4207607940716087 -0.8091266651230615 -0.07028885788484987 -0.4796923752004493 0 0 0 0
550937500 0.4197864176975583 -0.8082406116880148 -0.07198788949198326 -0.4808495231823238 0 0 0 0
551250000 0.4195778750110815 -0.8075002768996922 -0.07095568168845456 -0.48370979565781935 0 0 0 0
551562500 0.41899501570129855 -0.8073228134622373 -0.07705062419880235 -0.48896572370624647 0 0 0 0
551875000 0.41718419529164125 -0.8070997160920469 -0.07852449188376769 -0.4900630704321056 0 0 0 0
552187500 0.4189952469109565 -0.8072962805621797 -0.08248431872344833 -0.4869312821111112 0 0 0 0
552500000 0.417429875594479 -0.8075771556289767 -0.08068185042067563 -0.48159827935530114 0 0 0 0
552812500 0.4168368020778257 -0.8074854924321607 -0.08688128605759984 -0.4904509204280774 0 0 0 0
553125000 0.41581370917137234 -0.807537874976004 -0.08012619350262494 -0.48623350129432047 0 0 0 0
553437500 0.41521604703465376 -0.8067331961837431 -0.0869853192749045 -0.4837445366864442 0 0 0 0
553750000 0.41435998844894406 -0.8071602995150733 -0.09238305231628048 -0.496675148564883 0 0 0 0
554062500 0.4144423599208659 -0.8065520841835666 -0.0913054969943301 -0.48777300433013976 0 0 0 0
554375000 0.4128367495876047 -0.8066314757061307 -0.09397993879821988 -0.48954629725124665 0 0 0 0
554687500 0.4138297070420564 -0.8060617642582387 -0.10217449649172886 -0.4932710891776854 0 0 0 0
555000000 0.41107422224214785 -0.8070424902564646 -0.10259426617871101 -0.4921194159844824 0 0 0 0
555312500 0.4119126756647463 -0.8067676596304286 -0.09696169651713721 -0.49479531575618074 0 0 0 0
555625000 0.4112861489767071 -0.8054882241742688 -0.1026960450730727 -0.49436493317764896 0 0 0 0
555937500 0.41094312287106904 -0.805948261379189 -0.10927867709847099 -0.5004081161736007 0 0 0 0
556250000 0.40825843810015294 -0.805677492189059 -0.10254689388061917 -0.5002670311365197 0 0 0 0
556562500 0.40877416880328127 -0.8053188311607334 -0.10836067379632087 -0.4936907737417666 0 0 0 0
556875000 0.40772003253492023 -0.8055757075873812 -0.11179695778123941 -0.4968584528668448 0 0 0 0
557187500 0.40920586305861834 -0.8051516827521388 -0.1122461310346988 -0.5013750411273397 0 0 0 0
557500000 0.40874962356489536 -0.8049516674100883 -0.11781360455867247 -0.5080157514084231 0 0 0 0
557812500 0.40720798718273055 -0.8055243323711807 -0.11805613838070343 -0.4996942016532297 0 0 0 0
558125000 0.40653638813077797 -0.8045788976758241 -0.11585529436915441 -0.4987011316838272 0 0 0 0
558437500 0.4050475639958895 -0.8032264262191654 -0.1198956065807665 -0.5012764211891965 0 0 0 0
558750000 0.40560016335287286 -0.8049528054824355 -0.12210174861070942 -0.498551912273375 0 0 0 0
559062500 0.40422670934251737 -0.8039422133247576 -0.1228958143624663 -0.505971219049557 0 0 0 0
559375000 0.4040492447385254 -0.8036843360078991 -0.12778110828959155 -0.5029348207215882 0 0 0 0
559687500 0.4036258125497306 -0.8036255948577372 -0.13114869844978805 -0.5054979156192232 0 0 0 0
560000000 0.4026832264051748 -0.804101213014209 -0.13188038942198863 -0.5082715560306713 0 0 0 0
560312500 0.401442074257428 -0.8037187593263495 -0.12916741997566036 -0.5135422735180919 0 0 0 0
560625000 0.40085008355867613 -0.8043544633404186 -0.13570644802506213 -0.5054798443821072 0 0 0 0
560937500 0.40066720082715085 -0.803982074624224 -0.13577548241819648 -0.5049526741349736 0 0 0 0
561250000 0.39945592625259707 -0.8045066429991155 -0.13761505380401717 -0.5105052537245913 0 0 0 0
561562500 0.3991969881825463 -0.8034137259680417 -0.14391392790696442 -0.5091409259205931 0 0 0 0
561875000 0.39867476781069083 -0.8029494330955949 -0.14082708228986662 -0.5109885040187055 0 0 0 0
562187500 0.39839014967363906 -0.8006487390128068 -0.14043418789257098 -0.5063040282373987 0 0 0 0
562500000 0.3969531091940537 -0.8025843259537656 -0.14798743665997158 -0.5080785319544067 0 0 0 0
562812500 0.39601564514627974 -0.8015585121093893 -0.15259825034469904 -0.5036849859997241 0 0 0 0
563125000 0.3967386132658775 -0.8024662628897079 -0.15384387616270798 -0.51270891864969 0 0 0 0
