# HZ S RI R 50
500000000 0.5814379158855665 -0.7600468774735167 -0.00014620211687368966 -3.292719216225208e-05 0 0 0 0
505000000 0.5752272538545398 -0.7671454721533131 -0.000139679817244688 -2.3527276784387578e-05 0 0 0 0
510000000 0.5693200267576914 -0.7726649520904247 -0.00013011814438088139 -3.969264990994744e-06 0 0 0 0
515000000 0.5618189939301721 -0.7787297312164432 -0.00013760704211599438 -2.824150945945922e-05 0 0 0 0
520000000 0.555986061683291 -0.783106261868935 -0.00017265744663818067 5.300859075999752e-05 0 0 0 0
525000000 0.5489848747532862 -0.7886654321806051 -0.00013602431821198492 -2.590395052725619e-06 0 0 0 0
530000000 0.5417300496081853 -0.794362753425848 -0.00012948922364587235 -3.440739823709591e-05 0 0 0 0
535000000 0.5358924074607933 -0.7982745968899887 -9.188080687720454e-05 2.1306538209627543e-05 0 0 0 0
540000000 0.5293805408986596 -0.8032442882339238 -0.00012192724581007604 -4.047222548598922e-05 0 0 0 0
545000000 0.5232829801582036 -0.8090474305884633 -0.00017961047936673006 -1.600730544924856e-05 0 0 0 0
550000000 0.5164128659275439 -0.8142484171484732 -0.00021923275102388192 -7.287617510218194e-05 0 0 0 0
555000000 0.5111558651176662 -0.8171004815014813 -0.0002422732458832246 1.0790040158388396e-06 0 0 0 0
560000000 0.5048887108865439 -0.8220303118117865 -0.00012476938256335214 -4.679360145461437e-05 0 0 0 0
565000000 0.49823708574365044 -0.8268241727470295 -0.0001852324355996217 2.4084713484151838e-05 0 0 0 0
570000000 0.49223966076053643 -0.8314986716970112 -0.000228181561768302 -5.8521993955236237e-05 0 0 0 0
575000000 0.48845531521125357 -0.8345452344837424 -0.00019381707806257145 -7.527499164770107e-07 0 0 0 0
580000000 0.4814019118120742 -0.8377529127714971 -0.00023187915784099388 2.2424095629229664e-05 0 0 0 0
585000000 0.4772201818859516 -0.8414111149100452 -0.00022464645685957266 1.78080511697599e-05 0 0 0 0
590000000 0.4709900032997869 -0.8447080367897678 -0.0002166031588676919 -3.3943863939382636e-05 0 0 0 0
595000000 0.4649662407428223 -0.8462264315446116 -0.0002473440465297905 7.876492028187255e-05 0 0 0 0
600000000 0.4589370004346291 -0.8515073116422013 -0.00021127476807704363 2.4713095564243678e-05 0 0 0 0
605000000 0.45661005061247156 -0.8527330404411285 -0.00032170549915158284 3.591927800382726e-05 0 0 0 0
610000000 0.4502473172076303 -0.8557434932474961 -0.00023554155787100796 4.593950475861815e-06 0 0 0 0
615000000 0.4460741394730892 -0.8568762036366039 -0.00024187985700801427 -4.504318863316906e-06 0 0 0 0
620000000 0.441999144320586 -0.8596059231002738 -0.0003415994423392259 -1.8823847350435843e-06 0 0 0 0
625000000 0.43634004004642907 -0.862173688217281 -0.0003482692846402563 -1.4517333521510062e-05 0 0 0 0
630000000 0.43019065893292224 -0.8631886095012964 -0.0003569561402896367 2.378630613807053e-05 0 0 0 0
635000000 0.4266342623561614 -0.8656953774170087 -0.0003915836553181131 0.00012117239547657138 0 0 0 0
640000000 0.42394191843182355 -0.8672506965294999 -0.0003525552485703928 4.374885125881431e-05 0 0 0 0
645000000 0.41852507406815004 -0.8692984493389084 -0.00037018287880868797 3.8085823036179674e-05 0 0 0 0
650000000 0.41336413976366493 -0.8707619605183956 -0.0004716055550417429 4.303827834983647e-05 0 0 0 0
655000000 0.4107668661040725 -0.8728004046018796 -0.0004652847987922506 0.00011023396585599025 0 0 0 0
660000000 0.4064942135994377 -0.8752302873092335 -0.00045858184869218967 8.564932473446979e-05 0 0 0 0
665000000 0.40139601066272745 -0.8759152259928967 -0.00048697234330756517 6.706326743564374e-05 0 0 0 0
670000000 0.3988612979058566 -0.8763716939193908 -0.0005436550880566803 0.0001149992610837722 0 0 0 0
675000000 0.39448212834340457 -0.8785262774775281 -0.000537604276535915 0.00011310058838363146 0 0 0 0
680000000 0.3907485948709774 -0.8793771675849411 -0.0007365626450761026 0.0002773497435998831 0 0 0 0
685000000 0.3877288323572917 -0.8814688894234719 -0.0007365182127284871 0.00021185888413296092 0 0 0 0
690000000 0.3827268337797695 -0.8825321639160824 -0.0007492558676934741 0.00030396796511110056 0 0 0 0
695000000 0.37998933659337525 -0.8840948809087816 -0.0008669994906518407 0.00045471067136752683 0 0 0 0
700000000 0.3769508472315389 -0.8856740361644277 -0.0008818195038349145 0.0005789530033976024 0 0 0 0
705000000 0.3724931821707448 -0.8882225942541341 -0.0008003800304849451 0.0007643533906052705 0 0 0 0
710000000 0.3682757506322994 -0.8900641676492994 -0.0008040248570854972 0.0008391321361463375 0 0 0 0
715000000 0.36614113618140814 -0.8919132834929338 -0.0007933466706253867 0.001037733090280283 0 0 0 0
720000000 0.3605210521540115 -0.8957722579618853 -0.0005879188159459501 0.0011583477540579186 0 0 0 0
725000000 0.35582471797902543 -0.8969287748425527 -0.0005387479301027421 0.0011997090629110184 0 0 0 0
730000000 0.35135409495647163 -0.8998550522674643 -0.00032623326764669126 0.001292112215633826 0 0 0 0
735000000 0.3481002341501968 -0.9018225115328724 -0.0001647335793365066 0.0012492737643383888 0 0 0 0
740000000 0.3432184446150707 -0.9043839022294641 -8.778806409994265e-06 0.001289542566853788 0 0 0 0
745000000 0.3379078252560044 -0.9071743736209351 7.895699313841735e-05 0.001280544670564615 0 0 0 0
750000000 0.3319681355415758 -0.9101101150196729 0.00020489223333917787 0.0012341316616882253 0 0 0 0
755000000 0.3274165159202439 -0.9120050437492039 0.00031034477381628416 0.0012794163979933401 0 0 0 0
760000000 0.322303308416704 -0.9147531996021295 0.0004002064731467043 0.001206929736502432 0 0 0 0
765000000 0.31490708465155287 -0.9174509368548746 0.0004699164856871539 0.0010928142737325719 0 0 0 0
770000000 0.30998973828178317 -0.9207174521793348 0.0005226213189638561 0.0010320293542557077 0 0 0 0
775000000 0.30377979285316903 -0.9211069207379761 0.000613965638254993 0.0009883425094850996 0 0 0 0
780000000 0.30150595583495166 -0.9257084270460629 0.0006332161840300967 0.0008708343112354164 0 0 0 0
785000000 0.291898259783286 -0.9262197375766872 0.000684278781920973 0.0007702646715969643 0 0 0 0
790000000 0.28633487925828294 -0.9277688016274797 0.000738801625108224 0.0006835905244084895 0 0 0 0
795000000 0.27980617938591273 -0.9294314032514545 0.000709832053497988 0.0006134263301505388 0 0 0 0
800000000 0.2732426076664015 -0.9321216783945836 0.0007340460430045638 0.0005967072942721365 0 0 0 0
805000000 0.2671626775686147 -0.9330604624221783 0.0006639999826760879 0.0005201486481001871 0 0 0 0
810000000 0.25993762068846643 -0.9369353929373233 0.0006983435100605674 0.0004953604821456477 0 0 0 0
815000000 0.25270178075467226 -0.9370115021602342 0.0007096504901851092 0.0004979779783666238 0 0 0 0
820000000 0.24759032803514366 -0.9401083072484797 0.0007181281258679264 0.0004197083100736629 0 0 0 0
825000000 0.2396897708745737 -0.9433065718329531 0.0006166130267942053 0.00036749177749669426 0 0 0 0
830000000 0.2321849636444439 -0.9439745000470461 0.0006504497283355529 0.00040193758439369375 0 0 0 0
835000000 0.22759153610366398 -0.9445367735181556 0.0007080816563025553 0.0003371128327104587 0 0 0 0
840000000 0.22160836949904994 -0.9462522824033358 0.0006654306079224961 0.0002820174471225296 0 0 0 0
845000000 0.21430902157124326 -0.949234328196743 0.0006485051786812261 0.0002513870663430867 0 0 0 0
850000000 0.20763493821245016 -0.9509456370500536 0.0006971588234019506 0.000138805261959135 0 0 0 0
855000000 0.20070888645513354 -0.9515174097298141 0.0006444948319606006 0.00014586673625026808 0 0 0 0
860000000 0.19515062286648108 -0.9519012880920361 0.0005913116612094373 0.00016786537243742224 0 0 0 0
865000000 0.18905917472949288 -0.9538258998320097 0.0005865188075934929 0.00022971901278689115 0 0 0 0
870000000 0.18310939931043305 -0.9557836303052725 0.0005945447731195645 0.0001378246976173184 0 0 0 0
875000000 0.1772225726143037 -0.9551241788391756 0.0005197883413067077 6.21593808154461e-05 0 0 0 0
880000000 0.17095294678538542 -0.9562408660108985 0.0005249180434324237 0.00014355900299715287 0 0 0 0
885000000 0.16427804744291344 -0.956764737706402 0.0005118676393659087 0.0001347586373080419 0 0 0 0
890000000 0.15871991487061815 -0.9598809991576672 0.0004945098931271767 0.00017129028343226463 0 0 0 0
895000000 0.15335237930899523 -0.959862118552813 0.0005165333315156959 6.37659782258914e-05 0 0 0 0
900000000 0.14941983665462072 -0.9625866829947348 0.0005239591100129854 7.100682762383343e-05 0 0 0 0
905000000 0.14343903915593526 -0.9617889224847984 0.0005357161485523794 8.984316713726346e-05 0 0 0 0
910000000 0.1374391834684354 -0.9623582134320389 0.0004922462470273174 0.00011306591560851718 0 0 0 0
915000000 0.13546595952285623 -0.9633745302937762 0.00045019780661714596 6.458860819181534e-05 0 0 0 0
920000000 0.13034571447456586 -0.9644355438507594 0.0003904453037127792 0.0001147862797039934 0 0 0 0
925000000 0.12711512138181047 -0.9647509280003742 0.0004405872238138563 1.1806037131887898e-05 0 0 0 0
930000000 0.12252840482289432 -0.9645309143432597 0.00045641135289017167 -7.845706105714728e-06 0 0 0 0
935000000 0.1185382136997121 -0.9654257309771529 0.0003598355186724514 2.80191095798062e-05 0 0 0 0
940000000 0.11472045294474895 -0.9646547783290449 0.00034803871193126785 2.7283923940200047e-05 0 0 0 0
945000000 0.11026743627656216 -0.9647822859943673 0.0004194374563579172 -1.2845695264725282e-05 0 0 0 0
950000000 0.10644715477226019 -0.9664817529756903 0.00035339790173796645 5.0693836056764886e-05 0 0 0 0
955000000 0.10340940521320431 -0.9663620169706266 0.0004708321413411838 7.722863670992527e-06 0 0 0 0
960000000 0.09999782496378039 -0.966393061044332 0.00037707205251167724 1.9645522909370263e-05 0 0 0 0
965000000 0.09781721497581773 -0.9668430933640639 0.0003994674555138563 -3.174764985489346e-06 0 0 0 0
970000000 0.09437056992694098 -0.9667781451425029 0.0004059336495613272 -3.419565037836503e-05 0 0 0 0
975000000 0.09131037780513894 -0.9680355611719228 0.0003711950445303036 -5.4539296578374016e-05 0 0 0 0
980000000 0.08958949115525684 -0.9677088016574524 0.000373209241094185 6.554996858294548e-05 0 0 0 0
985000000 0.08579102743714194 -0.9691761232463678 0.00042302234822984763 2.7286728231783513e-05 0 0 0 0
990000000 0.08315717478516564 -0.9689280332691272 0.0004366426582236539 5.995528016230143e-05 0 0 0 0
995000000 0.08290723188228968 -0.9688093930588951 0.00048002368855904723 5.6089745609093196e-05 0 0 0 0
1000000000 0.0792967900749922 -0.969662390024057 0.00039410766202034104 2.5002663622198693e-05 0 0 0 0
1005000000 0.07805145083717506 -0.9698121036853311 0.0003046556078796878 -9.362109653241591e-05 0 0 0 0
1010000000 0.07618080527237057 -0.9706746556272469 0.000403765682834268 8.867764527435766e-07 0 0 0 0
1015000000 0.07388336938538638 -0.9706651676060876 0.00037731439887139247 -7.54126548045951e-05 0 0 0 0
1020000000 0.07068124115069695 -0.9719170017794325 0.0003888174062471696 -6.195471957398876e-05 0 0 0 0
1025000000 0.06819738072809017 -0.9716308115691322 0.00038311651701697326 -3.809024055747949e-05 0 0 0 0
1030000000 0.06629878012711363 -0.9720544409081304 0.000385172716846888 5.635902949290234e-06 0 0 0 0
1035000000 0.06492236066999299 -0.9712401341722566 0.0003318973724638122 3.601683481067109e-05 0 0 0 0
1040000000 0.06041880937388907 -0.9722677029950957 0.0003472187652784059 -8.714590879743097e-05 0 0 0 0
1045000000 0.06068319956241251 -0.9725078592920657 0.0004047104309902799 -4.546699457156081e-05 0 0 0 0
1050000000 0.05637716087781069 -0.971850730505228 0.0003861581217401048 -4.7620500491932174e-05 0 0 0 0
1055000000 0.05288601991576212 -0.9735751604295315 0.0002998240952746617 -7.331388993598633e-05 0 0 0 0
1060000000 0.052907781482948904 -0.9721659206351984 0.0003521883232475506 -0.00015557995554857604 0 0 0 0
1065000000 0.050214816256144226 -0.9738452982158579 0.00034842969834969646 5.0126487055879485e-06 0 0 0 0
1070000000 0.04720382279360266 -0.9732824033692397 0.00033212214693953814 -5.3049932242403024e-05 0 0 0 0
1075000000 0.043115138920804444 -0.9734605750373185 0.0002916060760180018 -3.9647195588354684e-05 0 0 0 0
1080000000 0.039276704308133396 -0.9735515913218666 0.00035369240375572277 2.3355030852969382e-05 0 0 0 0
1085000000 0.03734901109019954 -0.9746454069027468 0.0003611033159776348 -1.305366088784559e-05 0 0 0 0
1090000000 0.03442659546597894 -0.9736207663078799 0.0003244646318179078 -9.048235760005415e-05 0 0 0 0
1095000000 0.030714499261290204 -0.9731879111193562 0.0002802653252524292 9.3754963993489e-05 0 0 0 0
1100000000 0.025912565365821275 -0.9740280403929616 0.0004127579282870913 -0.00011452320100768072 0 0 0 0
1105000000 0.02374826708939053 -0.9727324617936816 0.0003870942525610797 -0.00012995884180565383 0 0 0 0
1110000000 0.018922565451283544 -0.9745198816667131 0.0002886093703290728 -0.00010187859338485682 0 0 0 0
1115000000 0.017826144226362008 -0.9721601289369135 0.0002716968829803896 -0.0001524017655060095 0 0 0 0
1120000000 0.011825178319388906 -0.9719374337390346 0.00035910971096691965 -9.559682665483216e-05 0 0 0 0
1125000000 0.00728585043334758 -0.9734022198900916 0.0002984287867200442 -0.00013910592503032037 0 0 0 0
1130000000 0.004205361674586982 -0.9722485861528636 0.0003283006559253002 -6.833683183447827e-05 0 0 0 0
1135000000 0.00027081403731637593 -0.9732875720744534 0.00038165552182104325 -7.068490636875624e-05 0 0 0 0
1140000000 -0.004365895719214899 -0.9731092529218253 0.0002846231535807194 -0.00012474967327358018 0 0 0 0
1145000000 -0.007963847954505152 -0.9720441765792527 0.0002218457474617721 -0.0001176078043013864 0 0 0 0
1150000000 -0.012476332471000674 -0.9737482752096727 0.0003075062207749135 -6.462667170148853e-05 0 0 0 0
1155000000 -0.01623670452097486 -0.9734303083642069 0.0003345451624871056 -8.98194714046759e-05 0 0 0 0
1160000000 -0.01960305671126767 -0.972375846079295 0.0003379784469871115 -6.310278701734326e-05 0 0 0 0
1165000000 -0.024180456505847395 -0.9725120641147114 0.00027018060186218484 -0.000124618026790841 0 0 0 0
1170000000 -0.02965454010299647 -0.9722066475197859 0.00039428346182463766 -7.727191981543527e-05 0 0 0 0
1175000000 -0.03343191766196455 -0.9720086561039227 0.00024217021152454413 -6.279722446525438e-05 0 0 0 0
1180000000 -0.03905132200368427 -0.9718557765926098 0.00032979675384404094 -4.179399165151519e-05 0 0 0 0
1185000000 -0.04537043557282002 -0.9710427292103851 0.00029936574997659006 -0.000113808528238674 0 0 0 0
1190000000 -0.04917228321579368 -0.9720500021606513 0.0003478104753244324 -4.992177100948938e-05 0 0 0 0
1195000000 -0.05287131966958675 -0.9697659562795459 0.0002814619494488928 -5.386708480216803e-05 0 0 0 0
1200000000 -0.05888905473925933 -0.9699847994230731 0.00021204893898167784 -0.00012101531113433702 0 0 0 0
1205000000 -0.0627751908786322 -0.969880736396532 0.0002836586240692568 -0.0001288552545082715 0 0 0 0
1210000000 -0.06523428475526895 -0.970134106682373 0.00022901885685864984 -5.921917971944278e-05 0 0 0 0
1215000000 -0.06887989136643728 -0.970364085376458 0.00032011093408161823 -0.0001329851004040877 0 0 0 0
1220000000 -0.07320567371626592 -0.9705501381425771 0.00030159265484420463 -3.202099579621487e-05 0 0 0 0
1225000000 -0.07549380418150432 -0.9707635982224038 0.00035252157551752053 -8.454871247830073e-05 0 0 0 0
1230000000 -0.07994653975894554 -0.9691122067906582 0.00031265679340299453 -9.641993410067993e-05 0 0 0 0
1235000000 -0.08438908155964374 -0.9703038590489461 0.0003260000794703636 -7.299495249294377e-05 0 0 0 0
1240000000 -0.08597370136267073 -0.9693159261418636 0.00035066634479443543 -1.937540950501717e-05 0 0 0 0
1245000000 -0.09245489297409151 -0.9679195100995704 0.00022442768462046524 -6.45165687166219e-05 0 0 0 0
1250000000 -0.09407714066977775 -0.9682421066182328 0.00030891335388718606 -5.0239680878491586e-05 0 0 0 0
1255000000 -0.09887153961042518 -0.9681516021149398 0.0002640069597451083 -4.1924872822991075e-05 0 0 0 0
1260000000 -0.09953955685033895 -0.9691128076501571 0.0002786237468873747 -0.0002103292174776336 0 0 0 0
1265000000 -0.10254496237270011 -0.9689513514577206 0.00024757898501822864 -1.9912287040904163e-05 0 0 0 0
1270000000 -0.10490006736385449 -0.9695072405094778 0.00030871572249988017 -0.00010499426419743027 0 0 0 0
1275000000 -0.10889760802698442 -0.9706287866190316 0.00017401814217414533 -5.4478542786337445e-05 0 0 0 0
1280000000 -0.11075609076831876 -0.9695943334660897 0.00027368097211028495 -0.00011471269654579207 0 0 0 0
1285000000 -0.11068396670229193 -0.9703380881847093 0.0004230344310825618 -2.9460386711823587e-05 0 0 0 0
1290000000 -0.11109904014694309 -0.969573006068033 0.00020991505259471626 -0.00016024983227059552 0 0 0 0
1295000000 -0.11438945062839223 -0.9683929296222269 0.0003134656923919365 -7.594284472669536e-05 0 0 0 0
1300000000 -0.11698889569532067 -0.9668372485362324 0.00020939846124047514 -0.00017647096056550983 0 0 0 0
1305000000 -0.11861445306424863 -0.9678766041347443 0.00021372496247650826 -0.00017061547292443328 0 0 0 0
1310000000 -0.11759486468513272 -0.9670933116495369 0.0002022815119990978 -0.00015988393042162957 0 0 0 0
1315000000 -0.12165327178690478 -0.9670781761853504 0.00028324872419805205 -0.00013686789567492164 0 0 0 0
1320000000 -0.1244617725397735 -0.9667059975881445 0.0003195588261778707 4.555717930153442e-05 0 0 0 0
1325000000 -0.11950902357710869 -0.9659812021873252 0.00019020896757595776 -9.904726853921782e-05 0 0 0 0
1330000000 -0.12458182989152472 -0.9669551562827662 0.00031401253780912993 -0.00010604764369088642 0 0 0 0
1335000000 -0.12557500687357442 -0.967114850686965 0.00025694981190933335 -9.532231767615529e-05 0 0 0 0
1340000000 -0.1268369288195689 -0.9664452016558165 0.000227776497992304 -0.00016998401405733345 0 0 0 0
1345000000 -0.12794033071491484 -0.9665739822944894 0.0002424996836661636 -8.037922065853091e-05 0 0 0 0
1350000000 -0.12785210811615697 -0.9650710176908321 0.0002609607499985352 -0.00017457594891566623 0 0 0 0
1355000000 -0.12761160069215205 -0.9658977330292153 0.0002584559762322402 -0.00020961096290215078 0 0 0 0
1360000000 -0.12970358887115963 -0.9660988740457351 0.00013277497404532717 -0.0001991575789384281 0 0 0 0
1365000000 -0.13103713006319312 -0.9654627196191936 0.00015429854812593592 -0.00018210658196152695 0 0 0 0
1370000000 -0.13032691888391715 -0.9636461385541591 0.00023153470338285617 -0.0001334523170142164 0 0 0 0
1375000000 -0.13252833773701345 -0.9638672084841373 0.00022100769600042662 -0.000187049634887432 0 0 0 0
1380000000 -0.1331609899437033 -0.9635825959331442 0.00023658914867899565 -0.00019965684591203577 0 0 0 0
1385000000 -0.13329982401875914 -0.9628698008894385 0.0003263745241800455 -7.982864344175992e-05 0 0 0 0
1390000000 -0.13215009005700423 -0.9634695864604832 0.00021749913303431592 -0.0001984931830324494 0 0 0 0
1395000000 -0.1375298205607952 -0.9623508820672003 0.0002208984541257561 -0.00013216762680426112 0 0 0 0
1400000000 -0.13680614513967065 -0.9622062645422558 0.0002030138861514201 -0.00017759880924522568 0 0 0 0
1405000000 -0.1390870663891825 -0.962471119829332 0.00019396223609298137 -9.937140407488802e-05 0 0 0 0
1410000000 -0.14296349285762103 -0.9613255815852314 0.000134494285835527 -0.00019813265635956797 0 0 0 0
1415000000 -0.14369635339806597 -0.9604687164072792 0.00028507881839208226 -0.00011096206731872847 0 0 0 0
1420000000 -0.14623695202102305 -0.9604647997699725 0.00015960122487530104 -0.000191632354599204 0 0 0 0
1425000000 -0.14984527861154265 -0.9584446418693194 0.00014282689006274972 -0.000139186304054287 0 0 0 0
1430000000 -0.1517040174279575 -0.9606566795707991 0.0002742482761500569 -0.00016385020857706661 0 0 0 0
1435000000 -0.15307263709514474 -0.9594876342105576 0.00019005518498610243 -0.000177623940939471 0 0 0 0
1440000000 -0.15732220420044077 -0.959171976299491 0.00023942657986459056 -0.00010677509529507067 0 0 0 0
1445000000 -0.15917641064277532 -0.9581321980264478 0.00018569073308074597 -0.0002276673120755577 0 0 0 0
1450000000 -0.16329968053459132 -0.958155879065597 0.0002183456573894808 -0.00015851252805324472 0 0 0 0
1455000000 -0.16602337339089532 -0.9546386370126053 0.00023446294637363626 -0.00023013648302664427 0 0 0 0
