# HZ S RI R 50
500000000 0.43146039803579134 -0.8771205597013371 -0.09119707786765333 -0.0044002027963540805 0 0 0 0
500312500 0.4309576761524131 -0.8777089238076532 -0.09109226058965182 -0.004348658220198636 0 0 0 0
500625000 0.4311934976710671 -0.8783589977897795 -0.09112480274380602 -0.004225068397913862 0 0 0 0
500937500 0.43041302801542114 -0.8788993375191233 -0.09118219085817726 -0.00400327961401636 0 0 0 0
501250000 0.43043811818244293 -0.8785777308642153 -0.09103779314337111 -0.004013135073058927 0 0 0 0
501562500 0.43049313372040465 -0.8779639281060087 -0.09115575698744663 -0.004020996481129816 0 0 0 0
501875000 0.42891879763650226 -0.8797763217448952 -0.09104498862684535 -0.003956229326763332 0 0 0 0
502187500 0.42936709249094435 -0.8788691734072677 -0.09113955572878685 -0.003912481069177208 0 0 0 0
502500000 0.42782135806216187 -0.8808232627071835 -0.09114364314449278 -0.0037216079223385498 0 0 0 0
502812500 0.427410347146879 -0.8795246895293138 -0.09110657193603967 -0.0036231093923497133 0 0 0 0
503125000 0.42725171467431494 -0.8797677032335655 -0.09123705222583281 -0.0036127097896605574 0 0 0 0
503437500 0.42643196795050925 -0.8800940894314087 -0.09103820162757367 -0.0035620449675947703 0 0 0 0
503750000 0.4247747320052136 -0.8805126174898731 -0.09116359407681508 -0.003407851633982546 0 0 0 0
504062500 0.4248839814163322 -0.8806381874902446 -0.09117499063279295 -0.003254226193835573 0 0 0 0
504375000 0.4246930152622521 -0.881511725495844 -0.09118824374189656 -0.0031965150489050064 0 0 0 0
504687500 0.42380093095392696 -0.8809804203190782 -0.09109547735680137 -0.003194643243177092 0 0 0 0
505000000 0.42253824760891645 -0.8819972776657162 -0.09108097574093366 -0.0029604064295938566 0 0 0 0
505312500 0.42265453080248616 -0.8829462585637242 -0.09117147824668809 -0.0028820501944812715 0 0 0 0
505625000 0.42196635029119 -0.8835140387140451 -0.09122470377341436 -0.0027983231339381897 0 0 0 0
505937500 0.42181940798276873 -0.8823978573145482 -0.0911031910079968 -0.0028935996832404744 0 0 0 0
506250000 0.4213409584170723 -0.8832886155159481 -0.0912118623526451 -0.002656376486117884 0 0 0 0
506562500 0.41973325699105773 -0.8839351831426614 -0.09120991720260813 -0.002703597890762537 0 0 0 0
506875000 0.4196203971826367 -0.883987617371842 -0.0911967981811357 -0.0024734237495772564 0 0 0 0
507187500 0.41954782367312615 -0.884785025363379 -0.09133461774320456 -0.002491429291074498 0 0 0 0
507500000 0.42064625981613346 -0.8847920386499427 -0.09129093200996458 -0.002402129895703099 0 0 0 0
507812500 0.41887006745682387 -0.8851839529998479 -0.09118256374692493 -0.0023515731584652032 0 0 0 0
508125000 0.4177064610424228 -0.8859989287961015 -0.0911584372999383 -0.002100064708347788 0 0 0 0
508437500 0.4175067286647875 -0.886014080252943 -0.0911836518658203 -0.002147494691089706 0 0 0 0
508750000 0.4172572205280594 -0.8861800798682019 -0.09118765381798917 -0.0020879091892487722 0 0 0 0
509062500 0.415994024867527 -0.8863547365720087 -0.09107048101047617 -0.0019145562411556777 0 0 0 0
509375000 0.4155006219018738 -0.8860625323672877 -0.09112973000109659 -0.0018301027099856585 0 0 0 0
509687500 0.41512275974706075 -0.8855650018629334 -0.09120979021846734 -0.0017702917122946545 0 0 0 0
510000000 0.41452090846076506 -0.8863424661958166 -0.091142104563431 -0.0017011793872561663 0 0 0 0
510312500 0.4139364744834402 -0.8869310053443077 -0.09123399558531141 -0.0014396130711435114 0 0 0 0
510625000 0.41328579151242534 -0.887275895215036 -0.09116352879609751 -0.0014122912515461732 0 0 0 0
510937500 0.4137129508111282 -0.8878529084705099 -0.09119531281216009 -0.001320978146112337 0 0 0 0
511250000 0.413278571193093 -0.8883376797816225 -0.0912145080655104 -0.0013255814013579106 0 0 0 0
511562500 0.41089316318568825 -0.8886391856398471 -0.09125976077428483 -0.0011886854350885343 0 0 0 0
511875000 0.41048662002872033 -0.8900493091679454 -0.09117426455708022 -0.0009843024214712082 0 0 0 0
512187500 0.41212357776981773 -0.8884993555241916 -0.0912486913452762 -0.0011086248643007047 0 0 0 0
512500000 0.4106478058933517 -0.8895072892260769 -0.09117271616274954 -0.0009801923673812326 0 0 0 0
512812500 0.4098421301154828 -0.8893523211877787 -0.09109626184066 -0.0008248931739541314 0 0 0 0
513125000 0.40850527265458775 -0.8898160527329726 -0.09119765352051838 -0.0007434471654871825 0 0 0 0
513437500 0.40854935186344266 -0.8902231196165272 -0.09123583412259087 -0.000602131745487328 0 0 0 0
513750000 0.40785138812781085 -0.8904261701357561 -0.0911992009331375 -0.0005390425059339703 0 0 0 0
514062500 0.4067684334903727 -0.8906354267900791 -0.09110505826147941 -0.0003519129867807963 0 0 0 0
514375000 0.40633299650792987 -0.8902575719921464 -0.09112357590317213 -0.00022988713594351409 0 0 0 0
514687500 0.40516597800847026 -0.8913691857137351 -0.09114118544673905 -0.00023958467474764495 0 0 0 0
515000000 0.40513992315784153 -0.8907261247459581 -0.09105643801411831 -0.00019860280900446767 0 0 0 0
515312500 0.4054881498262138 -0.891573895323167 -0.09119646462172551 -0.00014592826505421835 0 0 0 0
515625000 0.4045248003092149 -0.8911395381595847 -0.09109263996036748 -0.00010652508566248579 0 0 0 0
515937500 0.4043991473309389 -0.891682875104655 -0.09111547700383434 -2.2702908228766595e-05 0 0 0 0
516250000 0.40261589602988723 -0.8926472285718373 -0.09111130899768263 0.0001670393790898086 0 0 0 0
516562500 0.401705120656951 -0.8931921383035305 -0.09109954379620241 0.00028671848756890066 0 0 0 0
516875000 0.4026968550773006 -0.8933047445498675 -0.09117600193377498 0.00022485435505832565 0 0 0 0
517187500 0.4021957815186267 -0.8935659751142174 -0.09117092953327297 0.00031646940173498815 0 0 0 0
517500000 0.4019991009718919 -0.8936506578108279 -0.09112079527436825 0.000393610902446733 0 0 0 0
517812500 0.39981051480019314 -0.8934688974195638 -0.09113335433107622 0.0005785921742332642 0 0 0 0
518125000 0.4002218124228224 -0.8940058269392307 -0.09120249829675282 0.0004951548686282049 0 0 0 0
518437500 0.3992937271916995 -0.8943775384355049 -0.09111373002354088 0.0005948318473982105 0 0 0 0
518750000 0.39824028763536073 -0.8948101992474625 -0.0911445578149936 0.0007333201282963251 0 0 0 0
519062500 0.39787233926048704 -0.894972958825131 -0.09101643342849365 0.000852201125440858 0 0 0 0
519375000 0.3987132829537691 -0.8951704471267402 -0.09126571900027321 0.0008440402218150051 0 0 0 0
519687500 0.39763845371468687 -0.8950724424234285 -0.09106344987062963 0.0008483047532892563 0 0 0 0
520000000 0.3971826404757488 -0.8955874770609513 -0.09112990188838077 0.0010589550148786104 0 0 0 0
520312500 0.3963123567300804 -0.8966033967755448 -0.09109630119158606 0.0011985665423106353 0 0 0 0
520625000 0.3949066442951709 -0.8960974658056916 -0.0910192000139824 0.001361870736376813 0 0 0 0
520937500 0.3940500875458474 -0.8967729773992539 -0.09109536658275708 0.0013849129392867845 0 0 0 0
521250000 0.3937608479433693 -0.8966429870405871 -0.09099963653678678 0.001434110523906816 0 0 0 0
521562500 0.3919828514780952 -0.8974017436162982 -0.09110364205018204 0.0016334984693274798 0 0 0 0
521875000 0.39272892363380085 -0.8973111146377861 -0.09096654265456268 0.0015494198136121668 0 0 0 0
522187500 0.39289372472285 -0.8975132483568244 -0.09107716998798739 0.0015696499767377803 0 0 0 0
522500000 0.3915946287952963 -0.8980998963528988 -0.09111724380578877 0.0018395860100062055 0 0 0 0
522812500 0.39136420809400724 -0.8985609259133157 -0.09119821654287354 0.0017550372870443164 0 0 0 0
523125000 0.3912623990482703 -0.898307786867353 -0.09115906733156928 0.0018891001401440824 0 0 0 0
523437500 0.3905361752024466 -0.8989936970462115 -0.0911464257913213 0.001845749671696321 0 0 0 0
523750000 0.38929382060415696 -0.8994527119643463 -0.09114151842351448 0.0020493918756793205 0 0 0 0
524062500 0.38916938579634025 -0.9000608215091431 -0.09115740187301258 0.002023216334041186 0 0 0 0
524375000 0.38786411159118195 -0.8990236960963166 -0.09097484806329974 0.002299651643496666 0 0 0 0
524687500 0.3880520514166271 -0.8993970471594206 -0.09093349783419112 0.00222939715789011 0 0 0 0
525000000 0.387878108560731 -0.8991658442100519 -0.09103958638869443 0.0023775381506882984 0 0 0 0
525312500 0.3878967190288353 -0.8999857627324105 -0.0909768432601475 0.002375570495229195 0 0 0 0
525625000 0.3858031147731885 -0.9004036806519131 -0.09100129789218331 0.0025950575642403294 0 0 0 0
525937500 0.38549814594347726 -0.90052110798125 -0.09093863113921052 0.002673867923171457 0 0 0 0
526250000 0.3845564137646793 -0.9005791945636369 -0.09103094515109825 0.0028308476549544913 0 0 0 0
526562500 0.3834229738659007 -0.9011474190634735 -0.09100544590360587 0.0028961162207661617 0 0 0 0
526875000 0.38498605469513764 -0.9006088650114957 -0.09106629078633964 0.0025992186369266095 0 0 0 0
527187500 0.38395145113804546 -0.9010398526984608 -0.09103320030902598 0.002809414342150663 0 0 0 0
527500000 0.383567857571246 -0.9020290701520487 -0.09116493500756219 0.002926075005034111 0 0 0 0
527812500 0.38274361130172935 -0.9020337922856104 -0.0911076068259066 0.003124391133798084 0 0 0 0
528125000 0.3815108106563377 -0.9018551844429196 -0.09093531705098529 0.0031938805494781683 0 0 0 0
528437500 0.38155192088154477 -0.902128427121531 -0.09101895194549642 0.003191167817736194 0 0 0 0
528750000 0.3803630321846508 -0.9026287223599498 -0.09094210289206536 0.0033789532399284565 0 0 0 0
529062500 0.3802839978650623 -0.9032474880083518 -0.09103268120669526 0.0033897611266754677 0 0 0 0
529375000 0.3802876070106492 -0.9032073533590406 -0.0910436982722988 0.003378172984212265 0 0 0 0
529687500 0.3794869469205603 -0.9031888301584675 -0.09105321160812359 0.003518496223266163 0 0 0 0
530000000 0.37926596806917323 -0.9036813069947685 -0.09105407660777302 0.0034622191871699678 0 0 0 0
530312500 0.37817845973008574 -0.9039304617903905 -0.09098148641862198 0.0036016837424669187 0 0 0 0
530625000 0.377883274927104 -0.9050983162460378 -0.09110989584209271 0.00367466744627631 0 0 0 0
530937500 0.37783330621915323 -0.9041244936459272 -0.09096044050848677 0.0037072691341996666 0 0 0 0
531250000 0.3763507925193486 -0.9044280557231189 -0.09096305834935528 0.003953850445041666 0 0 0 0
531562500 0.37638551740758974 -0.9050151396447191 -0.0910273467703032 0.0038988001583576165 0 0 0 0
531875000 0.3765408861993602 -0.9049410631501954 -0.09089874959086047 0.0039774964738179186 0 0 0 0
532187500 0.37577262762139707 -0.9050843471907635 -0.09095197299734871 0.003990709116121299 0 0 0 0
532500000 0.37477648513509026 -0.9059378427354349 -0.09086523023863312 0.004111338042764337 0 0 0 0
532812500 0.3753839787132149 -0.905438720191178 -0.09086125772843873 0.004266767688380419 0 0 0 0
533125000 0.37376791622977906 -0.9056908401250515 -0.09095915258969837 0.004211606347907212 0 0 0 0
533437500 0.373292080708928 -0.906123268624182 -0.09090371664594656 0.004403379074446285 0 0 0 0
533750000 0.3722675098876528 -0.9056043102131807 -0.09081187347000749 0.004441653725369649 0 0 0 0
534062500 0.3720405437034801 -0.9062949229232599 -0.090888386139747 0.004517269967559861 0 0 0 0
534375000 0.3711802343637185 -0.9064990612085018 -0.09085741575040047 0.004643491801676431 0 0 0 0
534687500 0.37095584718989805 -0.9071716076017552 -0.09097498226804104 0.004747418292007103 0 0 0 0
535000000 0.37010580456979 -0.9067639813233004 -0.0908394200566488 0.0048123109721957625 0 0 0 0
535312500 0.3697236836392257 -0.9071529272257632 -0.0908267634441572 0.004766164832238228 0 0 0 0
535625000 0.36937325746795313 -0.9078543880256689 -0.09089060607801247 0.004879759779442179 0 0 0 0
535937500 0.3692400448394302 -0.9081074771242946 -0.09093558855285111 0.00496438656285218 0 0 0 0
536250000 0.3689361484981053 -0.9083954826950642 -0.09088546343711067 0.004983586720747692 0 0 0 0
536562500 0.36862237632302486 -0.9082672446207093 -0.09087109121235327 0.005003901978579075 0 0 0 0
536875000 0.36876102409775563 -0.9082490244060187 -0.0908518997198626 0.005029453442800732 0 0 0 0
537187500 0.3668694397988358 -0.9090341218079612 -0.0908937870482361 0.005186976176590861 0 0 0 0
537500000 0.36601574112105884 -0.9090624755537838 -0.09084119308643618 0.0053406002288785 0 0 0 0
537812500 0.3659225822506221 -0.9093628305466532 -0.09085105747147564 0.005267123872475581 0 0 0 0
538125000 0.3647503593295054 -0.9099829834240039 -0.09090223244956631 0.005449420064059909 0 0 0 0
538437500 0.3643921749012621 -0.9095602670924418 -0.09080970058608613 0.005535680900610682 0 0 0 0
538750000 0.36383165353741637 -0.909725509158212 -0.0907266052025007 0.005609706848616289 0 0 0 0
539062500 0.36421721556476283 -0.9103757887842253 -0.09087885733521744 0.005581819390427223 0 0 0 0
539375000 0.3638681871120429 -0.9103705973964351 -0.09090888421364943 0.005630360023227206 0 0 0 0
539687500 0.3637433580876571 -0.9099737231398467 -0.09086246784896466 0.005728080912102278 0 0 0 0
540000000 0.3629332273338981 -0.9102831716079542 -0.09071091605309128 0.005836161762795224 0 0 0 0
540312500 0.36162506583102144 -0.9111850929416715 -0.09076437550211175 0.006006434520776439 0 0 0 0
540625000 0.3612341085031078 -0.9116101481374239 -0.09083459647531465 0.006075717112787154 0 0 0 0
540937500 0.36003402607253093 -0.9114426862891692 -0.09075869124505952 0.006177478151591158 0 0 0 0
541250000 0.3594447131054272 -0.9109332341936959 -0.090681794522422 0.006236274034214085 0 0 0 0
541562500 0.3604240599717367 -0.9123211128202183 -0.09079447022322636 0.00616951713282388 0 0 0 0
541875000 0.35981404960010815 -0.9122054442403393 -0.0908798249805627 0.006236807623745193 0 0 0 0
542187500 0.3590986286729947 -0.9116099371112862 -0.09080482048528458 0.006239433504824008 0 0 0 0
542500000 0.3576970288620835 -0.913216255072687 -0.09092558938850274 0.006360876414680772 0 0 0 0
542812500 0.35757962281553807 -0.912878855006779 -0.09070607559738506 0.0063751943254935954 0 0 0 0
543125000 0.3559524262631156 -0.9130981426473588 -0.09079061992921778 0.006552318571886907 0 0 0 0
543437500 0.356090316693792 -0.9129793308780195 -0.09082360745009808 0.006594028418226355 0 0 0 0
543750000 0.3548503438004569 -0.9126706083560352 -0.09067860447422027 0.006668880448701045 0 0 0 0
544062500 0.3552912846601047 -0.9135383609110419 -0.09081509330239101 0.006806577815933556 0 0 0 0
544375000 0.3555688116642754 -0.913846638901468 -0.09080675156284437 0.006816429275891183 0 0 0 0
544687500 0.35370923966111795 -0.9137349724787518 -0.09065916351825208 0.007098777957970333 0 0 0 0
545000000 0.35358281217845594 -0.9141236450327676 -0.09068366739957676 0.006987977315559553 0 0 0 0
545312500 0.3544521146859658 -0.9142884179875402 -0.09087859975811428 0.007022426900473655 0 0 0 0
545625000 0.3531063116565486 -0.9139483887473022 -0.09082756558102208 0.0071235255639121075 0 0 0 0
545937500 0.35249983312956895 -0.9150795612886777 -0.09081151428811202 0.0072195448614632285 0 0 0 0
546250000 0.3526883345172902 -0.9155715081009055 -0.09083536486247445 0.007206606526854567 0 0 0 0
546562500 0.3516268020761292 -0.9150881693392858 -0.09070028418722277 0.007334727600916848 0 0 0 0
546875000 0.35120206575734797 -0.9155812973862374 -0.09074587220615742 0.00743689346103272 0 0 0 0
547187500 0.35013542244800944 -0.9154685304764325 -0.0907009821444061 0.007529926937198787 0 0 0 0
547500000 0.34973891837916665 -0.9149884309844853 -0.0906871792669726 0.007486704504466713 0 0 0 0
547812500 0.35001191005872856 -0.9160733045510638 -0.09061652084615285 0.0074883201679153185 0 0 0 0
548125000 0.34740707449249564 -0.9170959523334945 -0.09067890940837274 0.00786919831008479 0 0 0 0
548437500 0.3490558183076143 -0.916563127085612 -0.09070021526214544 0.0078117888367926665 0 0 0 0
548750000 0.3484379664319458 -0.9165598821995105 -0.09066918463628837 0.007861824777847054 0 0 0 0
549062500 0.3473262359832492 -0.9164202105103948 -0.09067732259996827 0.00782476841241334 0 0 0 0
549375000 0.3461602744545478 -0.9176989405023707 -0.0907567282932376 0.008028257204611705 0 0 0 0
549687500 0.34694595856962734 -0.9170519744413514 -0.09073385090403777 0.007882878548332542 0 0 0 0
550000000 0.34545870591922323 -0.9178990323321146 -0.09067044497991848 0.00807071481503724 0 0 0 0
550312500 0.3454437817026925 -0.9176098031650098 -0.0905681045526171 0.008030227186899434 0 0 0 0
550625000 0.3453197512484003 -0.9183768053951346 -0.09081326643077273 0.008138781332445093 0 0 0 0
550937500 0.34526416634197593 -0.918332535319385 -0.09071604815796992 0.008121499545952034 0 0 0 0
551250000 0.34418818904039705 -0.9188630730247674 -0.09068381768320996 0.008324671888422437 0 0 0 0
551562500 0.3439729786797535 -0.9186270672351893 -0.09072745646017505 0.00829375031844303 0 0 0 0
551875000 0.3441459377925758 -0.9189017902138055 -0.09072520696362027 0.008336480401247591 0 0 0 0
552187500 0.34322382003575164 -0.9189550265300074 -0.09074519045030488 0.008460206703548577 0 0 0 0
552500000 0.34140454174992557 -0.919125912837762 -0.09056497001830105 0.008748193869012105 0 0 0 0
552812500 0.3411734505931336 -0.9192705428890576 -0.09069296317266681 0.008683250865962834 0 0 0 0
553125000 0.3412110119942884 -0.9195193454842007 -0.09071015485475273 0.008601759029506611 0 0 0 0
553437500 0.34108482420361347 -0.9195651610717056 -0.09077261542184152 0.008699089952835313 0 0 0 0
553750000 0.33953957287389874 -0.9191187047375283 -0.09051938241789993 0.008842655506173256 0 0 0 0
554062500 0.3392965158092654 -0.9195175783993556 -0.09062973575743836 0.008902357498679896 0 0 0 0
554375000 0.3384562474733025 -0.919893053117005 -0.09054068981458775 0.0090586131461931 0 0 0 0
554687500 0.3364921875519689 -0.9210329015903015 -0.09063757832724945 0.00908890696039198 0 0 0 0
555000000 0.33913035597395635 -0.9204725559696292 -0.09062840032172284 0.008904865528458282 0 0 0 0
555312500 0.3364217631298435 -0.9208050383699158 -0.09064816366876575 0.009050926924730134 0 0 0 0
555625000 0.33914275962653073 -0.9203005158378511 -0.09074613743578978 0.008950954227487014 0 0 0 0
555937500 0.33640167117728026 -0.9211287784157874 -0.0907067847069152 0.009245727004369573 0 0 0 0
556250000 0.3359691068488658 -0.9204464065480013 -0.0906083286763266 0.009328169455943046 0 0 0 0
556562500 0.33663386374071946 -0.9212532626251845 -0.09081133351766763 0.009243969822178729 0 0 0 0
556875000 0.33622263136643904 -0.9210264465531853 -0.09071942393513209 0.00933047823327217 0 0 0 0
557187500 0.3355978518983616 -0.921230952714133 -0.09063995571397242 0.009355402416838916 0 0 0 0
557500000 0.33612960591778274 -0.9215583049883022 -0.0907346853099025 0.009320200071755717 0 0 0 0
557812500 0.3338014992976787 -0.9219588035286114 -0.09054876935169498 0.009608392758513213 0 0 0 0
558125000 0.33431426458977326 -0.922134560345113 -0.09076901272909678 0.009547596946784689 0 0 0 0
558437500 0.3322484285439706 -0.9224238394151291 -0.09047866006870212 0.009856908670631551 0 0 0 0
558750000 0.332994699132437 -0.9220959553513337 -0.09061509860511896 0.009668449848861867 0 0 0 0
559062500 0.3325401995172476 -0.9229192434160702 -0.09061781023615816 0.009761580979008975 0 0 0 0
559375000 0.3313909324408541 -0.9230188788233246 -0.09068660324326495 0.009935183118771954 0 0 0 0
559687500 0.3309258230093451 -0.9232755469996775 -0.09061313600685508 0.009824952204301355 0 0 0 0
560000000 0.331238070732068 -0.9237720159490612 -0.09066501467152123 0.009933519753661874 0 0 0 0
560312500 0.3307796919060101 -0.9239037848251016 -0.09063389092602078 0.009997092125046254 0 0 0 0
560625000 0.3301019437632219 -0.9242626773353382 -0.09065385885015546 0.010063393952487268 0 0 0 0
560937500 0.3290562042006089 -0.9234514899635178 -0.09057131782425668 0.010033720845900044 0 0 0 0
561250000 0.3278290457916594 -0.9250469262575314 -0.09057462277319185 0.010384362521195888 0 0 0 0
561562500 0.3292763808414534 -0.9242498674664227 -0.09061657976281569 0.010351268350601529 0 0 0 0
561875000 0.3281354012298859 -0.9246489509156554 -0.09068536901177766 0.010456853336569368 0 0 0 0
562187500 0.3281165842025842 -0.9236717207522697 -0.09060788127524495 0.01029874464903308 0 0 0 0
