# HZ S RI R 50
500000000 -0.9458606608326745 1.024180179970378 2.129125282321436 0.5724143740710456 0 0 0 0
500312500 -0.0655360354526252 -0.07418310131461164 1.3221872127241203e-05 -7.413939047986612e-06 0 0 0 0
500625000 -0.0650811920962718 -0.07449734439912835 1.9827077222252703e-05 2.9529664680635346e-07 0 0 0 0
500937500 -0.06462251904424583 -0.07480558448983456 2.635046048731337e-05 8.066241615844274e-06 0 0 0 0
501250000 -0.06427281999271295 -0.07510875169557066 2.4018399434130922e-05 9.305469775598738e-06 0 0 0 0
501562500 -0.06393581397536233 -0.07540777904630426 2.039042833688769e-05 9.544326936572982e-06 0 0 0 0
501875000 -0.06359501411125335 -0.07570257321682711 1.6760670780388187e-05 9.744606555106641e-06 0 0 0 0
502187500 -0.06318616347694768 -0.07596993094911719 1.526823700698822e-05 7.775688965016866e-06 0 0 0 0
502500000 -0.06275189730491754 -0.07622391541026664 1.4536234615388345e-05 5.061957300988848e-06 0 0 0 0
502812500 -0.06231452543176162 -0.07647227878992233 1.38321963603869e-05 2.341346746821189e-06 0 0 0 0
503125000 -0.061887245927449416 -0.07674615937552971 9.68080569512701e-06 3.7487946604088557e-06 0 0 0 0
503437500 -0.061464571047983835 -0.07703403626784408 3.334172085989449e-06 7.683204371882613e-06 0 0 0 0
503750000 -0.06103828129821899 -0.07731644620913036 -3.0520548140770353e-06 1.1553993234259497e-05 0 0 0 0
504062500 -0.06063261742308815 -0.07760922397349844 -5.213859712190928e-06 9.735071639462565e-06 0 0 0 0
504375000 -0.06024848597674281 -0.07791378571619917 -2.852541179631272e-06 2.0089759950849595e-06 0 0 0 0
504687500 -0.05986049302735694 -0.07821359539703214 -4.158389916409149e-07 -5.693819966615516e-06 0 0 0 0
505000000 -0.05945893851790921 -0.07848880910522651 1.4724751973529455e-06 -8.659113302497555e-06 0 0 0 0
505312500 -0.059036744021732146 -0.07872374095543884 2.235082030902957e-06 -3.223004010253329e-06 0 0 0 0
505625000 -0.05861164683697983 -0.07895343028749598 2.9387219910507883e-06 2.21919490233626e-06 0 0 0 0
505937500 -0.05818317771206963 -0.07918136020025372 3.3587369943255303e-06 5.543836315157159e-06 0 0 0 0
506250000 -0.0577499280481273 -0.07941548088083938 3.0345277522207256e-06 1.8281123833809942e-06 0 0 0 0
506562500 -0.05731376693755787 -0.07964389141185313 2.7482417247107474e-06 -1.8910716006557978e-06 0 0 0 0
506875000 -0.05687737852507529 -0.07987375816605373 2.2767552242577997e-06 -4.808074334554248e-06 0 0 0 0
507187500 -0.05645991721122603 -0.08016060922431001 -1.298216168733512e-07 -7.743387417729373e-07 0 0 0 0
507500000 -0.056038733520317394 -0.08044219961749395 -2.5751093562919534e-06 3.2363584847017543e-06 0 0 0 0
507812500 -0.05561392732836245 -0.08071845755955943 -5.058776366104844e-06 7.223462055933183e-06 0 0 0 0
508125000 -0.0552063582204545 -0.08092924836776205 2.6074632981500414e-06 5.069197749778009e-06 0 0 0 0
508437500 -0.05479678232187597 -0.08113337775584677 1.055142587347378e-05 2.844516690924491e-06 0 0 0 0
508750000 -0.05438478884758036 -0.08133230925270978 1.851734890634814e-05 7.043045041321595e-07 0 0 0 0
509062500 -0.053904809310282 -0.08154616134852631 1.6212034292130015e-05 2.0666738873009553e-06 0 0 0 0
509375000 -0.053410318002825155 -0.08175737598894514 1.2037457294049356e-05 4.012728753192235e-06 0 0 0 0
509687500 -0.052913212828638624 -0.08196219431721954 7.842865966730344e-06 5.917627444199488e-06 0 0 0 0
510000000 -0.05247855603334875 -0.08219370981577698 1.3099370338992393e-06 5.631987700232992e-06 0 0 0 0
510312500 -0.052066146315987015 -0.08243275387340837 -6.118326413839155e-06 4.4384067759330104e-06 0 0 0 0
510625000 -0.051650648455025164 -0.08266652207574585 -1.3532092421033986e-05 3.170486799286864e-06 0 0 0 0
510937500 -0.051204109948485 -0.0829044462800535 -1.4776731115684333e-05 1.6807124741726378e-06 0 0 0 0
511250000 -0.0507351514654907 -0.0831431820595711 -1.1754052576340806e-05 9.770867053103234e-08 0 0 0 0
511562500 -0.0502632252938779 -0.0833760242118605 -8.715972354883042e-06 -1.4549630473017425e-06 0 0 0 0
511875000 -0.04979209953346379 -0.08357924924147131 -2.4093831043839595e-06 6.783050753894344e-07 0 0 0 0
512187500 -0.04932286986003826 -0.08374915785684096 7.620104689378339e-06 7.12968534545408e-06 0 0 0 0
512500000 -0.04885156081348742 -0.08391315736335905 1.758081754992333e-05 1.3684304628370368e-05 0 0 0 0
512812500 -0.04839187579413685 -0.08407879040675668 2.116880684243742e-05 1.5916982081145683e-05 0 0 0 0
513125000 -0.04795695648373934 -0.08425384431396496 1.2278328251563014e-05 9.355071698602705e-06 0 0 0 0
513437500 -0.047519801233986574 -0.08442343644734784 3.447890052634731e-06 2.707310552562906e-06 0 0 0 0
513750000 -0.04708250996201115 -0.08459540829133796 -2.5400735869174186e-06 -1.2304653934164055e-06 0 0 0 0
514062500 -0.046650542444975095 -0.08479201071249338 2.0926825249933384e-06 5.518578106152857e-06 0 0 0 0
514375000 -0.04621617866410189 -0.08498305310567457 6.653789639802757e-06 1.2313852436156107e-05 0 0 0 0
514687500 -0.04577639675251414 -0.08516982474662488 1.0411242282692136e-05 1.775369465779172e-05 0 0 0 0
515000000 -0.04529783082876583 -0.08536615475597628 5.6944160164250205e-06 6.900963871615447e-06 0 0 0 0
515312500 -0.044816808430779606 -0.08555625684233385 1.0960320982223497e-06 -3.999709533152915e-06 0 0 0 0
515625000 -0.04433345138724063 -0.08574008575848362 -3.383191661558646e-06 -1.4946385565700807e-05 0 0 0 0
515937500 -0.043880990852710404 -0.08587579936168287 2.2383686873882406e-06 -1.2321032432062054e-05 0 0 0 0
516250000 -0.043428651224957496 -0.08600383982185891 8.345139543795148e-06 -8.941015003131246e-06 0 0 0 0
516562500 -0.04297484543511849 -0.08612634856517255 1.4419793516541599e-05 -5.5039190145591185e-06 0 0 0 0
516875000 -0.0425083288363421 -0.08627295258146163 1.1944368412405823e-05 1.8804484551848107e-06 0 0 0 0
517187500 -0.042037446794269934 -0.08641982431371413 7.5549666999438565e-06 1.0064063733091074e-05 0 0 0 0
517500000 -0.04156469419711966 -0.08656050181037027 3.0782607112711942e-06 1.8200209055736618e-05 0 0 0 0
517812500 -0.04111166887957312 -0.0867125005616533 2.4826010672433005e-07 1.6190555237018193e-05 0 0 0 0
518125000 -0.04066617883533631 -0.08686658233012254 -1.7780332464719783e-06 9.725542387249813e-06 0 0 0 0
518437500 -0.040218857902354924 -0.08701512760856371 -3.737639058050295e-06 3.2411322351496334e-06 0 0 0 0
518750000 -0.03973504686178597 -0.08715150179782125 -1.144667035471867e-06 1.8317840054245482e-06 0 0 0 0
519062500 -0.03922288603791404 -0.08727633444899469 4.868796723476098e-06 4.359209498466182e-06 0 0 0 0
519375000 -0.038709007437668384 -0.08739438320594509 1.08558202617777e-05 6.950648827065437e-06 0 0 0 0
519687500 -0.03821116629274691 -0.08752571211276261 1.5395184359841708e-05 1.159863469074381e-05 0 0 0 0
520000000 -0.037734064927694815 -0.08767658193541925 1.8059632207503e-05 1.882949087291868e-05 0 0 0 0
520312500 -0.03725516084782096 -0.08782153816018629 2.065219304603718e-05 2.6083639003347612e-05 0 0 0 0
520625000 -0.03679518481547615 -0.0879414552343317 1.9688310783004636e-05 2.8615969591590464e-05 0 0 0 0
520937500 -0.03637978593194213 -0.08801372414331013 1.1026156320093105e-05 2.0582863878403732e-05 0 0 0 0
521250000 -0.035963578705420225 -0.08808100128667835 2.442675549496833e-06 1.246551354910004e-05 0 0 0 0
521562500 -0.035531897128444345 -0.08815820049838632 -4.777689104295313e-06 6.288672307787304e-06 0 0 0 0
521875000 -0.03503285264038413 -0.08829620979142082 -6.246405144036391e-06 9.115623720312454e-06 0 0 0 0
522187500 -0.034531996801000046 -0.08842764746682283 -7.744972684246794e-06 1.1927432916546676e-05 0 0 0 0
522500000 -0.03403228533902507 -0.0885521926014722 -8.914405962158387e-06 1.4410907379760692e-05 0 0 0 0
522812500 -0.033579819621639403 -0.08866559732176275 -3.886971901286689e-06 1.1514857822127806e-05 0 0 0 0
523125000 -0.033125940692736236 -0.0887731649872165 1.1719455899891232e-06 8.67074860498607e-06 0 0 0 0
523437500 -0.03267076165568483 -0.08887486994162012 6.2615406880206645e-06 5.8790883699147945e-06 0 0 0 0
523750000 -0.032144778450862416 -0.08893880274351407 4.563657522816504e-06 4.003715893983656e-06 0 0 0 0
524062500 -0.03161251756861997 -0.08899362485100407 2.3463616732424135e-06 2.1774535099285227e-06 0 0 0 0
524375000 -0.031079620889403452 -0.08904181926054436 1.4887776903636858e-07 3.295639692883152e-07 0 0 0 0
524687500 -0.030603111237025478 -0.08912180437154349 2.7550947795981098e-06 2.0168475641080345e-06 0 0 0 0
525000000 -0.03013981620159856 -0.08920538354754215 6.5465694619957e-06 4.631272995886987e-06 0 0 0 0
525312500 -0.02967542539436871 -0.08928290688602682 1.0312148682890488e-05 7.281578244073534e-06 0 0 0 0
525625000 -0.029199885292581898 -0.08934638971194568 6.214836841185928e-06 7.915808095202117e-06 0 0 0 0
525937500 -0.02871868760988464 -0.08939997292658454 -1.7350012980986782e-06 7.479312142950697e-06 0 0 0 0
526250000 -0.028236980279077218 -0.08944758038808011 -9.682017462086417e-06 6.960517652802551e-06 0 0 0 0
526562500 -0.02773294864386787 -0.08950887719182042 -1.367907448326209e-05 4.8623892606158936e-06 0 0 0 0
526875000 -0.02720961704133358 -0.08958024353336307 -1.4320609783821248e-05 1.4770398462250096e-06 0 0 0 0
527187500 -0.02668544352143251 -0.08964492003900879 -1.4926704865473386e-05 -1.9157079661464486e-06 0 0 0 0
527500000 -0.026184831516094253 -0.08970650058898107 -1.5081352328045365e-05 -5.534274027345945e-06 0 0 0 0
527812500 -0.025717695914461398 -0.08976704560961411 -1.4612039193532368e-05 -9.460304588583655e-06 0 0 0 0
528125000 -0.025249762987985463 -0.08982168350491883 -1.4106009783676965e-05 -1.3380552659952606e-05 0 0 0 0
528437500 -0.02477575602252204 -0.08985786935197063 -1.2794833847006512e-05 -1.4707924594964876e-05 0 0 0 0
528750000 -0.024288098687036956 -0.0898567528803621 -9.591111163891123e-06 -9.565897085390987e-06 0 0 0 0
529062500 -0.023800525534800155 -0.0898494646453417 -6.442526173396303e-06 -4.388810454375183e-06 0 0 0 0
529375000 -0.023312547637543368 -0.0898482207846977 -3.5255119242980468e-06 -7.760866105951659e-07 0 0 0 0
529687500 -0.02282103356414091 -0.08990571890283945 -1.5375530198165258e-06 -5.632835504131629e-06 0 0 0 0
530000000 -0.022328859832330614 -0.08995705101420089 5.00484934236262e-07 -1.046893453247853e-05 0 0 0 0
530312500 -0.021837833601044614 -0.09000066607011367 2.551987951813113e-06 -1.4905328380160822e-05 0 0 0 0
530625000 -0.021400734565831112 -0.08998912473047234 3.428550274435116e-06 -7.226424527625058e-06 0 0 0 0
530937500 -0.020963821723561243 -0.08997199465050593 4.231054148808837e-06 4.5947352012358135e-07 0 0 0 0
531250000 -0.020527202218736024 -0.08994928082701617 4.959425353655002e-06 8.151295693381652e-06 0 0 0 0
531562500 -0.01999624703120691 -0.0899923937204632 5.30265573967199e-06 8.894506567573099e-06 0 0 0 0
531875000 -0.01945436101131992 -0.09003639411926831 5.60862945442758e-06 8.887818277673354e-06 0 0 0 0
532187500 -0.018911878122574624 -0.0900734674495741 5.914609175428401e-06 8.884435852794852e-06 0 0 0 0
532500000 -0.018427694249149248 -0.09006382437762035 5.918752781605463e-06 8.75707243958996e-06 0 0 0 0
532812500 -0.01796091465727502 -0.09003659525223792 5.836312877560713e-06 8.592270732013302e-06 0 0 0 0
533125000 -0.017494589255785568 -0.09000351118668609 5.755506421585089e-06 8.426714976986941e-06 0 0 0 0
533437500 -0.01701634588087847 -0.08998121350242246 5.2052021977325285e-06 9.64693246250887e-06 0 0 0 0
533750000 -0.01653160516875596 -0.0899618241196822 4.379818310530431e-06 1.162042127940527e-05 0 0 0 0
534062500 -0.016047250871341515 -0.08993616551661872 3.5334233333649126e-06 1.3586460223685631e-05 0 0 0 0
534375000 -0.015559179311621662 -0.08989327868061689 5.907842905484969e-06 1.2734432856892789e-05 0 0 0 0
534687500 -0.015067774553527834 -0.08983407670455505 1.131634288411524e-05 9.30845822785022e-06 0 0 0 0
535000000 -0.01457706996904399 -0.08976881672637982 1.6755531366703582e-05 5.938081583220646e-06 0 0 0 0
535312500 -0.014095005884684675 -0.08972466182658052 1.8807306651648665e-05 4.706080067386291e-06 0 0 0 0
535625000 -0.013625384868084196 -0.08971692299291424 1.55083845061637e-05 6.724202134118672e-06 0 0 0 0
535937500 -0.01315576306584489 -0.08970313711774379 1.2187341361196297e-05 8.70822012894436e-06 0 0 0 0
536250000 -0.012674454724772652 -0.08968464924083627 9.644429442607112e-06 8.344132268401005e-06 0 0 0 0
536562500 -0.012160175908491428 -0.08966358990848654 9.391180756627182e-06 1.449026823793232e-06 0 0 0 0
536875000 -0.011646322917563874 -0.08963598900384877 9.208782936586025e-06 -5.446432340567596e-06 0 0 0 0
537187500 -0.011142516754244932 -0.08960229835607511 8.374379914371275e-06 -1.0928829751760305e-05 0 0 0 0
537500000 -0.010700570276665542 -0.08956546433783685 2.875138323472172e-06 -7.308495007173676e-06 0 0 0 0
537812500 -0.010259016888990209 -0.08952305270600136 -2.6613016311699905e-06 -3.7425178556255197e-06 0 0 0 0
538125000 -0.009817585838106184 -0.08947502364344685 -8.202707652444844e-06 -2.749537737071737e-07 0 0 0 0
538437500 -0.009313239984049702 -0.08941305295517497 -8.42722199461444e-06 -4.190351491710242e-06 0 0 0 0
538750000 -0.008809851743790701 -0.08934453361668374 -8.611290019894404e-06 -8.107632716800016e-06 0 0 0 0
539062500 -0.008307548429373847 -0.0892694880921677 -8.7548917697974e-06 -1.2026170825666231e-05 0 0 0 0
539375000 -0.007792963431100131 -0.08919044492391655 -4.337976145198059e-06 -1.1412195652434943e-05 0 0 0 0
539687500 -0.007277446275752822 -0.0891051861996922 6.98397470679144e-07 -1.012015378753279e-05 0 0 0 0
540000000 -0.006762974717838664 -0.08901337501293276 5.721148588749165e-06 -8.778073434408122e-06 0 0 0 0
540312500 -0.0063326733915523 -0.08891844728794186 2.4936941126846984e-06 -1.806571812626334e-06 0 0 0 0
540625000 -0.005931219039362397 -0.08881951670785668 -3.561718842944491e-06 6.982246248681379e-06 0 0 0 0
540937500 -0.005530983620752266 -0.0887156598932813 -9.704890067102943e-06 1.5711490053509066e-05 0 0 0 0
541250000 -0.005062012642602337 -0.08864037172558174 -1.1395384073888902e-05 1.2254306099933796e-05 0 0 0 0
541562500 -0.004551363900323585 -0.08857925636240815 -1.0246814346114095e-05 1.4152757511187062e-06 0 0 0 0
541875000 -0.004041669044120458 -0.08851166127715356 -8.983278307388672e-06 -9.41276618527556e-06 0 0 0 0
542187500 -0.0035704315178556314 -0.0884196747865573 -1.0406841846440225e-05 -1.0017887038073632e-05 0 0 0 0
542500000 -0.003138838025297625 -0.08830355803228905 -1.4750717725558943e-05 -1.8406282155063967e-07 0 0 0 0
542812500 -0.002708691040018073 -0.08818196724100513 -1.919496353586197e-05 9.599130195953127e-06 0 0 0 0
543125000 -0.0022467890108600654 -0.08805306276746505 -1.9544489591072593e-05 1.4347465314399203e-05 0 0 0 0
543437500 -0.0017288823936382227 -0.08791466982461058 -1.2618816167195043e-05 1.0479355578990683e-05 0 0 0 0
543750000 -0.0012129456142050492 -0.08776967988465854 -5.6516216292012066e-06 6.679521782610072e-06 0 0 0 0
544062500 -0.0007066818071521319 -0.08763168859275389 -1.877763831600822e-06 4.612538975437683e-06 0 0 0 0
544375000 -0.00022621269309183368 -0.08753088605419335 -8.48821886717871e-06 7.872025188707992e-06 0 0 0 0
544687500 0.0002531220058167093 -0.08742391798608962 -1.5130521308777153e-05 1.1065763431690168e-05 0 0 0 0
545000000 0.0007318043182002582 -0.08730988581565828 -2.0509247316914662e-05 1.331547964475751e-05 0 0 0 0
545312500 0.0012138845233011627 -0.08718224582843795 -1.5346135804311317e-05 8.424771892107785e-06 0 0 0 0
545625000 0.0016942691250964217 -0.08704848029906129 -1.0132898331377716e-05 3.58525496303119e-06 0 0 0 0
545937500 0.0021728416162485826 -0.08690862369500289 -4.8702989540366045e-06 -1.2023046445386376e-06 0 0 0 0
546250000 0.002584525165863478 -0.08683490214612267 -8.762159461726018e-06 -8.135127016783502e-07 0 0 0 0
546562500 0.0029940395476372597 -0.08675727621874314 -1.283142621368475e-05 -3.688171360725669e-07 0 0 0 0
546875000 0.003402522184720424 -0.08667440671346918 -1.690393400205709e-05 3.3986710297735964e-08 0 0 0 0
547187500 0.003865746403747731 -0.08652568499620446 -1.004599571456434e-05 6.541431448002712e-06 0 0 0 0
547500000 0.004336573472613707 -0.08636060121563106 -1.3799476359969044e-06 1.4181330084250286e-05 0 0 0 0
547812500 0.004805230482029991 -0.08618955227532317 7.209362622973081e-06 2.190599637278151e-05 0 0 0 0
548125000 0.005244501741080818 -0.08601809120457721 7.495174397138493e-06 2.2820570386776573e-05 0 0 0 0
548437500 0.00567137428166181 -0.0858432842968804 4.6695916043122966e-06 2.1111592658177713e-05 0 0 0 0
548750000 0.006096051251781672 -0.08566315612887264 1.8608325515744944e-06 1.9374438223417567e-05 0 0 0 0
549062500 0.006539709963082544 -0.0855027293691635 1.7016073548452503e-06 1.3141743272796909e-05 0 0 0 0
549375000 0.006995869553219992 -0.08535352769542025 3.4002356423702715e-06 3.90565732125009e-06 0 0 0 0
549687500 0.0074502168807874134 -0.08519864418681203 5.198140786425823e-06 -5.310849957276063e-06 0 0 0 0
550000000 0.007898463432997155 -0.08504537241114198 8.727940177452787e-06 -1.1254261174596459e-05 0 0 0 0
550312500 0.008340055724681213 -0.08489462765489313 1.4148430849958255e-05 -1.3473207356493419e-05 0 0 0 0
550625000 0.008779652126371381 -0.08473820900447844 1.9591823988490557e-05 -1.5637195485105543e-05 0 0 0 0
550937500 0.009223595892998078 -0.08455578722759012 2.1682867355642492e-05 -1.7069267287869662e-05 0 0 0 0
551250000 0.009677327494227918 -0.08432828642376111 1.7265782738199348e-05 -1.7206291768528026e-05 0 0 0 0
551562500 0.010128051395108034 -0.08409502140250115 1.2850744502638378e-05 -1.738775687291426e-05 0 0 0 0
551875000 0.010580154606962608 -0.08386612113285749 8.356017055420413e-06 -1.5917510360808912e-05 0 0 0 0
552187500 0.011046138865676233 -0.0836685583920869 3.5123350526752525e-06 -8.231711078801668e-06 0 0 0 0
552500000 0.011509617436135903 -0.08346507940413109 -1.4065021789569351e-06 -5.953178783992865e-07 0 0 0 0
552812500 0.01196618803607489 -0.0832581077475736 -5.893867540902902e-06 6.356104323852036e-06 0 0 0 0
553125000 0.012374156823063491 -0.083071209867008 -4.974263056911095e-06 6.4651639394151055e-06 0 0 0 0
553437500 0.012779792588832897 -0.08287917238941998 -4.055447877911512e-06 6.584228888692005e-06 0 0 0 0
553750000 0.01318299848814432 -0.08268203960595161 -3.137585006183023e-06 6.713291825252947e-06 0 0 0 0
554062500 0.013639761231543665 -0.08249261910063237 -3.87498036761783e-06 5.3673793612467835e-06 0 0 0 0
554375000 0.014096714159682085 -0.08229803041596939 -4.673262259052437e-06 3.947619765676739e-06 0 0 0 0
554687500 0.014551236465263608 -0.08209772762536208 -5.457698709801978e-06 2.520544310014673e-06 0 0 0 0
555000000 0.014966639673680482 -0.08187320162252161 -7.256984505402318e-06 -4.3799621857147293e-07 0 0 0 0
555312500 0.015371478272193536 -0.08163952912031261 -9.236498865950847e-06 -3.7310849047909484e-06 0 0 0 0
555625000 0.01577316303071342 -0.08140062819009532 -1.1181955345992302e-05 -7.044907510764153e-06 0 0 0 0
555937500 0.016204572787217014 -0.08115377158117354 -1.216543861795808e-05 -7.639755858622765e-06 0 0 0 0
556250000 0.016646888248540024 -0.08090025512077548 -1.2752905207355468e-05 -7.0737873513474405e-06 0 0 0 0
556562500 0.017085966205415463 -0.0806412657999887 -1.3346149187829522e-05 -6.513907726369564e-06 0 0 0 0
556875000 0.01752204075123064 -0.08040151767325544 -1.2333396860484429e-05 -4.509538619380379e-06 0 0 0 0
557187500 0.01795546028164419 -0.08017457479107436 -1.0144821442121851e-05 -1.4078700348522499e-06 0 0 0 0
557500000 0.018386012221096378 -0.07994204678316243 -7.987995656740653e-06 1.714879638478859e-06 0 0 0 0
557812500 0.018795906702990053 -0.07971971284078307 -6.428986249526978e-06 4.161755265941187e-06 0 0 0 0
558125000 0.019180968996064047 -0.07951184553518502 -5.596592300890559e-06 5.751163817644114e-06 0 0 0 0
558437500 0.019563295165381012 -0.07929899043923128 -4.7801685161800895e-06 7.349032443082098e-06 0 0 0 0
558750000 0.01995096648763317 -0.07907702186219204 -4.9065876103468e-06 7.21970641034088e-06 0 0 0 0
